Command: /home/timtim01/eda_test/project/gen_amba_2025/9x9_vip/axi4_vip_env_rtl_integration/sim/./simv +UVM_TESTNAME=axi4_stress_test +UVM_VERBOSITY=UVM_MEDIUM +ntb_random_seed=1 +fsdb_file=./waves/axi4_stress_test_1.fsdb -l ./logs/axi4_stress_test_1.log
Chronologic VCS simulator copyright 1991-2024
Contains Synopsys proprietary information.
Compiler version W-2024.09-SP1_Full64; Runtime version W-2024.09-SP1_Full64;  Aug  4 16:23 2025
UVM_INFO /home/eda_tools/synopsys/vcs/W-2024.09-SP1//etc/uvm-1.2/base/uvm_root.svh(402) @ 0: reporter [UVM/RELNOTES] 
----------------------------------------------------------------
UVM-1.2.Synopsys
(C) 2007-2014 Mentor Graphics Corporation
(C) 2007-2014 Cadence Design Systems, Inc.
(C) 2006-2014 Synopsys, Inc.
(C) 2011-2013 Cypress Semiconductor Corp.
(C) 2013-2014 NVIDIA Corporation
----------------------------------------------------------------

  ***********       IMPORTANT RELEASE NOTES         ************

  You are using a version of the UVM library that has been compiled
  with `UVM_OBJECT_DO_NOT_NEED_CONSTRUCTOR undefined.
  See http://www.eda.org/svdb/view.php?id=3770 for more details.

      (Specify +UVM_NO_RELNOTES to turn off this notice)

UVM_INFO ../agent/master_agent_bfm/axi4_master_driver_bfm.sv(259) @ 0: reporter [AXI_MASTER_DRIVER_BFM] Master BFM signals initialized
UVM_INFO ../agent/master_agent_bfm/axi4_master_driver_bfm.sv(269) @ 0: reporter [AXI_MASTER_DRIVER_BFM] Enabling BFM driving for signal visibility
UVM_INFO ../agent/master_agent_bfm/axi4_master_driver_bfm.sv(259) @ 0: reporter [AXI_MASTER_DRIVER_BFM] Master BFM signals initialized
UVM_INFO ../agent/master_agent_bfm/axi4_master_driver_bfm.sv(269) @ 0: reporter [AXI_MASTER_DRIVER_BFM] Enabling BFM driving for signal visibility
UVM_INFO ../agent/master_agent_bfm/axi4_master_driver_bfm.sv(259) @ 0: reporter [AXI_MASTER_DRIVER_BFM] Master BFM signals initialized
UVM_INFO ../agent/master_agent_bfm/axi4_master_driver_bfm.sv(269) @ 0: reporter [AXI_MASTER_DRIVER_BFM] Enabling BFM driving for signal visibility
UVM_INFO ../agent/master_agent_bfm/axi4_master_driver_bfm.sv(259) @ 0: reporter [AXI_MASTER_DRIVER_BFM] Master BFM signals initialized
UVM_INFO ../agent/master_agent_bfm/axi4_master_driver_bfm.sv(269) @ 0: reporter [AXI_MASTER_DRIVER_BFM] Enabling BFM driving for signal visibility
UVM_INFO ../agent/master_agent_bfm/axi4_master_driver_bfm.sv(259) @ 0: reporter [AXI_MASTER_DRIVER_BFM] Master BFM signals initialized
UVM_INFO ../agent/master_agent_bfm/axi4_master_driver_bfm.sv(269) @ 0: reporter [AXI_MASTER_DRIVER_BFM] Enabling BFM driving for signal visibility
UVM_INFO ../agent/master_agent_bfm/axi4_master_driver_bfm.sv(259) @ 0: reporter [AXI_MASTER_DRIVER_BFM] Master BFM signals initialized
UVM_INFO ../agent/master_agent_bfm/axi4_master_driver_bfm.sv(269) @ 0: reporter [AXI_MASTER_DRIVER_BFM] Enabling BFM driving for signal visibility
UVM_INFO ../agent/master_agent_bfm/axi4_master_driver_bfm.sv(259) @ 0: reporter [AXI_MASTER_DRIVER_BFM] Master BFM signals initialized
UVM_INFO ../agent/master_agent_bfm/axi4_master_driver_bfm.sv(269) @ 0: reporter [AXI_MASTER_DRIVER_BFM] Enabling BFM driving for signal visibility
UVM_INFO ../agent/master_agent_bfm/axi4_master_driver_bfm.sv(259) @ 0: reporter [AXI_MASTER_DRIVER_BFM] Master BFM signals initialized
UVM_INFO ../agent/master_agent_bfm/axi4_master_driver_bfm.sv(269) @ 0: reporter [AXI_MASTER_DRIVER_BFM] Enabling BFM driving for signal visibility
UVM_INFO ../agent/master_agent_bfm/axi4_master_driver_bfm.sv(259) @ 0: reporter [AXI_MASTER_DRIVER_BFM] Master BFM signals initialized
UVM_INFO ../agent/master_agent_bfm/axi4_master_driver_bfm.sv(269) @ 0: reporter [AXI_MASTER_DRIVER_BFM] Enabling BFM driving for signal visibility
UVM_INFO ../agent/slave_agent_bfm/axi4_slave_driver_bfm.sv(265) @ 0: reporter [AXI_SLAVE_DRIVER_BFM] Slave BFM signals initialized
UVM_INFO ../agent/slave_agent_bfm/axi4_slave_driver_bfm.sv(265) @ 0: reporter [AXI_SLAVE_DRIVER_BFM] Slave BFM signals initialized
UVM_INFO ../agent/slave_agent_bfm/axi4_slave_driver_bfm.sv(265) @ 0: reporter [AXI_SLAVE_DRIVER_BFM] Slave BFM signals initialized
UVM_INFO ../agent/slave_agent_bfm/axi4_slave_driver_bfm.sv(265) @ 0: reporter [AXI_SLAVE_DRIVER_BFM] Slave BFM signals initialized
UVM_INFO ../agent/slave_agent_bfm/axi4_slave_driver_bfm.sv(265) @ 0: reporter [AXI_SLAVE_DRIVER_BFM] Slave BFM signals initialized
UVM_INFO ../agent/slave_agent_bfm/axi4_slave_driver_bfm.sv(265) @ 0: reporter [AXI_SLAVE_DRIVER_BFM] Slave BFM signals initialized
UVM_INFO ../agent/slave_agent_bfm/axi4_slave_driver_bfm.sv(265) @ 0: reporter [AXI_SLAVE_DRIVER_BFM] Slave BFM signals initialized
UVM_INFO ../agent/slave_agent_bfm/axi4_slave_driver_bfm.sv(265) @ 0: reporter [AXI_SLAVE_DRIVER_BFM] Slave BFM signals initialized
UVM_INFO ../agent/slave_agent_bfm/axi4_slave_driver_bfm.sv(265) @ 0: reporter [AXI_SLAVE_DRIVER_BFM] Slave BFM signals initialized
[0] HDL Top: BFMs instantiated and connected
[0] HDL Top: 9 Master BFMs connected to axi_if interfaces
[0] HDL Top: 9 Slave BFMs connected to slave_if interfaces
[0] HDL Top: Signal driving is now handled by BFMs
[0] Using custom FSDB file: ./waves/axi4_stress_test_1.fsdb
[0] Starting FSDB dump
*Verdi* Loading libsscore_vcs202409.so
FSDB Dumper for VCS, Release Verdi_W-2024.09-SP1, Linux x86_64/64bit, 11/30/2024
(C) 1996 - 2024 by Synopsys, Inc.
*Verdi* FSDB WARNING: The FSDB file already exists. Overwriting the FSDB file may crash the programs that are using this file.
*Verdi* : Create FSDB file './waves/axi4_stress_test_1.fsdb'
*Verdi* : Begin traversing the scope (hdl_top), layer (0).
*Verdi* : Enable +all dumping.
*Verdi* : End of traversing.
*Verdi* : Begin traversing the SVA assertions, layer (0).
*Verdi* : End of traversing the SVA assertions.
*Verdi* : Begin traversing the MDAs, layer (0).
*Verdi* : Enable +mda and +packedmda dumping.
*Verdi* : End of traversing the MDAs.
*Verdi* : fsdbDumpon - All FSDB files at 0 ps.
UVM_INFO @ 0: reporter [RNTST] Running test axi4_stress_test...
UVM_INFO ../agent/master_agent_bfm/axi4_master_driver_bfm.sv(29) @ 0: reporter [AXI_MASTER_DRIVER_BFM] Starting AXI transaction generation for waveform visibility
UVM_INFO ../agent/master_agent_bfm/axi4_master_driver_bfm.sv(29) @ 0: reporter [AXI_MASTER_DRIVER_BFM] Starting AXI transaction generation for waveform visibility
UVM_INFO ../agent/master_agent_bfm/axi4_master_driver_bfm.sv(29) @ 0: reporter [AXI_MASTER_DRIVER_BFM] Starting AXI transaction generation for waveform visibility
UVM_INFO ../agent/master_agent_bfm/axi4_master_driver_bfm.sv(29) @ 0: reporter [AXI_MASTER_DRIVER_BFM] Starting AXI transaction generation for waveform visibility
UVM_INFO ../agent/master_agent_bfm/axi4_master_driver_bfm.sv(29) @ 0: reporter [AXI_MASTER_DRIVER_BFM] Starting AXI transaction generation for waveform visibility
UVM_INFO ../agent/master_agent_bfm/axi4_master_driver_bfm.sv(29) @ 0: reporter [AXI_MASTER_DRIVER_BFM] Starting AXI transaction generation for waveform visibility
UVM_INFO ../agent/master_agent_bfm/axi4_master_driver_bfm.sv(29) @ 0: reporter [AXI_MASTER_DRIVER_BFM] Starting AXI transaction generation for waveform visibility
UVM_INFO ../agent/master_agent_bfm/axi4_master_driver_bfm.sv(29) @ 0: reporter [AXI_MASTER_DRIVER_BFM] Starting AXI transaction generation for waveform visibility
UVM_INFO ../agent/master_agent_bfm/axi4_master_driver_bfm.sv(29) @ 0: reporter [AXI_MASTER_DRIVER_BFM] Starting AXI transaction generation for waveform visibility
UVM_INFO ../test/axi4_base_test.sv(61) @ 0: uvm_test_top [axi4_stress_test] Configured slave address ranges
UVM_INFO ../env/axi4_protocol_coverage.sv(19) @ 0: uvm_test_top.env.coverage [axi4_protocol_coverage] Protocol coverage build phase
UVM_INFO ../master/axi4_master_pkg.sv(221) @ 0: uvm_test_top.env.master_agent[0] [axi4_master_agent] Building master agent components
UVM_INFO ../master/axi4_master_pkg.sv(227) @ 0: uvm_test_top.env.master_agent[0] [axi4_master_agent] Master agent mode:  ACTIVE
UVM_INFO ../master/axi4_master_pkg.sv(221) @ 0: uvm_test_top.env.master_agent[1] [axi4_master_agent] Building master agent components
UVM_INFO ../master/axi4_master_pkg.sv(227) @ 0: uvm_test_top.env.master_agent[1] [axi4_master_agent] Master agent mode:  ACTIVE
UVM_INFO ../master/axi4_master_pkg.sv(221) @ 0: uvm_test_top.env.master_agent[2] [axi4_master_agent] Building master agent components
UVM_INFO ../master/axi4_master_pkg.sv(227) @ 0: uvm_test_top.env.master_agent[2] [axi4_master_agent] Master agent mode:  ACTIVE
UVM_INFO ../master/axi4_master_pkg.sv(221) @ 0: uvm_test_top.env.master_agent[3] [axi4_master_agent] Building master agent components
UVM_INFO ../master/axi4_master_pkg.sv(227) @ 0: uvm_test_top.env.master_agent[3] [axi4_master_agent] Master agent mode:  ACTIVE
UVM_INFO ../master/axi4_master_pkg.sv(221) @ 0: uvm_test_top.env.master_agent[4] [axi4_master_agent] Building master agent components
UVM_INFO ../master/axi4_master_pkg.sv(227) @ 0: uvm_test_top.env.master_agent[4] [axi4_master_agent] Master agent mode:  ACTIVE
UVM_INFO ../master/axi4_master_pkg.sv(221) @ 0: uvm_test_top.env.master_agent[5] [axi4_master_agent] Building master agent components
UVM_INFO ../master/axi4_master_pkg.sv(227) @ 0: uvm_test_top.env.master_agent[5] [axi4_master_agent] Master agent mode:  ACTIVE
UVM_INFO ../master/axi4_master_pkg.sv(221) @ 0: uvm_test_top.env.master_agent[6] [axi4_master_agent] Building master agent components
UVM_INFO ../master/axi4_master_pkg.sv(227) @ 0: uvm_test_top.env.master_agent[6] [axi4_master_agent] Master agent mode:  ACTIVE
UVM_INFO ../master/axi4_master_pkg.sv(221) @ 0: uvm_test_top.env.master_agent[7] [axi4_master_agent] Building master agent components
UVM_INFO ../master/axi4_master_pkg.sv(227) @ 0: uvm_test_top.env.master_agent[7] [axi4_master_agent] Master agent mode:  ACTIVE
UVM_INFO ../master/axi4_master_pkg.sv(221) @ 0: uvm_test_top.env.master_agent[8] [axi4_master_agent] Building master agent components
UVM_INFO ../master/axi4_master_pkg.sv(227) @ 0: uvm_test_top.env.master_agent[8] [axi4_master_agent] Master agent mode:  ACTIVE
UVM_INFO ../slave/axi4_slave_pkg.sv(108) @ 0: uvm_test_top.env.slave_agent[0] [axi4_slave_agent] Building slave agent components
UVM_INFO ../slave/axi4_slave_pkg.sv(114) @ 0: uvm_test_top.env.slave_agent[0] [axi4_slave_agent] Slave agent mode:  ACTIVE
UVM_INFO ../slave/axi4_slave_pkg.sv(108) @ 0: uvm_test_top.env.slave_agent[1] [axi4_slave_agent] Building slave agent components
UVM_INFO ../slave/axi4_slave_pkg.sv(114) @ 0: uvm_test_top.env.slave_agent[1] [axi4_slave_agent] Slave agent mode:  ACTIVE
UVM_INFO ../slave/axi4_slave_pkg.sv(108) @ 0: uvm_test_top.env.slave_agent[2] [axi4_slave_agent] Building slave agent components
UVM_INFO ../slave/axi4_slave_pkg.sv(114) @ 0: uvm_test_top.env.slave_agent[2] [axi4_slave_agent] Slave agent mode:  ACTIVE
UVM_INFO ../slave/axi4_slave_pkg.sv(108) @ 0: uvm_test_top.env.slave_agent[3] [axi4_slave_agent] Building slave agent components
UVM_INFO ../slave/axi4_slave_pkg.sv(114) @ 0: uvm_test_top.env.slave_agent[3] [axi4_slave_agent] Slave agent mode:  ACTIVE
UVM_INFO ../slave/axi4_slave_pkg.sv(108) @ 0: uvm_test_top.env.slave_agent[4] [axi4_slave_agent] Building slave agent components
UVM_INFO ../slave/axi4_slave_pkg.sv(114) @ 0: uvm_test_top.env.slave_agent[4] [axi4_slave_agent] Slave agent mode:  ACTIVE
UVM_INFO ../slave/axi4_slave_pkg.sv(108) @ 0: uvm_test_top.env.slave_agent[5] [axi4_slave_agent] Building slave agent components
UVM_INFO ../slave/axi4_slave_pkg.sv(114) @ 0: uvm_test_top.env.slave_agent[5] [axi4_slave_agent] Slave agent mode:  ACTIVE
UVM_INFO ../slave/axi4_slave_pkg.sv(108) @ 0: uvm_test_top.env.slave_agent[6] [axi4_slave_agent] Building slave agent components
UVM_INFO ../slave/axi4_slave_pkg.sv(114) @ 0: uvm_test_top.env.slave_agent[6] [axi4_slave_agent] Slave agent mode:  ACTIVE
UVM_INFO ../slave/axi4_slave_pkg.sv(108) @ 0: uvm_test_top.env.slave_agent[7] [axi4_slave_agent] Building slave agent components
UVM_INFO ../slave/axi4_slave_pkg.sv(114) @ 0: uvm_test_top.env.slave_agent[7] [axi4_slave_agent] Slave agent mode:  ACTIVE
UVM_INFO ../slave/axi4_slave_pkg.sv(108) @ 0: uvm_test_top.env.slave_agent[8] [axi4_slave_agent] Building slave agent components
UVM_INFO ../slave/axi4_slave_pkg.sv(114) @ 0: uvm_test_top.env.slave_agent[8] [axi4_slave_agent] Slave agent mode:  ACTIVE
UVM_INFO ../master/axi4_master_pkg.sv(241) @ 0: uvm_test_top.env.master_agent[0] [axi4_master_agent] Connecting master agent components
UVM_INFO ../master/axi4_master_pkg.sv(241) @ 0: uvm_test_top.env.master_agent[1] [axi4_master_agent] Connecting master agent components
UVM_INFO ../master/axi4_master_pkg.sv(241) @ 0: uvm_test_top.env.master_agent[2] [axi4_master_agent] Connecting master agent components
UVM_INFO ../master/axi4_master_pkg.sv(241) @ 0: uvm_test_top.env.master_agent[3] [axi4_master_agent] Connecting master agent components
UVM_INFO ../master/axi4_master_pkg.sv(241) @ 0: uvm_test_top.env.master_agent[4] [axi4_master_agent] Connecting master agent components
UVM_INFO ../master/axi4_master_pkg.sv(241) @ 0: uvm_test_top.env.master_agent[5] [axi4_master_agent] Connecting master agent components
UVM_INFO ../master/axi4_master_pkg.sv(241) @ 0: uvm_test_top.env.master_agent[6] [axi4_master_agent] Connecting master agent components
UVM_INFO ../master/axi4_master_pkg.sv(241) @ 0: uvm_test_top.env.master_agent[7] [axi4_master_agent] Connecting master agent components
UVM_INFO ../master/axi4_master_pkg.sv(241) @ 0: uvm_test_top.env.master_agent[8] [axi4_master_agent] Connecting master agent components
UVM_INFO ../slave/axi4_slave_pkg.sv(128) @ 0: uvm_test_top.env.slave_agent[0] [axi4_slave_agent] Connecting slave agent components
UVM_INFO ../slave/axi4_slave_pkg.sv(128) @ 0: uvm_test_top.env.slave_agent[1] [axi4_slave_agent] Connecting slave agent components
UVM_INFO ../slave/axi4_slave_pkg.sv(128) @ 0: uvm_test_top.env.slave_agent[2] [axi4_slave_agent] Connecting slave agent components
UVM_INFO ../slave/axi4_slave_pkg.sv(128) @ 0: uvm_test_top.env.slave_agent[3] [axi4_slave_agent] Connecting slave agent components
UVM_INFO ../slave/axi4_slave_pkg.sv(128) @ 0: uvm_test_top.env.slave_agent[4] [axi4_slave_agent] Connecting slave agent components
UVM_INFO ../slave/axi4_slave_pkg.sv(128) @ 0: uvm_test_top.env.slave_agent[5] [axi4_slave_agent] Connecting slave agent components
UVM_INFO ../slave/axi4_slave_pkg.sv(128) @ 0: uvm_test_top.env.slave_agent[6] [axi4_slave_agent] Connecting slave agent components
UVM_INFO ../slave/axi4_slave_pkg.sv(128) @ 0: uvm_test_top.env.slave_agent[7] [axi4_slave_agent] Connecting slave agent components
UVM_INFO ../slave/axi4_slave_pkg.sv(128) @ 0: uvm_test_top.env.slave_agent[8] [axi4_slave_agent] Connecting slave agent components
UVM_INFO /home/eda_tools/synopsys/vcs/W-2024.09-SP1//etc/uvm-1.2/base/uvm_root.svh(589) @ 0: reporter [UVMTOP] UVM testbench topology:
--------------------------------------------------------------------
Name                         Type                        Size  Value
--------------------------------------------------------------------
uvm_test_top                 axi4_stress_test            -     @394 
  env                        axi4_env                    -     @450 
    coverage                 axi4_protocol_coverage      -     @791 
    master_agent[0]          axi4_master_agent           -     @483 
      driver                 axi4_master_driver          -     @945 
        rsp_port             uvm_analysis_port           -     @964 
        seq_item_port        uvm_seq_item_pull_port      -     @954 
      monitor                axi4_master_monitor         -     @974 
        item_collected_port  uvm_analysis_port           -     @983 
      sequencer              axi4_master_sequencer       -     @808 
        rsp_export           uvm_analysis_export         -     @817 
        seq_item_export      uvm_seq_item_pull_imp       -     @935 
        arbitration_queue    array                       0     -    
        lock_queue           array                       0     -    
        num_last_reqs        integral                    32    'd1  
        num_last_rsps        integral                    32    'd1  
    master_agent[1]          axi4_master_agent           -     @492 
      driver                 axi4_master_driver          -     @1136
        rsp_port             uvm_analysis_port           -     @1155
        seq_item_port        uvm_seq_item_pull_port      -     @1145
      monitor                axi4_master_monitor         -     @1165
        item_collected_port  uvm_analysis_port           -     @1174
      sequencer              axi4_master_sequencer       -     @999 
        rsp_export           uvm_analysis_export         -     @1008
        seq_item_export      uvm_seq_item_pull_imp       -     @1126
        arbitration_queue    array                       0     -    
        lock_queue           array                       0     -    
        num_last_reqs        integral                    32    'd1  
        num_last_rsps        integral                    32    'd1  
    master_agent[2]          axi4_master_agent           -     @501 
      driver                 axi4_master_driver          -     @1327
        rsp_port             uvm_analysis_port           -     @1346
        seq_item_port        uvm_seq_item_pull_port      -     @1336
      monitor                axi4_master_monitor         -     @1356
        item_collected_port  uvm_analysis_port           -     @1365
      sequencer              axi4_master_sequencer       -     @1190
        rsp_export           uvm_analysis_export         -     @1199
        seq_item_export      uvm_seq_item_pull_imp       -     @1317
        arbitration_queue    array                       0     -    
        lock_queue           array                       0     -    
        num_last_reqs        integral                    32    'd1  
        num_last_rsps        integral                    32    'd1  
    master_agent[3]          axi4_master_agent           -     @510 
      driver                 axi4_master_driver          -     @1518
        rsp_port             uvm_analysis_port           -     @1537
        seq_item_port        uvm_seq_item_pull_port      -     @1527
      monitor                axi4_master_monitor         -     @1547
        item_collected_port  uvm_analysis_port           -     @1556
      sequencer              axi4_master_sequencer       -     @1381
        rsp_export           uvm_analysis_export         -     @1390
        seq_item_export      uvm_seq_item_pull_imp       -     @1508
        arbitration_queue    array                       0     -    
        lock_queue           array                       0     -    
        num_last_reqs        integral                    32    'd1  
        num_last_rsps        integral                    32    'd1  
    master_agent[4]          axi4_master_agent           -     @519 
      driver                 axi4_master_driver          -     @1709
        rsp_port             uvm_analysis_port           -     @1728
        seq_item_port        uvm_seq_item_pull_port      -     @1718
      monitor                axi4_master_monitor         -     @1738
        item_collected_port  uvm_analysis_port           -     @1747
      sequencer              axi4_master_sequencer       -     @1572
        rsp_export           uvm_analysis_export         -     @1581
        seq_item_export      uvm_seq_item_pull_imp       -     @1699
        arbitration_queue    array                       0     -    
        lock_queue           array                       0     -    
        num_last_reqs        integral                    32    'd1  
        num_last_rsps        integral                    32    'd1  
    master_agent[5]          axi4_master_agent           -     @528 
      driver                 axi4_master_driver          -     @1900
        rsp_port             uvm_analysis_port           -     @1919
        seq_item_port        uvm_seq_item_pull_port      -     @1909
      monitor                axi4_master_monitor         -     @1929
        item_collected_port  uvm_analysis_port           -     @1938
      sequencer              axi4_master_sequencer       -     @1763
        rsp_export           uvm_analysis_export         -     @1772
        seq_item_export      uvm_seq_item_pull_imp       -     @1890
        arbitration_queue    array                       0     -    
        lock_queue           array                       0     -    
        num_last_reqs        integral                    32    'd1  
        num_last_rsps        integral                    32    'd1  
    master_agent[6]          axi4_master_agent           -     @537 
      driver                 axi4_master_driver          -     @2091
        rsp_port             uvm_analysis_port           -     @2110
        seq_item_port        uvm_seq_item_pull_port      -     @2100
      monitor                axi4_master_monitor         -     @2120
        item_collected_port  uvm_analysis_port           -     @2129
      sequencer              axi4_master_sequencer       -     @1954
        rsp_export           uvm_analysis_export         -     @1963
        seq_item_export      uvm_seq_item_pull_imp       -     @2081
        arbitration_queue    array                       0     -    
        lock_queue           array                       0     -    
        num_last_reqs        integral                    32    'd1  
        num_last_rsps        integral                    32    'd1  
    master_agent[7]          axi4_master_agent           -     @546 
      driver                 axi4_master_driver          -     @2282
        rsp_port             uvm_analysis_port           -     @2301
        seq_item_port        uvm_seq_item_pull_port      -     @2291
      monitor                axi4_master_monitor         -     @2311
        item_collected_port  uvm_analysis_port           -     @2320
      sequencer              axi4_master_sequencer       -     @2145
        rsp_export           uvm_analysis_export         -     @2154
        seq_item_export      uvm_seq_item_pull_imp       -     @2272
        arbitration_queue    array                       0     -    
        lock_queue           array                       0     -    
        num_last_reqs        integral                    32    'd1  
        num_last_rsps        integral                    32    'd1  
    master_agent[8]          axi4_master_agent           -     @555 
      driver                 axi4_master_driver          -     @2473
        rsp_port             uvm_analysis_port           -     @2492
        seq_item_port        uvm_seq_item_pull_port      -     @2482
      monitor                axi4_master_monitor         -     @2502
        item_collected_port  uvm_analysis_port           -     @2511
      sequencer              axi4_master_sequencer       -     @2336
        rsp_export           uvm_analysis_export         -     @2345
        seq_item_export      uvm_seq_item_pull_imp       -     @2463
        arbitration_queue    array                       0     -    
        lock_queue           array                       0     -    
        num_last_reqs        integral                    32    'd1  
        num_last_rsps        integral                    32    'd1  
    scoreboard               axi4_scoreboard             -     @782 
      master_fifo[0]         uvm_tlm_analysis_fifo #(T)  -     @2521
        analysis_export      uvm_analysis_imp            -     @2570
        get_ap               uvm_analysis_port           -     @2560
        get_peek_export      uvm_get_peek_imp            -     @2540
        put_ap               uvm_analysis_port           -     @2550
        put_export           uvm_put_imp                 -     @2530
      master_fifo[1]         uvm_tlm_analysis_fifo #(T)  -     @2580
        analysis_export      uvm_analysis_imp            -     @2629
        get_ap               uvm_analysis_port           -     @2619
        get_peek_export      uvm_get_peek_imp            -     @2599
        put_ap               uvm_analysis_port           -     @2609
        put_export           uvm_put_imp                 -     @2589
      master_fifo[2]         uvm_tlm_analysis_fifo #(T)  -     @2639
        analysis_export      uvm_analysis_imp            -     @2688
        get_ap               uvm_analysis_port           -     @2678
        get_peek_export      uvm_get_peek_imp            -     @2658
        put_ap               uvm_analysis_port           -     @2668
        put_export           uvm_put_imp                 -     @2648
      master_fifo[3]         uvm_tlm_analysis_fifo #(T)  -     @2698
        analysis_export      uvm_analysis_imp            -     @2747
        get_ap               uvm_analysis_port           -     @2737
        get_peek_export      uvm_get_peek_imp            -     @2717
        put_ap               uvm_analysis_port           -     @2727
        put_export           uvm_put_imp                 -     @2707
      master_fifo[4]         uvm_tlm_analysis_fifo #(T)  -     @2757
        analysis_export      uvm_analysis_imp            -     @2806
        get_ap               uvm_analysis_port           -     @2796
        get_peek_export      uvm_get_peek_imp            -     @2776
        put_ap               uvm_analysis_port           -     @2786
        put_export           uvm_put_imp                 -     @2766
      master_fifo[5]         uvm_tlm_analysis_fifo #(T)  -     @2816
        analysis_export      uvm_analysis_imp            -     @2865
        get_ap               uvm_analysis_port           -     @2855
        get_peek_export      uvm_get_peek_imp            -     @2835
        put_ap               uvm_analysis_port           -     @2845
        put_export           uvm_put_imp                 -     @2825
      master_fifo[6]         uvm_tlm_analysis_fifo #(T)  -     @2875
        analysis_export      uvm_analysis_imp            -     @2924
        get_ap               uvm_analysis_port           -     @2914
        get_peek_export      uvm_get_peek_imp            -     @2894
        put_ap               uvm_analysis_port           -     @2904
        put_export           uvm_put_imp                 -     @2884
      master_fifo[7]         uvm_tlm_analysis_fifo #(T)  -     @2934
        analysis_export      uvm_analysis_imp            -     @2983
        get_ap               uvm_analysis_port           -     @2973
        get_peek_export      uvm_get_peek_imp            -     @2953
        put_ap               uvm_analysis_port           -     @2963
        put_export           uvm_put_imp                 -     @2943
      master_fifo[8]         uvm_tlm_analysis_fifo #(T)  -     @2993
        analysis_export      uvm_analysis_imp            -     @3042
        get_ap               uvm_analysis_port           -     @3032
        get_peek_export      uvm_get_peek_imp            -     @3012
        put_ap               uvm_analysis_port           -     @3022
        put_export           uvm_put_imp                 -     @3002
      slave_fifo[0]          uvm_tlm_analysis_fifo #(T)  -     @3052
        analysis_export      uvm_analysis_imp            -     @3101
        get_ap               uvm_analysis_port           -     @3091
        get_peek_export      uvm_get_peek_imp            -     @3071
        put_ap               uvm_analysis_port           -     @3081
        put_export           uvm_put_imp                 -     @3061
      slave_fifo[1]          uvm_tlm_analysis_fifo #(T)  -     @3111
        analysis_export      uvm_analysis_imp            -     @3160
        get_ap               uvm_analysis_port           -     @3150
        get_peek_export      uvm_get_peek_imp            -     @3130
        put_ap               uvm_analysis_port           -     @3140
        put_export           uvm_put_imp                 -     @3120
      slave_fifo[2]          uvm_tlm_analysis_fifo #(T)  -     @3170
        analysis_export      uvm_analysis_imp            -     @3219
        get_ap               uvm_analysis_port           -     @3209
        get_peek_export      uvm_get_peek_imp            -     @3189
        put_ap               uvm_analysis_port           -     @3199
        put_export           uvm_put_imp                 -     @3179
      slave_fifo[3]          uvm_tlm_analysis_fifo #(T)  -     @3229
        analysis_export      uvm_analysis_imp            -     @3278
        get_ap               uvm_analysis_port           -     @3268
        get_peek_export      uvm_get_peek_imp            -     @3248
        put_ap               uvm_analysis_port           -     @3258
        put_export           uvm_put_imp                 -     @3238
      slave_fifo[4]          uvm_tlm_analysis_fifo #(T)  -     @3288
        analysis_export      uvm_analysis_imp            -     @3337
        get_ap               uvm_analysis_port           -     @3327
        get_peek_export      uvm_get_peek_imp            -     @3307
        put_ap               uvm_analysis_port           -     @3317
        put_export           uvm_put_imp                 -     @3297
      slave_fifo[5]          uvm_tlm_analysis_fifo #(T)  -     @3347
        analysis_export      uvm_analysis_imp            -     @3396
        get_ap               uvm_analysis_port           -     @3386
        get_peek_export      uvm_get_peek_imp            -     @3366
        put_ap               uvm_analysis_port           -     @3376
        put_export           uvm_put_imp                 -     @3356
      slave_fifo[6]          uvm_tlm_analysis_fifo #(T)  -     @3406
        analysis_export      uvm_analysis_imp            -     @3455
        get_ap               uvm_analysis_port           -     @3445
        get_peek_export      uvm_get_peek_imp            -     @3425
        put_ap               uvm_analysis_port           -     @3435
        put_export           uvm_put_imp                 -     @3415
      slave_fifo[7]          uvm_tlm_analysis_fifo #(T)  -     @3465
        analysis_export      uvm_analysis_imp            -     @3514
        get_ap               uvm_analysis_port           -     @3504
        get_peek_export      uvm_get_peek_imp            -     @3484
        put_ap               uvm_analysis_port           -     @3494
        put_export           uvm_put_imp                 -     @3474
      slave_fifo[8]          uvm_tlm_analysis_fifo #(T)  -     @3524
        analysis_export      uvm_analysis_imp            -     @3573
        get_ap               uvm_analysis_port           -     @3563
        get_peek_export      uvm_get_peek_imp            -     @3543
        put_ap               uvm_analysis_port           -     @3553
        put_export           uvm_put_imp                 -     @3533
    slave_agent[0]           axi4_slave_agent            -     @564 
      driver                 axi4_slave_driver           -     @3726
        rsp_port             uvm_analysis_port           -     @3745
        seq_item_port        uvm_seq_item_pull_port      -     @3735
      monitor                axi4_slave_monitor          -     @3755
        item_collected_port  uvm_analysis_port           -     @3764
      sequencer              axi4_slave_sequencer        -     @3589
        rsp_export           uvm_analysis_export         -     @3598
        seq_item_export      uvm_seq_item_pull_imp       -     @3716
        arbitration_queue    array                       0     -    
        lock_queue           array                       0     -    
        num_last_reqs        integral                    32    'd1  
        num_last_rsps        integral                    32    'd1  
    slave_agent[1]           axi4_slave_agent            -     @573 
      driver                 axi4_slave_driver           -     @3917
        rsp_port             uvm_analysis_port           -     @3936
        seq_item_port        uvm_seq_item_pull_port      -     @3926
      monitor                axi4_slave_monitor          -     @3946
        item_collected_port  uvm_analysis_port           -     @3955
      sequencer              axi4_slave_sequencer        -     @3780
        rsp_export           uvm_analysis_export         -     @3789
        seq_item_export      uvm_seq_item_pull_imp       -     @3907
        arbitration_queue    array                       0     -    
        lock_queue           array                       0     -    
        num_last_reqs        integral                    32    'd1  
        num_last_rsps        integral                    32    'd1  
    slave_agent[2]           axi4_slave_agent            -     @582 
      driver                 axi4_slave_driver           -     @4108
        rsp_port             uvm_analysis_port           -     @4127
        seq_item_port        uvm_seq_item_pull_port      -     @4117
      monitor                axi4_slave_monitor          -     @4137
        item_collected_port  uvm_analysis_port           -     @4146
      sequencer              axi4_slave_sequencer        -     @3971
        rsp_export           uvm_analysis_export         -     @3980
        seq_item_export      uvm_seq_item_pull_imp       -     @4098
        arbitration_queue    array                       0     -    
        lock_queue           array                       0     -    
        num_last_reqs        integral                    32    'd1  
        num_last_rsps        integral                    32    'd1  
    slave_agent[3]           axi4_slave_agent            -     @591 
      driver                 axi4_slave_driver           -     @4299
        rsp_port             uvm_analysis_port           -     @4318
        seq_item_port        uvm_seq_item_pull_port      -     @4308
      monitor                axi4_slave_monitor          -     @4328
        item_collected_port  uvm_analysis_port           -     @4337
      sequencer              axi4_slave_sequencer        -     @4162
        rsp_export           uvm_analysis_export         -     @4171
        seq_item_export      uvm_seq_item_pull_imp       -     @4289
        arbitration_queue    array                       0     -    
        lock_queue           array                       0     -    
        num_last_reqs        integral                    32    'd1  
        num_last_rsps        integral                    32    'd1  
    slave_agent[4]           axi4_slave_agent            -     @600 
      driver                 axi4_slave_driver           -     @4490
        rsp_port             uvm_analysis_port           -     @4509
        seq_item_port        uvm_seq_item_pull_port      -     @4499
      monitor                axi4_slave_monitor          -     @4519
        item_collected_port  uvm_analysis_port           -     @4528
      sequencer              axi4_slave_sequencer        -     @4353
        rsp_export           uvm_analysis_export         -     @4362
        seq_item_export      uvm_seq_item_pull_imp       -     @4480
        arbitration_queue    array                       0     -    
        lock_queue           array                       0     -    
        num_last_reqs        integral                    32    'd1  
        num_last_rsps        integral                    32    'd1  
    slave_agent[5]           axi4_slave_agent            -     @609 
      driver                 axi4_slave_driver           -     @4681
        rsp_port             uvm_analysis_port           -     @4700
        seq_item_port        uvm_seq_item_pull_port      -     @4690
      monitor                axi4_slave_monitor          -     @4710
        item_collected_port  uvm_analysis_port           -     @4719
      sequencer              axi4_slave_sequencer        -     @4544
        rsp_export           uvm_analysis_export         -     @4553
        seq_item_export      uvm_seq_item_pull_imp       -     @4671
        arbitration_queue    array                       0     -    
        lock_queue           array                       0     -    
        num_last_reqs        integral                    32    'd1  
        num_last_rsps        integral                    32    'd1  
    slave_agent[6]           axi4_slave_agent            -     @618 
      driver                 axi4_slave_driver           -     @4872
        rsp_port             uvm_analysis_port           -     @4891
        seq_item_port        uvm_seq_item_pull_port      -     @4881
      monitor                axi4_slave_monitor          -     @4901
        item_collected_port  uvm_analysis_port           -     @4910
      sequencer              axi4_slave_sequencer        -     @4735
        rsp_export           uvm_analysis_export         -     @4744
        seq_item_export      uvm_seq_item_pull_imp       -     @4862
        arbitration_queue    array                       0     -    
        lock_queue           array                       0     -    
        num_last_reqs        integral                    32    'd1  
        num_last_rsps        integral                    32    'd1  
    slave_agent[7]           axi4_slave_agent            -     @627 
      driver                 axi4_slave_driver           -     @5063
        rsp_port             uvm_analysis_port           -     @5082
        seq_item_port        uvm_seq_item_pull_port      -     @5072
      monitor                axi4_slave_monitor          -     @5092
        item_collected_port  uvm_analysis_port           -     @5101
      sequencer              axi4_slave_sequencer        -     @4926
        rsp_export           uvm_analysis_export         -     @4935
        seq_item_export      uvm_seq_item_pull_imp       -     @5053
        arbitration_queue    array                       0     -    
        lock_queue           array                       0     -    
        num_last_reqs        integral                    32    'd1  
        num_last_rsps        integral                    32    'd1  
    slave_agent[8]           axi4_slave_agent            -     @636 
      driver                 axi4_slave_driver           -     @5254
        rsp_port             uvm_analysis_port           -     @5273
        seq_item_port        uvm_seq_item_pull_port      -     @5263
      monitor                axi4_slave_monitor          -     @5283
        item_collected_port  uvm_analysis_port           -     @5292
      sequencer              axi4_slave_sequencer        -     @5117
        rsp_export           uvm_analysis_export         -     @5126
        seq_item_export      uvm_seq_item_pull_imp       -     @5244
        arbitration_queue    array                       0     -    
        lock_queue           array                       0     -    
        num_last_reqs        integral                    32    'd1  
        num_last_rsps        integral                    32    'd1  
    v_seqr                   axi4_virtual_sequencer      -     @645 
      rsp_export             uvm_analysis_export         -     @654 
      seq_item_export        uvm_seq_item_pull_imp       -     @772 
      arbitration_queue      array                       0     -    
      lock_queue             array                       0     -    
      num_last_reqs          integral                    32    'd1  
      num_last_rsps          integral                    32    'd1  
--------------------------------------------------------------------

UVM_INFO ../master/axi4_master_pkg.sv(87) @ 0: uvm_test_top.env.master_agent[0].driver [axi4_master_driver] Starting master driver run_phase
UVM_INFO ../master/axi4_master_pkg.sv(134) @ 0: uvm_test_top.env.master_agent[0].monitor [axi4_master_monitor] Starting master monitor run_phase
UVM_INFO ../master/axi4_master_pkg.sv(135) @ 0: uvm_test_top.env.master_agent[0].monitor [axi4_master_monitor] Monitoring AXI4 master interface for transactions
UVM_INFO ../master/axi4_master_pkg.sv(87) @ 0: uvm_test_top.env.master_agent[1].driver [axi4_master_driver] Starting master driver run_phase
UVM_INFO ../master/axi4_master_pkg.sv(134) @ 0: uvm_test_top.env.master_agent[1].monitor [axi4_master_monitor] Starting master monitor run_phase
UVM_INFO ../master/axi4_master_pkg.sv(135) @ 0: uvm_test_top.env.master_agent[1].monitor [axi4_master_monitor] Monitoring AXI4 master interface for transactions
UVM_INFO ../master/axi4_master_pkg.sv(87) @ 0: uvm_test_top.env.master_agent[2].driver [axi4_master_driver] Starting master driver run_phase
UVM_INFO ../master/axi4_master_pkg.sv(134) @ 0: uvm_test_top.env.master_agent[2].monitor [axi4_master_monitor] Starting master monitor run_phase
UVM_INFO ../master/axi4_master_pkg.sv(135) @ 0: uvm_test_top.env.master_agent[2].monitor [axi4_master_monitor] Monitoring AXI4 master interface for transactions
UVM_INFO ../master/axi4_master_pkg.sv(87) @ 0: uvm_test_top.env.master_agent[3].driver [axi4_master_driver] Starting master driver run_phase
UVM_INFO ../master/axi4_master_pkg.sv(134) @ 0: uvm_test_top.env.master_agent[3].monitor [axi4_master_monitor] Starting master monitor run_phase
UVM_INFO ../master/axi4_master_pkg.sv(135) @ 0: uvm_test_top.env.master_agent[3].monitor [axi4_master_monitor] Monitoring AXI4 master interface for transactions
UVM_INFO ../master/axi4_master_pkg.sv(87) @ 0: uvm_test_top.env.master_agent[4].driver [axi4_master_driver] Starting master driver run_phase
UVM_INFO ../master/axi4_master_pkg.sv(134) @ 0: uvm_test_top.env.master_agent[4].monitor [axi4_master_monitor] Starting master monitor run_phase
UVM_INFO ../master/axi4_master_pkg.sv(135) @ 0: uvm_test_top.env.master_agent[4].monitor [axi4_master_monitor] Monitoring AXI4 master interface for transactions
UVM_INFO ../master/axi4_master_pkg.sv(87) @ 0: uvm_test_top.env.master_agent[5].driver [axi4_master_driver] Starting master driver run_phase
UVM_INFO ../master/axi4_master_pkg.sv(134) @ 0: uvm_test_top.env.master_agent[5].monitor [axi4_master_monitor] Starting master monitor run_phase
UVM_INFO ../master/axi4_master_pkg.sv(135) @ 0: uvm_test_top.env.master_agent[5].monitor [axi4_master_monitor] Monitoring AXI4 master interface for transactions
UVM_INFO ../master/axi4_master_pkg.sv(87) @ 0: uvm_test_top.env.master_agent[6].driver [axi4_master_driver] Starting master driver run_phase
UVM_INFO ../master/axi4_master_pkg.sv(134) @ 0: uvm_test_top.env.master_agent[6].monitor [axi4_master_monitor] Starting master monitor run_phase
UVM_INFO ../master/axi4_master_pkg.sv(135) @ 0: uvm_test_top.env.master_agent[6].monitor [axi4_master_monitor] Monitoring AXI4 master interface for transactions
UVM_INFO ../master/axi4_master_pkg.sv(87) @ 0: uvm_test_top.env.master_agent[7].driver [axi4_master_driver] Starting master driver run_phase
UVM_INFO ../master/axi4_master_pkg.sv(134) @ 0: uvm_test_top.env.master_agent[7].monitor [axi4_master_monitor] Starting master monitor run_phase
UVM_INFO ../master/axi4_master_pkg.sv(135) @ 0: uvm_test_top.env.master_agent[7].monitor [axi4_master_monitor] Monitoring AXI4 master interface for transactions
UVM_INFO ../master/axi4_master_pkg.sv(87) @ 0: uvm_test_top.env.master_agent[8].driver [axi4_master_driver] Starting master driver run_phase
UVM_INFO ../master/axi4_master_pkg.sv(134) @ 0: uvm_test_top.env.master_agent[8].monitor [axi4_master_monitor] Starting master monitor run_phase
UVM_INFO ../master/axi4_master_pkg.sv(135) @ 0: uvm_test_top.env.master_agent[8].monitor [axi4_master_monitor] Monitoring AXI4 master interface for transactions
UVM_INFO ../slave/axi4_slave_pkg.sv(82) @ 0: uvm_test_top.env.slave_agent[0].monitor [axi4_slave_monitor] Starting slave monitor run_phase
UVM_INFO ../slave/axi4_slave_pkg.sv(83) @ 0: uvm_test_top.env.slave_agent[0].monitor [axi4_slave_monitor] Monitoring AXI4 slave interface for transactions
UVM_INFO ../slave/axi4_slave_pkg.sv(82) @ 0: uvm_test_top.env.slave_agent[1].monitor [axi4_slave_monitor] Starting slave monitor run_phase
UVM_INFO ../slave/axi4_slave_pkg.sv(83) @ 0: uvm_test_top.env.slave_agent[1].monitor [axi4_slave_monitor] Monitoring AXI4 slave interface for transactions
UVM_INFO ../slave/axi4_slave_pkg.sv(82) @ 0: uvm_test_top.env.slave_agent[2].monitor [axi4_slave_monitor] Starting slave monitor run_phase
UVM_INFO ../slave/axi4_slave_pkg.sv(83) @ 0: uvm_test_top.env.slave_agent[2].monitor [axi4_slave_monitor] Monitoring AXI4 slave interface for transactions
UVM_INFO ../slave/axi4_slave_pkg.sv(82) @ 0: uvm_test_top.env.slave_agent[3].monitor [axi4_slave_monitor] Starting slave monitor run_phase
UVM_INFO ../slave/axi4_slave_pkg.sv(83) @ 0: uvm_test_top.env.slave_agent[3].monitor [axi4_slave_monitor] Monitoring AXI4 slave interface for transactions
UVM_INFO ../slave/axi4_slave_pkg.sv(82) @ 0: uvm_test_top.env.slave_agent[4].monitor [axi4_slave_monitor] Starting slave monitor run_phase
UVM_INFO ../slave/axi4_slave_pkg.sv(83) @ 0: uvm_test_top.env.slave_agent[4].monitor [axi4_slave_monitor] Monitoring AXI4 slave interface for transactions
UVM_INFO ../slave/axi4_slave_pkg.sv(82) @ 0: uvm_test_top.env.slave_agent[5].monitor [axi4_slave_monitor] Starting slave monitor run_phase
UVM_INFO ../slave/axi4_slave_pkg.sv(83) @ 0: uvm_test_top.env.slave_agent[5].monitor [axi4_slave_monitor] Monitoring AXI4 slave interface for transactions
UVM_INFO ../slave/axi4_slave_pkg.sv(82) @ 0: uvm_test_top.env.slave_agent[6].monitor [axi4_slave_monitor] Starting slave monitor run_phase
UVM_INFO ../slave/axi4_slave_pkg.sv(83) @ 0: uvm_test_top.env.slave_agent[6].monitor [axi4_slave_monitor] Monitoring AXI4 slave interface for transactions
UVM_INFO ../slave/axi4_slave_pkg.sv(82) @ 0: uvm_test_top.env.slave_agent[7].monitor [axi4_slave_monitor] Starting slave monitor run_phase
UVM_INFO ../slave/axi4_slave_pkg.sv(83) @ 0: uvm_test_top.env.slave_agent[7].monitor [axi4_slave_monitor] Monitoring AXI4 slave interface for transactions
UVM_INFO ../slave/axi4_slave_pkg.sv(82) @ 0: uvm_test_top.env.slave_agent[8].monitor [axi4_slave_monitor] Starting slave monitor run_phase
UVM_INFO ../slave/axi4_slave_pkg.sv(83) @ 0: uvm_test_top.env.slave_agent[8].monitor [axi4_slave_monitor] Monitoring AXI4 slave interface for transactions
UVM_INFO ../test/axi4_stress_test.sv(22) @ 0: uvm_test_top [axi4_stress_test] Starting stress test
UVM_INFO ../master/axi4_master_pkg.sv(155) @ 0: uvm_test_top.env.master_agent[0].monitor [axi4_master_monitor] Starting synthetic transaction generation for throughput testing
UVM_INFO ../master/axi4_master_pkg.sv(155) @ 0: uvm_test_top.env.master_agent[1].monitor [axi4_master_monitor] Starting synthetic transaction generation for throughput testing
UVM_INFO ../master/axi4_master_pkg.sv(155) @ 0: uvm_test_top.env.master_agent[2].monitor [axi4_master_monitor] Starting synthetic transaction generation for throughput testing
UVM_INFO ../master/axi4_master_pkg.sv(155) @ 0: uvm_test_top.env.master_agent[3].monitor [axi4_master_monitor] Starting synthetic transaction generation for throughput testing
UVM_INFO ../master/axi4_master_pkg.sv(155) @ 0: uvm_test_top.env.master_agent[4].monitor [axi4_master_monitor] Starting synthetic transaction generation for throughput testing
UVM_INFO ../master/axi4_master_pkg.sv(155) @ 0: uvm_test_top.env.master_agent[5].monitor [axi4_master_monitor] Starting synthetic transaction generation for throughput testing
UVM_INFO ../master/axi4_master_pkg.sv(155) @ 0: uvm_test_top.env.master_agent[6].monitor [axi4_master_monitor] Starting synthetic transaction generation for throughput testing
UVM_INFO ../master/axi4_master_pkg.sv(155) @ 0: uvm_test_top.env.master_agent[7].monitor [axi4_master_monitor] Starting synthetic transaction generation for throughput testing
UVM_INFO ../master/axi4_master_pkg.sv(155) @ 0: uvm_test_top.env.master_agent[8].monitor [axi4_master_monitor] Starting synthetic transaction generation for throughput testing
UVM_INFO ../virtual_seq/axi4_virtual_stress_seq.sv(24) @ 0: uvm_test_top.env.v_seqr@@stress_seq [axi4_virtual_stress_seq] Starting virtual stress sequence
UVM_INFO ../master/axi4_master_pkg.sv(92) @ 0: uvm_test_top.env.master_agent[8].driver [axi4_master_driver] Got WRITE transaction - addr=0xdabeab6a, len=239, size=7, burst=2
UVM_INFO ../master/axi4_master_pkg.sv(92) @ 0: uvm_test_top.env.master_agent[7].driver [axi4_master_driver] Got READ transaction - addr=0xb0c9ded9, len=227, size=1, burst=3
UVM_INFO ../master/axi4_master_pkg.sv(92) @ 0: uvm_test_top.env.master_agent[6].driver [axi4_master_driver] Got READ transaction - addr=0x76f1ec4e, len=73, size=4, burst=3
UVM_INFO ../master/axi4_master_pkg.sv(92) @ 0: uvm_test_top.env.master_agent[5].driver [axi4_master_driver] Got READ transaction - addr=0x259d3794, len=96, size=0, burst=3
UVM_INFO ../master/axi4_master_pkg.sv(92) @ 0: uvm_test_top.env.master_agent[4].driver [axi4_master_driver] Got WRITE transaction - addr=0xdbdfe509, len=4, size=4, burst=1
UVM_INFO ../master/axi4_master_pkg.sv(92) @ 0: uvm_test_top.env.master_agent[3].driver [axi4_master_driver] Got READ transaction - addr=0xe87544a6, len=162, size=4, burst=1
UVM_INFO ../master/axi4_master_pkg.sv(92) @ 0: uvm_test_top.env.master_agent[2].driver [axi4_master_driver] Got WRITE transaction - addr=0x1113c2b7, len=179, size=5, burst=2
UVM_INFO ../master/axi4_master_pkg.sv(92) @ 0: uvm_test_top.env.master_agent[1].driver [axi4_master_driver] Got READ transaction - addr=0x86e1e756, len=39, size=3, burst=3
UVM_INFO ../master/axi4_master_pkg.sv(92) @ 0: uvm_test_top.env.master_agent[0].driver [axi4_master_driver] Got READ transaction - addr=0x201216dd, len=53, size=0, burst=3
*Verdi* : Begin traversing the scope (hdl_top.dut), layer (0).
*Verdi* : Enable +all dumping.
*Verdi* : End of traversing.
[1000] Added DUT internal signals to FSDB dump
UVM_INFO ../master/axi4_master_pkg.sv(92) @ 100000: uvm_test_top.env.master_agent[0].driver [axi4_master_driver] Got READ transaction - addr=0xb2ad560e, len=150, size=3, burst=3
UVM_INFO ../master/axi4_master_pkg.sv(92) @ 100000: uvm_test_top.env.master_agent[1].driver [axi4_master_driver] Got READ transaction - addr=0x77da7e66, len=148, size=3, burst=2
UVM_INFO ../master/axi4_master_pkg.sv(92) @ 100000: uvm_test_top.env.master_agent[2].driver [axi4_master_driver] Got READ transaction - addr=0x90d67c96, len=28, size=4, burst=3
UVM_INFO ../master/axi4_master_pkg.sv(92) @ 100000: uvm_test_top.env.master_agent[3].driver [axi4_master_driver] Got WRITE transaction - addr=0xa22aee96, len=69, size=4, burst=2
UVM_INFO ../master/axi4_master_pkg.sv(92) @ 100000: uvm_test_top.env.master_agent[4].driver [axi4_master_driver] Got WRITE transaction - addr=0x94b6a20c, len=46, size=1, burst=2
UVM_INFO ../master/axi4_master_pkg.sv(92) @ 100000: uvm_test_top.env.master_agent[5].driver [axi4_master_driver] Got WRITE transaction - addr=0xbfba6ce2, len=246, size=4, burst=0
UVM_INFO ../master/axi4_master_pkg.sv(92) @ 100000: uvm_test_top.env.master_agent[6].driver [axi4_master_driver] Got WRITE transaction - addr=0xd14a64ca, len=76, size=4, burst=2
UVM_INFO ../master/axi4_master_pkg.sv(92) @ 100000: uvm_test_top.env.master_agent[7].driver [axi4_master_driver] Got WRITE transaction - addr=0xe83ea380, len=219, size=3, burst=3
UVM_INFO ../master/axi4_master_pkg.sv(92) @ 100000: uvm_test_top.env.master_agent[8].driver [axi4_master_driver] Got READ transaction - addr=0xe34b100e, len=112, size=5, burst=0
UVM_INFO ../agent/slave_agent_bfm/axi4_slave_driver_bfm.sv(35) @ 145000: reporter [AXI_SLAVE_DRIVER_BFM] Starting write transaction handling
UVM_INFO ../agent/slave_agent_bfm/axi4_slave_driver_bfm.sv(48) @ 145000: reporter [AXI_SLAVE_DRIVER_BFM] Starting read transaction handling
UVM_INFO ../agent/slave_agent_bfm/axi4_slave_driver_bfm.sv(35) @ 145000: reporter [AXI_SLAVE_DRIVER_BFM] Starting write transaction handling
UVM_INFO ../agent/slave_agent_bfm/axi4_slave_driver_bfm.sv(48) @ 145000: reporter [AXI_SLAVE_DRIVER_BFM] Starting read transaction handling
UVM_INFO ../agent/slave_agent_bfm/axi4_slave_driver_bfm.sv(35) @ 145000: reporter [AXI_SLAVE_DRIVER_BFM] Starting write transaction handling
UVM_INFO ../agent/slave_agent_bfm/axi4_slave_driver_bfm.sv(48) @ 145000: reporter [AXI_SLAVE_DRIVER_BFM] Starting read transaction handling
UVM_INFO ../agent/slave_agent_bfm/axi4_slave_driver_bfm.sv(35) @ 145000: reporter [AXI_SLAVE_DRIVER_BFM] Starting write transaction handling
UVM_INFO ../agent/slave_agent_bfm/axi4_slave_driver_bfm.sv(48) @ 145000: reporter [AXI_SLAVE_DRIVER_BFM] Starting read transaction handling
UVM_INFO ../agent/slave_agent_bfm/axi4_slave_driver_bfm.sv(35) @ 145000: reporter [AXI_SLAVE_DRIVER_BFM] Starting write transaction handling
UVM_INFO ../agent/slave_agent_bfm/axi4_slave_driver_bfm.sv(48) @ 145000: reporter [AXI_SLAVE_DRIVER_BFM] Starting read transaction handling
UVM_INFO ../agent/slave_agent_bfm/axi4_slave_driver_bfm.sv(35) @ 145000: reporter [AXI_SLAVE_DRIVER_BFM] Starting write transaction handling
UVM_INFO ../agent/slave_agent_bfm/axi4_slave_driver_bfm.sv(48) @ 145000: reporter [AXI_SLAVE_DRIVER_BFM] Starting read transaction handling
UVM_INFO ../agent/slave_agent_bfm/axi4_slave_driver_bfm.sv(35) @ 145000: reporter [AXI_SLAVE_DRIVER_BFM] Starting write transaction handling
UVM_INFO ../agent/slave_agent_bfm/axi4_slave_driver_bfm.sv(48) @ 145000: reporter [AXI_SLAVE_DRIVER_BFM] Starting read transaction handling
UVM_INFO ../agent/slave_agent_bfm/axi4_slave_driver_bfm.sv(35) @ 145000: reporter [AXI_SLAVE_DRIVER_BFM] Starting write transaction handling
UVM_INFO ../agent/slave_agent_bfm/axi4_slave_driver_bfm.sv(48) @ 145000: reporter [AXI_SLAVE_DRIVER_BFM] Starting read transaction handling
UVM_INFO ../agent/slave_agent_bfm/axi4_slave_driver_bfm.sv(35) @ 145000: reporter [AXI_SLAVE_DRIVER_BFM] Starting write transaction handling
UVM_INFO ../agent/slave_agent_bfm/axi4_slave_driver_bfm.sv(48) @ 145000: reporter [AXI_SLAVE_DRIVER_BFM] Starting read transaction handling
UVM_INFO ../master/axi4_master_pkg.sv(92) @ 200000: uvm_test_top.env.master_agent[8].driver [axi4_master_driver] Got WRITE transaction - addr=0xb2b7045f, len=177, size=0, burst=1
UVM_INFO ../master/axi4_master_pkg.sv(92) @ 200000: uvm_test_top.env.master_agent[7].driver [axi4_master_driver] Got WRITE transaction - addr=0x5ac624ac, len=95, size=1, burst=2
UVM_INFO ../master/axi4_master_pkg.sv(92) @ 200000: uvm_test_top.env.master_agent[6].driver [axi4_master_driver] Got WRITE transaction - addr=0xe28c4aaf, len=234, size=7, burst=3
UVM_INFO ../master/axi4_master_pkg.sv(92) @ 200000: uvm_test_top.env.master_agent[5].driver [axi4_master_driver] Got WRITE transaction - addr=0x7ffb20b7, len=235, size=1, burst=3
UVM_INFO ../master/axi4_master_pkg.sv(92) @ 200000: uvm_test_top.env.master_agent[4].driver [axi4_master_driver] Got READ transaction - addr=0xa4de62dd, len=147, size=0, burst=3
UVM_INFO ../master/axi4_master_pkg.sv(92) @ 200000: uvm_test_top.env.master_agent[3].driver [axi4_master_driver] Got READ transaction - addr=0x56b1c11b, len=209, size=5, burst=3
UVM_INFO ../master/axi4_master_pkg.sv(92) @ 200000: uvm_test_top.env.master_agent[2].driver [axi4_master_driver] Got WRITE transaction - addr=0x87f330fc, len=94, size=2, burst=3
UVM_INFO ../master/axi4_master_pkg.sv(92) @ 200000: uvm_test_top.env.master_agent[1].driver [axi4_master_driver] Got READ transaction - addr=0x5c2262ef, len=75, size=7, burst=2
UVM_INFO ../master/axi4_master_pkg.sv(92) @ 200000: uvm_test_top.env.master_agent[0].driver [axi4_master_driver] Got READ transaction - addr=0xa41b2e17, len=206, size=7, burst=3
UVM_INFO ../master/axi4_master_pkg.sv(92) @ 300000: uvm_test_top.env.master_agent[0].driver [axi4_master_driver] Got READ transaction - addr=0xd33f202f, len=240, size=4, burst=1
UVM_INFO ../master/axi4_master_pkg.sv(92) @ 300000: uvm_test_top.env.master_agent[1].driver [axi4_master_driver] Got WRITE transaction - addr=0x7fdf070f, len=241, size=4, burst=2
UVM_INFO ../master/axi4_master_pkg.sv(92) @ 300000: uvm_test_top.env.master_agent[2].driver [axi4_master_driver] Got READ transaction - addr=0x4828466f, len=218, size=4, burst=2
UVM_INFO ../master/axi4_master_pkg.sv(92) @ 300000: uvm_test_top.env.master_agent[3].driver [axi4_master_driver] Got READ transaction - addr=0x4193e0a6, len=42, size=7, burst=0
UVM_INFO ../master/axi4_master_pkg.sv(92) @ 300000: uvm_test_top.env.master_agent[4].driver [axi4_master_driver] Got READ transaction - addr=0x9359da95, len=26, size=0, burst=0
UVM_INFO ../master/axi4_master_pkg.sv(92) @ 300000: uvm_test_top.env.master_agent[5].driver [axi4_master_driver] Got WRITE transaction - addr=0x11515e51, len=90, size=5, burst=2
UVM_INFO ../master/axi4_master_pkg.sv(92) @ 300000: uvm_test_top.env.master_agent[6].driver [axi4_master_driver] Got WRITE transaction - addr=0x7e83132b, len=142, size=1, burst=0
UVM_INFO ../master/axi4_master_pkg.sv(92) @ 300000: uvm_test_top.env.master_agent[7].driver [axi4_master_driver] Got WRITE transaction - addr=0x1b2a7469, len=158, size=7, burst=3
UVM_INFO ../master/axi4_master_pkg.sv(92) @ 300000: uvm_test_top.env.master_agent[8].driver [axi4_master_driver] Got WRITE transaction - addr=0x9389cc27, len=14, size=1, burst=3
UVM_INFO ../agent/master_agent_bfm/axi4_master_driver_bfm.sv(94) @ 335000: reporter [AXI_MASTER_DRIVER_BFM] Write Transaction 1: addr=0x000038a7, len=3, size=0, burst=0, id=9
UVM_INFO ../agent/master_agent_bfm/axi4_master_driver_bfm.sv(94) @ 335000: reporter [AXI_MASTER_DRIVER_BFM] Write Transaction 1: addr=0x000038a7, len=3, size=0, burst=0, id=9
UVM_INFO ../agent/master_agent_bfm/axi4_master_driver_bfm.sv(94) @ 335000: reporter [AXI_MASTER_DRIVER_BFM] Write Transaction 1: addr=0x000038a7, len=3, size=0, burst=0, id=9
UVM_INFO ../agent/master_agent_bfm/axi4_master_driver_bfm.sv(94) @ 335000: reporter [AXI_MASTER_DRIVER_BFM] Write Transaction 1: addr=0x000038a7, len=3, size=0, burst=0, id=9
UVM_INFO ../agent/master_agent_bfm/axi4_master_driver_bfm.sv(94) @ 335000: reporter [AXI_MASTER_DRIVER_BFM] Write Transaction 1: addr=0x000038a7, len=3, size=0, burst=0, id=9
UVM_INFO ../agent/master_agent_bfm/axi4_master_driver_bfm.sv(94) @ 335000: reporter [AXI_MASTER_DRIVER_BFM] Write Transaction 1: addr=0x000038a7, len=3, size=0, burst=0, id=9
UVM_INFO ../agent/master_agent_bfm/axi4_master_driver_bfm.sv(94) @ 335000: reporter [AXI_MASTER_DRIVER_BFM] Write Transaction 1: addr=0x000038a7, len=3, size=0, burst=0, id=9
UVM_INFO ../agent/master_agent_bfm/axi4_master_driver_bfm.sv(94) @ 335000: reporter [AXI_MASTER_DRIVER_BFM] Write Transaction 1: addr=0x000038a7, len=3, size=0, burst=0, id=9
UVM_INFO ../agent/master_agent_bfm/axi4_master_driver_bfm.sv(94) @ 335000: reporter [AXI_MASTER_DRIVER_BFM] Write Transaction 1: addr=0x000038a7, len=3, size=0, burst=0, id=9
UVM_INFO ../master/axi4_master_pkg.sv(92) @ 400000: uvm_test_top.env.master_agent[8].driver [axi4_master_driver] Got WRITE transaction - addr=0x3ef60577, len=46, size=0, burst=2
UVM_INFO ../master/axi4_master_pkg.sv(92) @ 400000: uvm_test_top.env.master_agent[7].driver [axi4_master_driver] Got READ transaction - addr=0xd5b3a9d2, len=102, size=2, burst=1
UVM_INFO ../master/axi4_master_pkg.sv(92) @ 400000: uvm_test_top.env.master_agent[6].driver [axi4_master_driver] Got WRITE transaction - addr=0x5801edd1, len=155, size=2, burst=3
UVM_INFO ../master/axi4_master_pkg.sv(92) @ 400000: uvm_test_top.env.master_agent[5].driver [axi4_master_driver] Got WRITE transaction - addr=0x42a13fd2, len=232, size=0, burst=2
UVM_INFO ../master/axi4_master_pkg.sv(92) @ 400000: uvm_test_top.env.master_agent[4].driver [axi4_master_driver] Got READ transaction - addr=0xa97779c3, len=239, size=0, burst=1
UVM_INFO ../master/axi4_master_pkg.sv(92) @ 400000: uvm_test_top.env.master_agent[3].driver [axi4_master_driver] Got READ transaction - addr=0x69eea544, len=190, size=1, burst=3
UVM_INFO ../master/axi4_master_pkg.sv(92) @ 400000: uvm_test_top.env.master_agent[2].driver [axi4_master_driver] Got READ transaction - addr=0x85cfe082, len=223, size=0, burst=0
UVM_INFO ../master/axi4_master_pkg.sv(92) @ 400000: uvm_test_top.env.master_agent[1].driver [axi4_master_driver] Got WRITE transaction - addr=0xe3bb8932, len=201, size=6, burst=1
UVM_INFO ../master/axi4_master_pkg.sv(92) @ 400000: uvm_test_top.env.master_agent[0].driver [axi4_master_driver] Got WRITE transaction - addr=0x44f8cd10, len=122, size=2, burst=3
UVM_INFO ../agent/master_agent_bfm/axi4_master_driver_bfm.sv(140) @ 435000: reporter [AXI_MASTER_DRIVER_BFM] Write response received for transaction 1, bresp=3
UVM_INFO ../master/axi4_master_pkg.sv(92) @ 500000: uvm_test_top.env.master_agent[0].driver [axi4_master_driver] Got WRITE transaction - addr=0x7405fe7b, len=7, size=2, burst=3
UVM_INFO ../master/axi4_master_pkg.sv(92) @ 500000: uvm_test_top.env.master_agent[1].driver [axi4_master_driver] Got READ transaction - addr=0x46f25427, len=116, size=1, burst=0
UVM_INFO ../master/axi4_master_pkg.sv(92) @ 500000: uvm_test_top.env.master_agent[2].driver [axi4_master_driver] Got READ transaction - addr=0xe974cd24, len=130, size=7, burst=1
UVM_INFO ../master/axi4_master_pkg.sv(92) @ 500000: uvm_test_top.env.master_agent[3].driver [axi4_master_driver] Got WRITE transaction - addr=0x70aed162, len=99, size=5, burst=2
UVM_INFO ../master/axi4_master_pkg.sv(92) @ 500000: uvm_test_top.env.master_agent[4].driver [axi4_master_driver] Got READ transaction - addr=0x1ea245d, len=79, size=0, burst=2
UVM_INFO ../master/axi4_master_pkg.sv(92) @ 500000: uvm_test_top.env.master_agent[5].driver [axi4_master_driver] Got READ transaction - addr=0x72c755e8, len=245, size=0, burst=1
UVM_INFO ../master/axi4_master_pkg.sv(92) @ 500000: uvm_test_top.env.master_agent[6].driver [axi4_master_driver] Got WRITE transaction - addr=0x92ee50ae, len=71, size=0, burst=0
UVM_INFO ../master/axi4_master_pkg.sv(92) @ 500000: uvm_test_top.env.master_agent[7].driver [axi4_master_driver] Got READ transaction - addr=0xfd75fc0c, len=204, size=4, burst=0
UVM_INFO ../master/axi4_master_pkg.sv(92) @ 500000: uvm_test_top.env.master_agent[8].driver [axi4_master_driver] Got WRITE transaction - addr=0x7bb98c93, len=234, size=6, burst=0
UVM_INFO ../agent/master_agent_bfm/axi4_master_driver_bfm.sv(178) @ 585000: reporter [AXI_MASTER_DRIVER_BFM] Read Transaction 1: addr=0x00006436, len=9, size=2, burst=1, id=7
UVM_INFO ../master/axi4_master_pkg.sv(92) @ 600000: uvm_test_top.env.master_agent[8].driver [axi4_master_driver] Got READ transaction - addr=0x6113c3e9, len=194, size=2, burst=3
UVM_INFO ../master/axi4_master_pkg.sv(92) @ 600000: uvm_test_top.env.master_agent[7].driver [axi4_master_driver] Got WRITE transaction - addr=0x49e8a3ee, len=209, size=0, burst=3
UVM_INFO ../master/axi4_master_pkg.sv(92) @ 600000: uvm_test_top.env.master_agent[6].driver [axi4_master_driver] Got READ transaction - addr=0x61596bc, len=99, size=0, burst=2
UVM_INFO ../master/axi4_master_pkg.sv(92) @ 600000: uvm_test_top.env.master_agent[5].driver [axi4_master_driver] Got READ transaction - addr=0xc4dd5fbd, len=35, size=6, burst=3
UVM_INFO ../master/axi4_master_pkg.sv(92) @ 600000: uvm_test_top.env.master_agent[4].driver [axi4_master_driver] Got READ transaction - addr=0x1dbbcfe3, len=56, size=5, burst=3
UVM_INFO ../master/axi4_master_pkg.sv(92) @ 600000: uvm_test_top.env.master_agent[3].driver [axi4_master_driver] Got READ transaction - addr=0x8fb12387, len=102, size=7, burst=1
UVM_INFO ../master/axi4_master_pkg.sv(92) @ 600000: uvm_test_top.env.master_agent[2].driver [axi4_master_driver] Got WRITE transaction - addr=0xb48f635e, len=39, size=1, burst=3
UVM_INFO ../master/axi4_master_pkg.sv(92) @ 600000: uvm_test_top.env.master_agent[1].driver [axi4_master_driver] Got WRITE transaction - addr=0x9ea8f15b, len=225, size=3, burst=0
UVM_INFO ../master/axi4_master_pkg.sv(92) @ 600000: uvm_test_top.env.master_agent[0].driver [axi4_master_driver] Got READ transaction - addr=0x61e4991b, len=125, size=2, burst=0
UVM_INFO ../agent/slave_agent_bfm/axi4_slave_driver_bfm.sv(192) @ 605000: reporter [AXI_SLAVE_DRIVER_BFM] Read address accepted: id=7, addr=0x00006436, len=9
UVM_INFO ../agent/slave_agent_bfm/axi4_slave_driver_bfm.sv(192) @ 605000: reporter [AXI_SLAVE_DRIVER_BFM] Read address accepted: id=7, addr=0x00006436, len=9
UVM_INFO ../agent/slave_agent_bfm/axi4_slave_driver_bfm.sv(192) @ 605000: reporter [AXI_SLAVE_DRIVER_BFM] Read address accepted: id=7, addr=0x00006436, len=9
UVM_INFO ../agent/slave_agent_bfm/axi4_slave_driver_bfm.sv(192) @ 605000: reporter [AXI_SLAVE_DRIVER_BFM] Read address accepted: id=7, addr=0x00006436, len=9
UVM_INFO ../agent/slave_agent_bfm/axi4_slave_driver_bfm.sv(192) @ 605000: reporter [AXI_SLAVE_DRIVER_BFM] Read address accepted: id=7, addr=0x00006436, len=9
UVM_INFO ../agent/slave_agent_bfm/axi4_slave_driver_bfm.sv(192) @ 605000: reporter [AXI_SLAVE_DRIVER_BFM] Read address accepted: id=7, addr=0x00006436, len=9
UVM_INFO ../agent/slave_agent_bfm/axi4_slave_driver_bfm.sv(192) @ 605000: reporter [AXI_SLAVE_DRIVER_BFM] Read address accepted: id=7, addr=0x00006436, len=9
UVM_INFO ../agent/slave_agent_bfm/axi4_slave_driver_bfm.sv(192) @ 605000: reporter [AXI_SLAVE_DRIVER_BFM] Read address accepted: id=7, addr=0x00006436, len=9
UVM_INFO ../agent/slave_agent_bfm/axi4_slave_driver_bfm.sv(192) @ 605000: reporter [AXI_SLAVE_DRIVER_BFM] Read address accepted: id=7, addr=0x00006436, len=9
UVM_INFO ../agent/slave_agent_bfm/axi4_slave_driver_bfm.sv(192) @ 605000: reporter [AXI_SLAVE_DRIVER_BFM] Read address accepted: id=7, addr=0x00006436, len=9
UVM_INFO ../agent/slave_agent_bfm/axi4_slave_driver_bfm.sv(192) @ 605000: reporter [AXI_SLAVE_DRIVER_BFM] Read address accepted: id=7, addr=0x00006436, len=9
UVM_INFO ../agent/slave_agent_bfm/axi4_slave_driver_bfm.sv(192) @ 605000: reporter [AXI_SLAVE_DRIVER_BFM] Read address accepted: id=7, addr=0x00006436, len=9
UVM_INFO ../agent/slave_agent_bfm/axi4_slave_driver_bfm.sv(192) @ 605000: reporter [AXI_SLAVE_DRIVER_BFM] Read address accepted: id=7, addr=0x00006436, len=9
UVM_INFO ../agent/slave_agent_bfm/axi4_slave_driver_bfm.sv(192) @ 605000: reporter [AXI_SLAVE_DRIVER_BFM] Read address accepted: id=7, addr=0x00006436, len=9
UVM_INFO ../agent/slave_agent_bfm/axi4_slave_driver_bfm.sv(192) @ 605000: reporter [AXI_SLAVE_DRIVER_BFM] Read address accepted: id=7, addr=0x00006436, len=9
UVM_INFO ../agent/slave_agent_bfm/axi4_slave_driver_bfm.sv(192) @ 605000: reporter [AXI_SLAVE_DRIVER_BFM] Read address accepted: id=7, addr=0x00006436, len=9
UVM_INFO ../agent/slave_agent_bfm/axi4_slave_driver_bfm.sv(192) @ 605000: reporter [AXI_SLAVE_DRIVER_BFM] Read address accepted: id=7, addr=0x00006436, len=9
UVM_INFO ../agent/slave_agent_bfm/axi4_slave_driver_bfm.sv(192) @ 605000: reporter [AXI_SLAVE_DRIVER_BFM] Read address accepted: id=7, addr=0x00006436, len=9
UVM_INFO ../agent/slave_agent_bfm/axi4_slave_driver_bfm.sv(192) @ 605000: reporter [AXI_SLAVE_DRIVER_BFM] Read address accepted: id=7, addr=0x00006436, len=9
UVM_INFO ../agent/slave_agent_bfm/axi4_slave_driver_bfm.sv(192) @ 605000: reporter [AXI_SLAVE_DRIVER_BFM] Read address accepted: id=7, addr=0x00006436, len=9
UVM_INFO ../agent/slave_agent_bfm/axi4_slave_driver_bfm.sv(192) @ 605000: reporter [AXI_SLAVE_DRIVER_BFM] Read address accepted: id=7, addr=0x00006436, len=9
UVM_INFO ../agent/slave_agent_bfm/axi4_slave_driver_bfm.sv(192) @ 605000: reporter [AXI_SLAVE_DRIVER_BFM] Read address accepted: id=7, addr=0x00006436, len=9
UVM_INFO ../agent/slave_agent_bfm/axi4_slave_driver_bfm.sv(192) @ 605000: reporter [AXI_SLAVE_DRIVER_BFM] Read address accepted: id=7, addr=0x00006436, len=9
UVM_INFO ../agent/slave_agent_bfm/axi4_slave_driver_bfm.sv(192) @ 605000: reporter [AXI_SLAVE_DRIVER_BFM] Read address accepted: id=7, addr=0x00006436, len=9
UVM_INFO ../agent/slave_agent_bfm/axi4_slave_driver_bfm.sv(192) @ 605000: reporter [AXI_SLAVE_DRIVER_BFM] Read address accepted: id=7, addr=0x00006436, len=9
UVM_INFO ../agent/slave_agent_bfm/axi4_slave_driver_bfm.sv(192) @ 605000: reporter [AXI_SLAVE_DRIVER_BFM] Read address accepted: id=7, addr=0x00006436, len=9
UVM_INFO ../agent/slave_agent_bfm/axi4_slave_driver_bfm.sv(192) @ 605000: reporter [AXI_SLAVE_DRIVER_BFM] Read address accepted: id=7, addr=0x00006436, len=9
UVM_INFO ../agent/slave_agent_bfm/axi4_slave_driver_bfm.sv(192) @ 605000: reporter [AXI_SLAVE_DRIVER_BFM] Read address accepted: id=7, addr=0x00006436, len=9
UVM_INFO ../agent/slave_agent_bfm/axi4_slave_driver_bfm.sv(192) @ 605000: reporter [AXI_SLAVE_DRIVER_BFM] Read address accepted: id=7, addr=0x00006436, len=9
UVM_INFO ../agent/slave_agent_bfm/axi4_slave_driver_bfm.sv(192) @ 605000: reporter [AXI_SLAVE_DRIVER_BFM] Read address accepted: id=7, addr=0x00006436, len=9
UVM_INFO ../agent/slave_agent_bfm/axi4_slave_driver_bfm.sv(192) @ 605000: reporter [AXI_SLAVE_DRIVER_BFM] Read address accepted: id=7, addr=0x00006436, len=9
UVM_INFO ../agent/slave_agent_bfm/axi4_slave_driver_bfm.sv(192) @ 605000: reporter [AXI_SLAVE_DRIVER_BFM] Read address accepted: id=7, addr=0x00006436, len=9
UVM_INFO ../agent/slave_agent_bfm/axi4_slave_driver_bfm.sv(192) @ 605000: reporter [AXI_SLAVE_DRIVER_BFM] Read address accepted: id=7, addr=0x00006436, len=9
UVM_INFO ../agent/slave_agent_bfm/axi4_slave_driver_bfm.sv(192) @ 605000: reporter [AXI_SLAVE_DRIVER_BFM] Read address accepted: id=7, addr=0x00006436, len=9
UVM_INFO ../agent/slave_agent_bfm/axi4_slave_driver_bfm.sv(192) @ 605000: reporter [AXI_SLAVE_DRIVER_BFM] Read address accepted: id=7, addr=0x00006436, len=9
UVM_INFO ../agent/slave_agent_bfm/axi4_slave_driver_bfm.sv(192) @ 605000: reporter [AXI_SLAVE_DRIVER_BFM] Read address accepted: id=7, addr=0x00006436, len=9
UVM_INFO ../agent/slave_agent_bfm/axi4_slave_driver_bfm.sv(192) @ 605000: reporter [AXI_SLAVE_DRIVER_BFM] Read address accepted: id=7, addr=0x00006436, len=9
UVM_INFO ../agent/slave_agent_bfm/axi4_slave_driver_bfm.sv(192) @ 605000: reporter [AXI_SLAVE_DRIVER_BFM] Read address accepted: id=7, addr=0x00006436, len=9
UVM_INFO ../agent/slave_agent_bfm/axi4_slave_driver_bfm.sv(192) @ 605000: reporter [AXI_SLAVE_DRIVER_BFM] Read address accepted: id=7, addr=0x00006436, len=9
UVM_INFO ../agent/slave_agent_bfm/axi4_slave_driver_bfm.sv(192) @ 605000: reporter [AXI_SLAVE_DRIVER_BFM] Read address accepted: id=7, addr=0x00006436, len=9
UVM_INFO ../agent/slave_agent_bfm/axi4_slave_driver_bfm.sv(192) @ 605000: reporter [AXI_SLAVE_DRIVER_BFM] Read address accepted: id=7, addr=0x00006436, len=9
UVM_INFO ../agent/slave_agent_bfm/axi4_slave_driver_bfm.sv(192) @ 605000: reporter [AXI_SLAVE_DRIVER_BFM] Read address accepted: id=7, addr=0x00006436, len=9
UVM_INFO ../agent/slave_agent_bfm/axi4_slave_driver_bfm.sv(192) @ 605000: reporter [AXI_SLAVE_DRIVER_BFM] Read address accepted: id=7, addr=0x00006436, len=9
UVM_INFO ../agent/slave_agent_bfm/axi4_slave_driver_bfm.sv(192) @ 605000: reporter [AXI_SLAVE_DRIVER_BFM] Read address accepted: id=7, addr=0x00006436, len=9
UVM_INFO ../agent/slave_agent_bfm/axi4_slave_driver_bfm.sv(192) @ 605000: reporter [AXI_SLAVE_DRIVER_BFM] Read address accepted: id=7, addr=0x00006436, len=9
UVM_INFO ../agent/slave_agent_bfm/axi4_slave_driver_bfm.sv(192) @ 605000: reporter [AXI_SLAVE_DRIVER_BFM] Read address accepted: id=7, addr=0x00006436, len=9
UVM_INFO ../agent/slave_agent_bfm/axi4_slave_driver_bfm.sv(192) @ 615000: reporter [AXI_SLAVE_DRIVER_BFM] Read address accepted: id=7, addr=0x00006436, len=9
UVM_INFO ../agent/slave_agent_bfm/axi4_slave_driver_bfm.sv(192) @ 615000: reporter [AXI_SLAVE_DRIVER_BFM] Read address accepted: id=7, addr=0x00006436, len=9
UVM_INFO ../agent/slave_agent_bfm/axi4_slave_driver_bfm.sv(192) @ 615000: reporter [AXI_SLAVE_DRIVER_BFM] Read address accepted: id=7, addr=0x00006436, len=9
UVM_INFO ../agent/slave_agent_bfm/axi4_slave_driver_bfm.sv(192) @ 615000: reporter [AXI_SLAVE_DRIVER_BFM] Read address accepted: id=7, addr=0x00006436, len=9
UVM_INFO ../agent/slave_agent_bfm/axi4_slave_driver_bfm.sv(192) @ 615000: reporter [AXI_SLAVE_DRIVER_BFM] Read address accepted: id=7, addr=0x00006436, len=9
UVM_INFO ../agent/slave_agent_bfm/axi4_slave_driver_bfm.sv(192) @ 615000: reporter [AXI_SLAVE_DRIVER_BFM] Read address accepted: id=7, addr=0x00006436, len=9
UVM_INFO ../agent/slave_agent_bfm/axi4_slave_driver_bfm.sv(192) @ 615000: reporter [AXI_SLAVE_DRIVER_BFM] Read address accepted: id=7, addr=0x00006436, len=9
UVM_INFO ../agent/slave_agent_bfm/axi4_slave_driver_bfm.sv(192) @ 615000: reporter [AXI_SLAVE_DRIVER_BFM] Read address accepted: id=7, addr=0x00006436, len=9
UVM_INFO ../agent/slave_agent_bfm/axi4_slave_driver_bfm.sv(192) @ 615000: reporter [AXI_SLAVE_DRIVER_BFM] Read address accepted: id=7, addr=0x00006436, len=9
UVM_INFO ../agent/slave_agent_bfm/axi4_slave_driver_bfm.sv(192) @ 615000: reporter [AXI_SLAVE_DRIVER_BFM] Read address accepted: id=7, addr=0x00006436, len=9
UVM_INFO ../agent/slave_agent_bfm/axi4_slave_driver_bfm.sv(192) @ 615000: reporter [AXI_SLAVE_DRIVER_BFM] Read address accepted: id=7, addr=0x00006436, len=9
UVM_INFO ../agent/slave_agent_bfm/axi4_slave_driver_bfm.sv(192) @ 615000: reporter [AXI_SLAVE_DRIVER_BFM] Read address accepted: id=7, addr=0x00006436, len=9
UVM_INFO ../agent/slave_agent_bfm/axi4_slave_driver_bfm.sv(192) @ 615000: reporter [AXI_SLAVE_DRIVER_BFM] Read address accepted: id=7, addr=0x00006436, len=9
UVM_INFO ../agent/slave_agent_bfm/axi4_slave_driver_bfm.sv(192) @ 615000: reporter [AXI_SLAVE_DRIVER_BFM] Read address accepted: id=7, addr=0x00006436, len=9
UVM_INFO ../agent/slave_agent_bfm/axi4_slave_driver_bfm.sv(192) @ 615000: reporter [AXI_SLAVE_DRIVER_BFM] Read address accepted: id=7, addr=0x00006436, len=9
UVM_INFO ../agent/slave_agent_bfm/axi4_slave_driver_bfm.sv(192) @ 615000: reporter [AXI_SLAVE_DRIVER_BFM] Read address accepted: id=7, addr=0x00006436, len=9
UVM_INFO ../agent/slave_agent_bfm/axi4_slave_driver_bfm.sv(192) @ 615000: reporter [AXI_SLAVE_DRIVER_BFM] Read address accepted: id=7, addr=0x00006436, len=9
UVM_INFO ../agent/slave_agent_bfm/axi4_slave_driver_bfm.sv(192) @ 615000: reporter [AXI_SLAVE_DRIVER_BFM] Read address accepted: id=7, addr=0x00006436, len=9
UVM_INFO ../agent/slave_agent_bfm/axi4_slave_driver_bfm.sv(192) @ 615000: reporter [AXI_SLAVE_DRIVER_BFM] Read address accepted: id=7, addr=0x00006436, len=9
UVM_INFO ../agent/slave_agent_bfm/axi4_slave_driver_bfm.sv(192) @ 615000: reporter [AXI_SLAVE_DRIVER_BFM] Read address accepted: id=7, addr=0x00006436, len=9
UVM_INFO ../agent/slave_agent_bfm/axi4_slave_driver_bfm.sv(192) @ 615000: reporter [AXI_SLAVE_DRIVER_BFM] Read address accepted: id=7, addr=0x00006436, len=9
UVM_INFO ../agent/slave_agent_bfm/axi4_slave_driver_bfm.sv(192) @ 615000: reporter [AXI_SLAVE_DRIVER_BFM] Read address accepted: id=7, addr=0x00006436, len=9
UVM_INFO ../agent/slave_agent_bfm/axi4_slave_driver_bfm.sv(192) @ 615000: reporter [AXI_SLAVE_DRIVER_BFM] Read address accepted: id=7, addr=0x00006436, len=9
UVM_INFO ../agent/slave_agent_bfm/axi4_slave_driver_bfm.sv(192) @ 625000: reporter [AXI_SLAVE_DRIVER_BFM] Read address accepted: id=7, addr=0x00006436, len=9
UVM_INFO ../agent/slave_agent_bfm/axi4_slave_driver_bfm.sv(192) @ 625000: reporter [AXI_SLAVE_DRIVER_BFM] Read address accepted: id=7, addr=0x00006436, len=9
UVM_INFO ../agent/slave_agent_bfm/axi4_slave_driver_bfm.sv(192) @ 625000: reporter [AXI_SLAVE_DRIVER_BFM] Read address accepted: id=7, addr=0x00006436, len=9
UVM_INFO ../agent/slave_agent_bfm/axi4_slave_driver_bfm.sv(192) @ 625000: reporter [AXI_SLAVE_DRIVER_BFM] Read address accepted: id=7, addr=0x00006436, len=9
UVM_INFO ../agent/slave_agent_bfm/axi4_slave_driver_bfm.sv(192) @ 625000: reporter [AXI_SLAVE_DRIVER_BFM] Read address accepted: id=7, addr=0x00006436, len=9
UVM_INFO ../agent/slave_agent_bfm/axi4_slave_driver_bfm.sv(192) @ 625000: reporter [AXI_SLAVE_DRIVER_BFM] Read address accepted: id=7, addr=0x00006436, len=9
UVM_INFO ../agent/slave_agent_bfm/axi4_slave_driver_bfm.sv(192) @ 625000: reporter [AXI_SLAVE_DRIVER_BFM] Read address accepted: id=7, addr=0x00006436, len=9
UVM_INFO ../agent/slave_agent_bfm/axi4_slave_driver_bfm.sv(192) @ 625000: reporter [AXI_SLAVE_DRIVER_BFM] Read address accepted: id=7, addr=0x00006436, len=9
UVM_INFO ../agent/slave_agent_bfm/axi4_slave_driver_bfm.sv(192) @ 625000: reporter [AXI_SLAVE_DRIVER_BFM] Read address accepted: id=7, addr=0x00006436, len=9
UVM_INFO ../agent/slave_agent_bfm/axi4_slave_driver_bfm.sv(192) @ 625000: reporter [AXI_SLAVE_DRIVER_BFM] Read address accepted: id=7, addr=0x00006436, len=9
UVM_INFO ../agent/slave_agent_bfm/axi4_slave_driver_bfm.sv(192) @ 625000: reporter [AXI_SLAVE_DRIVER_BFM] Read address accepted: id=7, addr=0x00006436, len=9
UVM_INFO ../agent/slave_agent_bfm/axi4_slave_driver_bfm.sv(192) @ 625000: reporter [AXI_SLAVE_DRIVER_BFM] Read address accepted: id=7, addr=0x00006436, len=9
UVM_INFO ../agent/slave_agent_bfm/axi4_slave_driver_bfm.sv(192) @ 625000: reporter [AXI_SLAVE_DRIVER_BFM] Read address accepted: id=7, addr=0x00006436, len=9
UVM_INFO ../agent/slave_agent_bfm/axi4_slave_driver_bfm.sv(192) @ 625000: reporter [AXI_SLAVE_DRIVER_BFM] Read address accepted: id=7, addr=0x00006436, len=9
UVM_INFO ../agent/slave_agent_bfm/axi4_slave_driver_bfm.sv(192) @ 625000: reporter [AXI_SLAVE_DRIVER_BFM] Read address accepted: id=7, addr=0x00006436, len=9
UVM_INFO ../agent/slave_agent_bfm/axi4_slave_driver_bfm.sv(192) @ 625000: reporter [AXI_SLAVE_DRIVER_BFM] Read address accepted: id=7, addr=0x00006436, len=9
UVM_INFO ../master/axi4_master_pkg.sv(92) @ 700000: uvm_test_top.env.master_agent[0].driver [axi4_master_driver] Got READ transaction - addr=0x2f2d90bf, len=12, size=7, burst=3
UVM_INFO ../master/axi4_master_pkg.sv(92) @ 700000: uvm_test_top.env.master_agent[1].driver [axi4_master_driver] Got READ transaction - addr=0x5ec6b867, len=172, size=6, burst=3
UVM_INFO ../master/axi4_master_pkg.sv(92) @ 700000: uvm_test_top.env.master_agent[2].driver [axi4_master_driver] Got WRITE transaction - addr=0xbdb1b133, len=42, size=0, burst=0
UVM_INFO ../master/axi4_master_pkg.sv(92) @ 700000: uvm_test_top.env.master_agent[3].driver [axi4_master_driver] Got WRITE transaction - addr=0x1223e238, len=194, size=1, burst=1
UVM_INFO ../master/axi4_master_pkg.sv(92) @ 700000: uvm_test_top.env.master_agent[4].driver [axi4_master_driver] Got WRITE transaction - addr=0x66f2786f, len=37, size=7, burst=3
UVM_INFO ../master/axi4_master_pkg.sv(92) @ 700000: uvm_test_top.env.master_agent[5].driver [axi4_master_driver] Got WRITE transaction - addr=0xd695623d, len=55, size=5, burst=0
UVM_INFO ../master/axi4_master_pkg.sv(92) @ 700000: uvm_test_top.env.master_agent[6].driver [axi4_master_driver] Got WRITE transaction - addr=0x1b422c3d, len=21, size=4, burst=2
UVM_INFO ../master/axi4_master_pkg.sv(92) @ 700000: uvm_test_top.env.master_agent[7].driver [axi4_master_driver] Got READ transaction - addr=0xd7876b3a, len=37, size=2, burst=3
UVM_INFO ../master/axi4_master_pkg.sv(92) @ 700000: uvm_test_top.env.master_agent[8].driver [axi4_master_driver] Got WRITE transaction - addr=0x76286dc1, len=251, size=1, burst=1
UVM_INFO ../agent/slave_agent_bfm/axi4_slave_driver_bfm.sv(246) @ 745000: reporter [AXI_SLAVE_DRIVER_BFM] Read transaction complete for id=7
UVM_INFO ../agent/slave_agent_bfm/axi4_slave_driver_bfm.sv(246) @ 745000: reporter [AXI_SLAVE_DRIVER_BFM] Read transaction complete for id=7
UVM_INFO ../agent/slave_agent_bfm/axi4_slave_driver_bfm.sv(246) @ 755000: reporter [AXI_SLAVE_DRIVER_BFM] Read transaction complete for id=7
UVM_INFO ../agent/slave_agent_bfm/axi4_slave_driver_bfm.sv(246) @ 755000: reporter [AXI_SLAVE_DRIVER_BFM] Read transaction complete for id=7
UVM_INFO ../agent/slave_agent_bfm/axi4_slave_driver_bfm.sv(246) @ 755000: reporter [AXI_SLAVE_DRIVER_BFM] Read transaction complete for id=7
UVM_INFO ../agent/slave_agent_bfm/axi4_slave_driver_bfm.sv(246) @ 755000: reporter [AXI_SLAVE_DRIVER_BFM] Read transaction complete for id=7
UVM_INFO ../agent/slave_agent_bfm/axi4_slave_driver_bfm.sv(246) @ 765000: reporter [AXI_SLAVE_DRIVER_BFM] Read transaction complete for id=7
UVM_INFO ../agent/slave_agent_bfm/axi4_slave_driver_bfm.sv(246) @ 765000: reporter [AXI_SLAVE_DRIVER_BFM] Read transaction complete for id=7
UVM_INFO ../agent/slave_agent_bfm/axi4_slave_driver_bfm.sv(246) @ 765000: reporter [AXI_SLAVE_DRIVER_BFM] Read transaction complete for id=7
UVM_INFO ../agent/slave_agent_bfm/axi4_slave_driver_bfm.sv(246) @ 765000: reporter [AXI_SLAVE_DRIVER_BFM] Read transaction complete for id=7
UVM_INFO ../agent/slave_agent_bfm/axi4_slave_driver_bfm.sv(246) @ 765000: reporter [AXI_SLAVE_DRIVER_BFM] Read transaction complete for id=7
UVM_INFO ../agent/slave_agent_bfm/axi4_slave_driver_bfm.sv(246) @ 765000: reporter [AXI_SLAVE_DRIVER_BFM] Read transaction complete for id=7
UVM_INFO ../agent/slave_agent_bfm/axi4_slave_driver_bfm.sv(246) @ 765000: reporter [AXI_SLAVE_DRIVER_BFM] Read transaction complete for id=7
UVM_INFO ../agent/slave_agent_bfm/axi4_slave_driver_bfm.sv(246) @ 765000: reporter [AXI_SLAVE_DRIVER_BFM] Read transaction complete for id=7
UVM_INFO ../agent/slave_agent_bfm/axi4_slave_driver_bfm.sv(246) @ 765000: reporter [AXI_SLAVE_DRIVER_BFM] Read transaction complete for id=7
UVM_INFO ../agent/slave_agent_bfm/axi4_slave_driver_bfm.sv(246) @ 765000: reporter [AXI_SLAVE_DRIVER_BFM] Read transaction complete for id=7
UVM_INFO ../agent/slave_agent_bfm/axi4_slave_driver_bfm.sv(246) @ 765000: reporter [AXI_SLAVE_DRIVER_BFM] Read transaction complete for id=7
UVM_INFO ../agent/slave_agent_bfm/axi4_slave_driver_bfm.sv(246) @ 765000: reporter [AXI_SLAVE_DRIVER_BFM] Read transaction complete for id=7
UVM_INFO ../agent/slave_agent_bfm/axi4_slave_driver_bfm.sv(246) @ 775000: reporter [AXI_SLAVE_DRIVER_BFM] Read transaction complete for id=7
UVM_INFO ../agent/slave_agent_bfm/axi4_slave_driver_bfm.sv(246) @ 775000: reporter [AXI_SLAVE_DRIVER_BFM] Read transaction complete for id=7
UVM_INFO ../agent/slave_agent_bfm/axi4_slave_driver_bfm.sv(246) @ 775000: reporter [AXI_SLAVE_DRIVER_BFM] Read transaction complete for id=7
UVM_INFO ../agent/slave_agent_bfm/axi4_slave_driver_bfm.sv(246) @ 775000: reporter [AXI_SLAVE_DRIVER_BFM] Read transaction complete for id=7
UVM_INFO ../agent/slave_agent_bfm/axi4_slave_driver_bfm.sv(246) @ 775000: reporter [AXI_SLAVE_DRIVER_BFM] Read transaction complete for id=7
UVM_INFO ../agent/slave_agent_bfm/axi4_slave_driver_bfm.sv(246) @ 775000: reporter [AXI_SLAVE_DRIVER_BFM] Read transaction complete for id=7
UVM_INFO ../agent/slave_agent_bfm/axi4_slave_driver_bfm.sv(246) @ 775000: reporter [AXI_SLAVE_DRIVER_BFM] Read transaction complete for id=7
UVM_INFO ../agent/slave_agent_bfm/axi4_slave_driver_bfm.sv(246) @ 775000: reporter [AXI_SLAVE_DRIVER_BFM] Read transaction complete for id=7
UVM_INFO ../agent/slave_agent_bfm/axi4_slave_driver_bfm.sv(246) @ 775000: reporter [AXI_SLAVE_DRIVER_BFM] Read transaction complete for id=7
UVM_INFO ../agent/slave_agent_bfm/axi4_slave_driver_bfm.sv(246) @ 775000: reporter [AXI_SLAVE_DRIVER_BFM] Read transaction complete for id=7
UVM_INFO ../agent/slave_agent_bfm/axi4_slave_driver_bfm.sv(246) @ 775000: reporter [AXI_SLAVE_DRIVER_BFM] Read transaction complete for id=7
UVM_INFO ../agent/slave_agent_bfm/axi4_slave_driver_bfm.sv(246) @ 775000: reporter [AXI_SLAVE_DRIVER_BFM] Read transaction complete for id=7
UVM_INFO ../agent/slave_agent_bfm/axi4_slave_driver_bfm.sv(246) @ 785000: reporter [AXI_SLAVE_DRIVER_BFM] Read transaction complete for id=7
UVM_INFO ../agent/slave_agent_bfm/axi4_slave_driver_bfm.sv(246) @ 785000: reporter [AXI_SLAVE_DRIVER_BFM] Read transaction complete for id=7
UVM_INFO ../agent/slave_agent_bfm/axi4_slave_driver_bfm.sv(246) @ 785000: reporter [AXI_SLAVE_DRIVER_BFM] Read transaction complete for id=7
UVM_INFO ../agent/slave_agent_bfm/axi4_slave_driver_bfm.sv(246) @ 785000: reporter [AXI_SLAVE_DRIVER_BFM] Read transaction complete for id=7
UVM_INFO ../agent/slave_agent_bfm/axi4_slave_driver_bfm.sv(246) @ 785000: reporter [AXI_SLAVE_DRIVER_BFM] Read transaction complete for id=7
UVM_INFO ../agent/slave_agent_bfm/axi4_slave_driver_bfm.sv(246) @ 785000: reporter [AXI_SLAVE_DRIVER_BFM] Read transaction complete for id=7
UVM_INFO ../agent/slave_agent_bfm/axi4_slave_driver_bfm.sv(246) @ 785000: reporter [AXI_SLAVE_DRIVER_BFM] Read transaction complete for id=7
UVM_INFO ../agent/slave_agent_bfm/axi4_slave_driver_bfm.sv(246) @ 785000: reporter [AXI_SLAVE_DRIVER_BFM] Read transaction complete for id=7
UVM_INFO ../agent/slave_agent_bfm/axi4_slave_driver_bfm.sv(246) @ 785000: reporter [AXI_SLAVE_DRIVER_BFM] Read transaction complete for id=7
UVM_INFO ../agent/slave_agent_bfm/axi4_slave_driver_bfm.sv(246) @ 785000: reporter [AXI_SLAVE_DRIVER_BFM] Read transaction complete for id=7
UVM_INFO ../agent/slave_agent_bfm/axi4_slave_driver_bfm.sv(246) @ 785000: reporter [AXI_SLAVE_DRIVER_BFM] Read transaction complete for id=7
UVM_INFO ../agent/slave_agent_bfm/axi4_slave_driver_bfm.sv(246) @ 785000: reporter [AXI_SLAVE_DRIVER_BFM] Read transaction complete for id=7
UVM_INFO ../agent/slave_agent_bfm/axi4_slave_driver_bfm.sv(246) @ 795000: reporter [AXI_SLAVE_DRIVER_BFM] Read transaction complete for id=7
UVM_INFO ../agent/slave_agent_bfm/axi4_slave_driver_bfm.sv(246) @ 795000: reporter [AXI_SLAVE_DRIVER_BFM] Read transaction complete for id=7
UVM_INFO ../agent/slave_agent_bfm/axi4_slave_driver_bfm.sv(246) @ 795000: reporter [AXI_SLAVE_DRIVER_BFM] Read transaction complete for id=7
UVM_INFO ../agent/slave_agent_bfm/axi4_slave_driver_bfm.sv(246) @ 795000: reporter [AXI_SLAVE_DRIVER_BFM] Read transaction complete for id=7
UVM_INFO ../agent/slave_agent_bfm/axi4_slave_driver_bfm.sv(246) @ 795000: reporter [AXI_SLAVE_DRIVER_BFM] Read transaction complete for id=7
UVM_INFO ../agent/slave_agent_bfm/axi4_slave_driver_bfm.sv(246) @ 795000: reporter [AXI_SLAVE_DRIVER_BFM] Read transaction complete for id=7
UVM_INFO ../agent/slave_agent_bfm/axi4_slave_driver_bfm.sv(246) @ 795000: reporter [AXI_SLAVE_DRIVER_BFM] Read transaction complete for id=7
UVM_INFO ../agent/slave_agent_bfm/axi4_slave_driver_bfm.sv(246) @ 795000: reporter [AXI_SLAVE_DRIVER_BFM] Read transaction complete for id=7
UVM_INFO ../master/axi4_master_pkg.sv(92) @ 800000: uvm_test_top.env.master_agent[8].driver [axi4_master_driver] Got WRITE transaction - addr=0x58d41a25, len=204, size=0, burst=1
UVM_INFO ../master/axi4_master_pkg.sv(92) @ 800000: uvm_test_top.env.master_agent[7].driver [axi4_master_driver] Got READ transaction - addr=0x6e71d42e, len=40, size=0, burst=2
UVM_INFO ../master/axi4_master_pkg.sv(92) @ 800000: uvm_test_top.env.master_agent[6].driver [axi4_master_driver] Got WRITE transaction - addr=0x372974c1, len=248, size=3, burst=2
UVM_INFO ../master/axi4_master_pkg.sv(92) @ 800000: uvm_test_top.env.master_agent[5].driver [axi4_master_driver] Got READ transaction - addr=0x739f020f, len=0, size=1, burst=2
UVM_INFO ../master/axi4_master_pkg.sv(92) @ 800000: uvm_test_top.env.master_agent[4].driver [axi4_master_driver] Got WRITE transaction - addr=0xa2cdebf8, len=70, size=2, burst=1
UVM_INFO ../master/axi4_master_pkg.sv(92) @ 800000: uvm_test_top.env.master_agent[3].driver [axi4_master_driver] Got READ transaction - addr=0x95f8c8d, len=151, size=2, burst=0
UVM_INFO ../master/axi4_master_pkg.sv(92) @ 800000: uvm_test_top.env.master_agent[2].driver [axi4_master_driver] Got WRITE transaction - addr=0x726095c7, len=79, size=5, burst=2
UVM_INFO ../master/axi4_master_pkg.sv(92) @ 800000: uvm_test_top.env.master_agent[1].driver [axi4_master_driver] Got READ transaction - addr=0xe67edf47, len=64, size=1, burst=1
UVM_INFO ../master/axi4_master_pkg.sv(92) @ 800000: uvm_test_top.env.master_agent[0].driver [axi4_master_driver] Got READ transaction - addr=0x40b0b066, len=168, size=5, burst=1
UVM_INFO ../agent/slave_agent_bfm/axi4_slave_driver_bfm.sv(246) @ 805000: reporter [AXI_SLAVE_DRIVER_BFM] Read transaction complete for id=7
UVM_INFO ../agent/slave_agent_bfm/axi4_slave_driver_bfm.sv(246) @ 815000: reporter [AXI_SLAVE_DRIVER_BFM] Read transaction complete for id=7
UVM_INFO ../agent/slave_agent_bfm/axi4_slave_driver_bfm.sv(246) @ 815000: reporter [AXI_SLAVE_DRIVER_BFM] Read transaction complete for id=7
UVM_INFO ../agent/slave_agent_bfm/axi4_slave_driver_bfm.sv(246) @ 825000: reporter [AXI_SLAVE_DRIVER_BFM] Read transaction complete for id=7
UVM_INFO ../agent/slave_agent_bfm/axi4_slave_driver_bfm.sv(246) @ 825000: reporter [AXI_SLAVE_DRIVER_BFM] Read transaction complete for id=7
UVM_INFO ../agent/slave_agent_bfm/axi4_slave_driver_bfm.sv(246) @ 825000: reporter [AXI_SLAVE_DRIVER_BFM] Read transaction complete for id=7
UVM_INFO ../agent/slave_agent_bfm/axi4_slave_driver_bfm.sv(246) @ 855000: reporter [AXI_SLAVE_DRIVER_BFM] Read transaction complete for id=7
UVM_INFO ../agent/slave_agent_bfm/axi4_slave_driver_bfm.sv(246) @ 865000: reporter [AXI_SLAVE_DRIVER_BFM] Read transaction complete for id=7
UVM_INFO ../agent/slave_agent_bfm/axi4_slave_driver_bfm.sv(246) @ 875000: reporter [AXI_SLAVE_DRIVER_BFM] Read transaction complete for id=7
UVM_INFO ../agent/slave_agent_bfm/axi4_slave_driver_bfm.sv(246) @ 895000: reporter [AXI_SLAVE_DRIVER_BFM] Read transaction complete for id=7
UVM_INFO ../master/axi4_master_pkg.sv(92) @ 900000: uvm_test_top.env.master_agent[0].driver [axi4_master_driver] Got WRITE transaction - addr=0xa80941aa, len=144, size=4, burst=2
UVM_INFO ../master/axi4_master_pkg.sv(92) @ 900000: uvm_test_top.env.master_agent[1].driver [axi4_master_driver] Got WRITE transaction - addr=0xbc6fc35d, len=249, size=4, burst=3
UVM_INFO ../master/axi4_master_pkg.sv(92) @ 900000: uvm_test_top.env.master_agent[2].driver [axi4_master_driver] Got READ transaction - addr=0x405a7f9c, len=96, size=4, burst=2
UVM_INFO ../master/axi4_master_pkg.sv(92) @ 900000: uvm_test_top.env.master_agent[3].driver [axi4_master_driver] Got WRITE transaction - addr=0xfd0b8f0, len=164, size=6, burst=3
UVM_INFO ../master/axi4_master_pkg.sv(92) @ 900000: uvm_test_top.env.master_agent[4].driver [axi4_master_driver] Got READ transaction - addr=0x2cf2748a, len=73, size=3, burst=1
UVM_INFO ../master/axi4_master_pkg.sv(92) @ 900000: uvm_test_top.env.master_agent[5].driver [axi4_master_driver] Got READ transaction - addr=0x7ac8647c, len=172, size=0, burst=1
UVM_INFO ../master/axi4_master_pkg.sv(92) @ 900000: uvm_test_top.env.master_agent[6].driver [axi4_master_driver] Got READ transaction - addr=0xe078e9a5, len=220, size=3, burst=1
UVM_INFO ../master/axi4_master_pkg.sv(92) @ 900000: uvm_test_top.env.master_agent[7].driver [axi4_master_driver] Got READ transaction - addr=0x7ae2a107, len=183, size=6, burst=3
UVM_INFO ../master/axi4_master_pkg.sv(92) @ 900000: uvm_test_top.env.master_agent[8].driver [axi4_master_driver] Got WRITE transaction - addr=0x45708cd7, len=78, size=5, burst=0
UVM_INFO ../master/axi4_master_pkg.sv(92) @ 1000000: uvm_test_top.env.master_agent[8].driver [axi4_master_driver] Got READ transaction - addr=0x3ac43bc9, len=254, size=2, burst=0
UVM_INFO ../master/axi4_master_pkg.sv(92) @ 1000000: uvm_test_top.env.master_agent[7].driver [axi4_master_driver] Got WRITE transaction - addr=0xd9e6cca0, len=182, size=2, burst=1
UVM_INFO ../master/axi4_master_pkg.sv(92) @ 1000000: uvm_test_top.env.master_agent[6].driver [axi4_master_driver] Got WRITE transaction - addr=0xc225d0ba, len=38, size=0, burst=2
UVM_INFO ../master/axi4_master_pkg.sv(92) @ 1000000: uvm_test_top.env.master_agent[5].driver [axi4_master_driver] Got READ transaction - addr=0xdaedb714, len=225, size=5, burst=2
UVM_INFO ../master/axi4_master_pkg.sv(92) @ 1000000: uvm_test_top.env.master_agent[4].driver [axi4_master_driver] Got READ transaction - addr=0x693f74ed, len=17, size=7, burst=1
UVM_INFO ../master/axi4_master_pkg.sv(92) @ 1000000: uvm_test_top.env.master_agent[3].driver [axi4_master_driver] Got WRITE transaction - addr=0xb74452f9, len=6, size=0, burst=2
UVM_INFO ../master/axi4_master_pkg.sv(92) @ 1000000: uvm_test_top.env.master_agent[2].driver [axi4_master_driver] Got WRITE transaction - addr=0x10b0d5a9, len=125, size=6, burst=2
UVM_INFO ../master/axi4_master_pkg.sv(92) @ 1000000: uvm_test_top.env.master_agent[1].driver [axi4_master_driver] Got READ transaction - addr=0x6ff08c88, len=224, size=4, burst=1
UVM_INFO ../master/axi4_master_pkg.sv(92) @ 1000000: uvm_test_top.env.master_agent[0].driver [axi4_master_driver] Got WRITE transaction - addr=0xc4e75d64, len=158, size=4, burst=2
UVM_INFO ../master/axi4_master_pkg.sv(92) @ 1100000: uvm_test_top.env.master_agent[0].driver [axi4_master_driver] Got READ transaction - addr=0x1e950d09, len=193, size=6, burst=2
UVM_INFO ../master/axi4_master_pkg.sv(92) @ 1100000: uvm_test_top.env.master_agent[1].driver [axi4_master_driver] Got READ transaction - addr=0x1ee839d, len=85, size=5, burst=3
UVM_INFO ../master/axi4_master_pkg.sv(92) @ 1100000: uvm_test_top.env.master_agent[2].driver [axi4_master_driver] Got WRITE transaction - addr=0x319729d0, len=160, size=6, burst=1
UVM_INFO ../master/axi4_master_pkg.sv(92) @ 1100000: uvm_test_top.env.master_agent[3].driver [axi4_master_driver] Got READ transaction - addr=0xefcf4c54, len=66, size=4, burst=2
UVM_INFO ../master/axi4_master_pkg.sv(92) @ 1100000: uvm_test_top.env.master_agent[4].driver [axi4_master_driver] Got READ transaction - addr=0xec3bfe7, len=51, size=5, burst=1
UVM_INFO ../master/axi4_master_pkg.sv(92) @ 1100000: uvm_test_top.env.master_agent[5].driver [axi4_master_driver] Got READ transaction - addr=0x7dfdf4f0, len=88, size=6, burst=1
UVM_INFO ../master/axi4_master_pkg.sv(92) @ 1100000: uvm_test_top.env.master_agent[6].driver [axi4_master_driver] Got WRITE transaction - addr=0x9dceb5db, len=158, size=7, burst=3
UVM_INFO ../master/axi4_master_pkg.sv(92) @ 1100000: uvm_test_top.env.master_agent[7].driver [axi4_master_driver] Got READ transaction - addr=0xfe6d4bdb, len=91, size=4, burst=1
UVM_INFO ../master/axi4_master_pkg.sv(92) @ 1100000: uvm_test_top.env.master_agent[8].driver [axi4_master_driver] Got READ transaction - addr=0x46c43a4c, len=50, size=5, burst=0
UVM_INFO ../master/axi4_master_pkg.sv(92) @ 1200000: uvm_test_top.env.master_agent[8].driver [axi4_master_driver] Got READ transaction - addr=0x4792ef8f, len=191, size=0, burst=3
UVM_INFO ../master/axi4_master_pkg.sv(92) @ 1200000: uvm_test_top.env.master_agent[7].driver [axi4_master_driver] Got READ transaction - addr=0xbaf3185e, len=55, size=1, burst=1
UVM_INFO ../master/axi4_master_pkg.sv(92) @ 1200000: uvm_test_top.env.master_agent[6].driver [axi4_master_driver] Got WRITE transaction - addr=0xe36ba85f, len=88, size=3, burst=0
UVM_INFO ../master/axi4_master_pkg.sv(92) @ 1200000: uvm_test_top.env.master_agent[5].driver [axi4_master_driver] Got READ transaction - addr=0x3f25f1e1, len=156, size=0, burst=1
UVM_INFO ../master/axi4_master_pkg.sv(92) @ 1200000: uvm_test_top.env.master_agent[4].driver [axi4_master_driver] Got WRITE transaction - addr=0x79c3762d, len=206, size=5, burst=3
UVM_INFO ../master/axi4_master_pkg.sv(92) @ 1200000: uvm_test_top.env.master_agent[3].driver [axi4_master_driver] Got WRITE transaction - addr=0x4794e7fe, len=4, size=0, burst=0
UVM_INFO ../master/axi4_master_pkg.sv(92) @ 1200000: uvm_test_top.env.master_agent[2].driver [axi4_master_driver] Got READ transaction - addr=0xbe4fa3b6, len=21, size=3, burst=3
UVM_INFO ../master/axi4_master_pkg.sv(92) @ 1200000: uvm_test_top.env.master_agent[1].driver [axi4_master_driver] Got WRITE transaction - addr=0xc04df79d, len=70, size=5, burst=0
UVM_INFO ../master/axi4_master_pkg.sv(92) @ 1200000: uvm_test_top.env.master_agent[0].driver [axi4_master_driver] Got READ transaction - addr=0x3093b0e6, len=64, size=7, burst=2
UVM_INFO ../master/axi4_master_pkg.sv(92) @ 1300000: uvm_test_top.env.master_agent[0].driver [axi4_master_driver] Got READ transaction - addr=0xe23bbff9, len=187, size=5, burst=3
UVM_INFO ../master/axi4_master_pkg.sv(92) @ 1300000: uvm_test_top.env.master_agent[1].driver [axi4_master_driver] Got WRITE transaction - addr=0x5b3248c1, len=252, size=5, burst=0
UVM_INFO ../master/axi4_master_pkg.sv(92) @ 1300000: uvm_test_top.env.master_agent[2].driver [axi4_master_driver] Got READ transaction - addr=0x5bef4573, len=75, size=5, burst=2
UVM_INFO ../master/axi4_master_pkg.sv(92) @ 1300000: uvm_test_top.env.master_agent[3].driver [axi4_master_driver] Got READ transaction - addr=0xabf97442, len=242, size=7, burst=0
UVM_INFO ../master/axi4_master_pkg.sv(92) @ 1300000: uvm_test_top.env.master_agent[4].driver [axi4_master_driver] Got READ transaction - addr=0x3c5b0d2e, len=40, size=1, burst=3
UVM_INFO ../master/axi4_master_pkg.sv(92) @ 1300000: uvm_test_top.env.master_agent[5].driver [axi4_master_driver] Got READ transaction - addr=0xdcb70e9a, len=79, size=6, burst=0
UVM_INFO ../master/axi4_master_pkg.sv(92) @ 1300000: uvm_test_top.env.master_agent[6].driver [axi4_master_driver] Got WRITE transaction - addr=0x2aef38e1, len=2, size=0, burst=0
UVM_INFO ../master/axi4_master_pkg.sv(92) @ 1300000: uvm_test_top.env.master_agent[7].driver [axi4_master_driver] Got WRITE transaction - addr=0x415c06dd, len=98, size=4, burst=3
UVM_INFO ../master/axi4_master_pkg.sv(92) @ 1300000: uvm_test_top.env.master_agent[8].driver [axi4_master_driver] Got WRITE transaction - addr=0x716226c4, len=169, size=7, burst=2
UVM_INFO ../master/axi4_master_pkg.sv(92) @ 1400000: uvm_test_top.env.master_agent[8].driver [axi4_master_driver] Got WRITE transaction - addr=0x131f181f, len=254, size=0, burst=1
UVM_INFO ../master/axi4_master_pkg.sv(92) @ 1400000: uvm_test_top.env.master_agent[7].driver [axi4_master_driver] Got WRITE transaction - addr=0xda93d822, len=217, size=0, burst=1
UVM_INFO ../master/axi4_master_pkg.sv(92) @ 1400000: uvm_test_top.env.master_agent[6].driver [axi4_master_driver] Got READ transaction - addr=0x7d59e6b4, len=97, size=3, burst=0
UVM_INFO ../master/axi4_master_pkg.sv(92) @ 1400000: uvm_test_top.env.master_agent[5].driver [axi4_master_driver] Got READ transaction - addr=0xbc571447, len=15, size=6, burst=0
UVM_INFO ../master/axi4_master_pkg.sv(92) @ 1400000: uvm_test_top.env.master_agent[4].driver [axi4_master_driver] Got READ transaction - addr=0x9f87bad6, len=214, size=1, burst=2
UVM_INFO ../master/axi4_master_pkg.sv(92) @ 1400000: uvm_test_top.env.master_agent[3].driver [axi4_master_driver] Got READ transaction - addr=0x59797c5d, len=79, size=0, burst=1
UVM_INFO ../master/axi4_master_pkg.sv(92) @ 1400000: uvm_test_top.env.master_agent[2].driver [axi4_master_driver] Got READ transaction - addr=0x3c4b112b, len=173, size=3, burst=1
UVM_INFO ../master/axi4_master_pkg.sv(92) @ 1400000: uvm_test_top.env.master_agent[1].driver [axi4_master_driver] Got WRITE transaction - addr=0x9245cb45, len=215, size=0, burst=3
UVM_INFO ../master/axi4_master_pkg.sv(92) @ 1400000: uvm_test_top.env.master_agent[0].driver [axi4_master_driver] Got READ transaction - addr=0x161beb71, len=116, size=2, burst=1
UVM_INFO ../master/axi4_master_pkg.sv(92) @ 1500000: uvm_test_top.env.master_agent[0].driver [axi4_master_driver] Got READ transaction - addr=0x96a4a04c, len=204, size=0, burst=1
UVM_INFO ../master/axi4_master_pkg.sv(92) @ 1500000: uvm_test_top.env.master_agent[1].driver [axi4_master_driver] Got WRITE transaction - addr=0x957e7e35, len=229, size=2, burst=1
UVM_INFO ../master/axi4_master_pkg.sv(92) @ 1500000: uvm_test_top.env.master_agent[2].driver [axi4_master_driver] Got WRITE transaction - addr=0x47e7a43d, len=202, size=7, burst=1
UVM_INFO ../master/axi4_master_pkg.sv(92) @ 1500000: uvm_test_top.env.master_agent[3].driver [axi4_master_driver] Got READ transaction - addr=0xe3ce0535, len=9, size=4, burst=3
UVM_INFO ../master/axi4_master_pkg.sv(92) @ 1500000: uvm_test_top.env.master_agent[4].driver [axi4_master_driver] Got WRITE transaction - addr=0x7eba19b8, len=161, size=4, burst=0
UVM_INFO ../master/axi4_master_pkg.sv(92) @ 1500000: uvm_test_top.env.master_agent[5].driver [axi4_master_driver] Got WRITE transaction - addr=0x6ef9544d, len=68, size=0, burst=2
UVM_INFO ../master/axi4_master_pkg.sv(92) @ 1500000: uvm_test_top.env.master_agent[6].driver [axi4_master_driver] Got WRITE transaction - addr=0x5b43f6ee, len=8, size=6, burst=0
UVM_INFO ../master/axi4_master_pkg.sv(92) @ 1500000: uvm_test_top.env.master_agent[7].driver [axi4_master_driver] Got WRITE transaction - addr=0x89590783, len=142, size=2, burst=1
