Command: /home/timtim01/eda_test/project/gen_amba_2025/9x9_vip/axi4_vip_env_rtl_integration/sim/./simv +UVM_TESTNAME=axi4_stress_test +UVM_VERBOSITY=UVM_MEDIUM +ntb_random_seed=1 +fsdb_file=./waves/axi4_stress_test_1.fsdb -l ./logs/axi4_stress_test_1.log
Chronologic VCS simulator copyright 1991-2024
Contains Synopsys proprietary information.
Compiler version W-2024.09-SP1_Full64; Runtime version W-2024.09-SP1_Full64;  Aug  4 10:36 2025
UVM_INFO /home/eda_tools/synopsys/vcs/W-2024.09-SP1//etc/uvm-1.2/base/uvm_root.svh(402) @ 0: reporter [UVM/RELNOTES] 
----------------------------------------------------------------
UVM-1.2.Synopsys
(C) 2007-2014 Mentor Graphics Corporation
(C) 2007-2014 Cadence Design Systems, Inc.
(C) 2006-2014 Synopsys, Inc.
(C) 2011-2013 Cypress Semiconductor Corp.
(C) 2013-2014 NVIDIA Corporation
----------------------------------------------------------------

  ***********       IMPORTANT RELEASE NOTES         ************

  You are using a version of the UVM library that has been compiled
  with `UVM_OBJECT_DO_NOT_NEED_CONSTRUCTOR undefined.
  See http://www.eda.org/svdb/view.php?id=3770 for more details.

      (Specify +UVM_NO_RELNOTES to turn off this notice)

[0] Starting FSDB dump
*Verdi* Loading libsscore_vcs202409.so
FSDB Dumper for VCS, Release Verdi_W-2024.09-SP1, Linux x86_64/64bit, 11/30/2024
(C) 1996 - 2024 by Synopsys, Inc.
*Verdi* FSDB WARNING: The FSDB file already exists. Overwriting the FSDB file may crash the programs that are using this file.
*Verdi* : Create FSDB file 'axi4_vip.fsdb'
*Verdi* : Begin traversing the scope (hdl_top), layer (0).
*Verdi* : Enable +all dumping.
*Verdi* : End of traversing.
*Verdi* : Begin traversing the SVA assertions, layer (0).
*Verdi* : End of traversing the SVA assertions.
*Verdi* : Begin traversing the MDAs, layer (0).
*Verdi* : Enable +mda and +packedmda dumping.
*Verdi* : End of traversing the MDAs.
*Verdi* : fsdbDumpon - All FSDB files at 0 ps.
*Verdi* FSDB WARNING: The FSDB file already exists. Overwriting the FSDB file may crash the programs that are using this file.
*Verdi* : Create FSDB file './waves/axi4_stress_test_1.fsdb'
[0] FSDB file set to: ./waves/axi4_stress_test_1.fsdb
UVM_INFO @ 0: reporter [RNTST] Running test axi4_stress_test...
UVM_INFO ../env/axi4_protocol_coverage.sv(19) @ 0: uvm_test_top.env.coverage [axi4_protocol_coverage] Protocol coverage build phase
UVM_INFO ../master/axi4_master_pkg.sv(158) @ 0: uvm_test_top.env.master_agent[0] [axi4_master_agent] Building master agent components
UVM_INFO ../master/axi4_master_pkg.sv(164) @ 0: uvm_test_top.env.master_agent[0] [axi4_master_agent] Master agent mode:  ACTIVE
UVM_INFO ../master/axi4_master_pkg.sv(158) @ 0: uvm_test_top.env.master_agent[1] [axi4_master_agent] Building master agent components
UVM_INFO ../master/axi4_master_pkg.sv(164) @ 0: uvm_test_top.env.master_agent[1] [axi4_master_agent] Master agent mode:  ACTIVE
UVM_INFO ../master/axi4_master_pkg.sv(158) @ 0: uvm_test_top.env.master_agent[2] [axi4_master_agent] Building master agent components
UVM_INFO ../master/axi4_master_pkg.sv(164) @ 0: uvm_test_top.env.master_agent[2] [axi4_master_agent] Master agent mode:  ACTIVE
UVM_INFO ../master/axi4_master_pkg.sv(158) @ 0: uvm_test_top.env.master_agent[3] [axi4_master_agent] Building master agent components
UVM_INFO ../master/axi4_master_pkg.sv(164) @ 0: uvm_test_top.env.master_agent[3] [axi4_master_agent] Master agent mode:  ACTIVE
UVM_INFO ../master/axi4_master_pkg.sv(158) @ 0: uvm_test_top.env.master_agent[4] [axi4_master_agent] Building master agent components
UVM_INFO ../master/axi4_master_pkg.sv(164) @ 0: uvm_test_top.env.master_agent[4] [axi4_master_agent] Master agent mode:  ACTIVE
UVM_INFO ../master/axi4_master_pkg.sv(158) @ 0: uvm_test_top.env.master_agent[5] [axi4_master_agent] Building master agent components
UVM_INFO ../master/axi4_master_pkg.sv(164) @ 0: uvm_test_top.env.master_agent[5] [axi4_master_agent] Master agent mode:  ACTIVE
UVM_INFO ../master/axi4_master_pkg.sv(158) @ 0: uvm_test_top.env.master_agent[6] [axi4_master_agent] Building master agent components
UVM_INFO ../master/axi4_master_pkg.sv(164) @ 0: uvm_test_top.env.master_agent[6] [axi4_master_agent] Master agent mode:  ACTIVE
UVM_INFO ../master/axi4_master_pkg.sv(158) @ 0: uvm_test_top.env.master_agent[7] [axi4_master_agent] Building master agent components
UVM_INFO ../master/axi4_master_pkg.sv(164) @ 0: uvm_test_top.env.master_agent[7] [axi4_master_agent] Master agent mode:  ACTIVE
UVM_INFO ../master/axi4_master_pkg.sv(158) @ 0: uvm_test_top.env.master_agent[8] [axi4_master_agent] Building master agent components
UVM_INFO ../master/axi4_master_pkg.sv(164) @ 0: uvm_test_top.env.master_agent[8] [axi4_master_agent] Master agent mode:  ACTIVE
UVM_INFO ../slave/axi4_slave_pkg.sv(108) @ 0: uvm_test_top.env.slave_agent[0] [axi4_slave_agent] Building slave agent components
UVM_INFO ../slave/axi4_slave_pkg.sv(114) @ 0: uvm_test_top.env.slave_agent[0] [axi4_slave_agent] Slave agent mode:  ACTIVE
UVM_INFO ../slave/axi4_slave_pkg.sv(108) @ 0: uvm_test_top.env.slave_agent[1] [axi4_slave_agent] Building slave agent components
UVM_INFO ../slave/axi4_slave_pkg.sv(114) @ 0: uvm_test_top.env.slave_agent[1] [axi4_slave_agent] Slave agent mode:  ACTIVE
UVM_INFO ../slave/axi4_slave_pkg.sv(108) @ 0: uvm_test_top.env.slave_agent[2] [axi4_slave_agent] Building slave agent components
UVM_INFO ../slave/axi4_slave_pkg.sv(114) @ 0: uvm_test_top.env.slave_agent[2] [axi4_slave_agent] Slave agent mode:  ACTIVE
UVM_INFO ../slave/axi4_slave_pkg.sv(108) @ 0: uvm_test_top.env.slave_agent[3] [axi4_slave_agent] Building slave agent components
UVM_INFO ../slave/axi4_slave_pkg.sv(114) @ 0: uvm_test_top.env.slave_agent[3] [axi4_slave_agent] Slave agent mode:  ACTIVE
UVM_INFO ../slave/axi4_slave_pkg.sv(108) @ 0: uvm_test_top.env.slave_agent[4] [axi4_slave_agent] Building slave agent components
UVM_INFO ../slave/axi4_slave_pkg.sv(114) @ 0: uvm_test_top.env.slave_agent[4] [axi4_slave_agent] Slave agent mode:  ACTIVE
UVM_INFO ../slave/axi4_slave_pkg.sv(108) @ 0: uvm_test_top.env.slave_agent[5] [axi4_slave_agent] Building slave agent components
UVM_INFO ../slave/axi4_slave_pkg.sv(114) @ 0: uvm_test_top.env.slave_agent[5] [axi4_slave_agent] Slave agent mode:  ACTIVE
UVM_INFO ../slave/axi4_slave_pkg.sv(108) @ 0: uvm_test_top.env.slave_agent[6] [axi4_slave_agent] Building slave agent components
UVM_INFO ../slave/axi4_slave_pkg.sv(114) @ 0: uvm_test_top.env.slave_agent[6] [axi4_slave_agent] Slave agent mode:  ACTIVE
UVM_INFO ../slave/axi4_slave_pkg.sv(108) @ 0: uvm_test_top.env.slave_agent[7] [axi4_slave_agent] Building slave agent components
UVM_INFO ../slave/axi4_slave_pkg.sv(114) @ 0: uvm_test_top.env.slave_agent[7] [axi4_slave_agent] Slave agent mode:  ACTIVE
UVM_INFO ../slave/axi4_slave_pkg.sv(108) @ 0: uvm_test_top.env.slave_agent[8] [axi4_slave_agent] Building slave agent components
UVM_INFO ../slave/axi4_slave_pkg.sv(114) @ 0: uvm_test_top.env.slave_agent[8] [axi4_slave_agent] Slave agent mode:  ACTIVE
UVM_INFO ../master/axi4_master_pkg.sv(178) @ 0: uvm_test_top.env.master_agent[0] [axi4_master_agent] Connecting master agent components
UVM_INFO ../master/axi4_master_pkg.sv(178) @ 0: uvm_test_top.env.master_agent[1] [axi4_master_agent] Connecting master agent components
UVM_INFO ../master/axi4_master_pkg.sv(178) @ 0: uvm_test_top.env.master_agent[2] [axi4_master_agent] Connecting master agent components
UVM_INFO ../master/axi4_master_pkg.sv(178) @ 0: uvm_test_top.env.master_agent[3] [axi4_master_agent] Connecting master agent components
UVM_INFO ../master/axi4_master_pkg.sv(178) @ 0: uvm_test_top.env.master_agent[4] [axi4_master_agent] Connecting master agent components
UVM_INFO ../master/axi4_master_pkg.sv(178) @ 0: uvm_test_top.env.master_agent[5] [axi4_master_agent] Connecting master agent components
UVM_INFO ../master/axi4_master_pkg.sv(178) @ 0: uvm_test_top.env.master_agent[6] [axi4_master_agent] Connecting master agent components
UVM_INFO ../master/axi4_master_pkg.sv(178) @ 0: uvm_test_top.env.master_agent[7] [axi4_master_agent] Connecting master agent components
UVM_INFO ../master/axi4_master_pkg.sv(178) @ 0: uvm_test_top.env.master_agent[8] [axi4_master_agent] Connecting master agent components
UVM_INFO ../slave/axi4_slave_pkg.sv(128) @ 0: uvm_test_top.env.slave_agent[0] [axi4_slave_agent] Connecting slave agent components
UVM_INFO ../slave/axi4_slave_pkg.sv(128) @ 0: uvm_test_top.env.slave_agent[1] [axi4_slave_agent] Connecting slave agent components
UVM_INFO ../slave/axi4_slave_pkg.sv(128) @ 0: uvm_test_top.env.slave_agent[2] [axi4_slave_agent] Connecting slave agent components
UVM_INFO ../slave/axi4_slave_pkg.sv(128) @ 0: uvm_test_top.env.slave_agent[3] [axi4_slave_agent] Connecting slave agent components
UVM_INFO ../slave/axi4_slave_pkg.sv(128) @ 0: uvm_test_top.env.slave_agent[4] [axi4_slave_agent] Connecting slave agent components
UVM_INFO ../slave/axi4_slave_pkg.sv(128) @ 0: uvm_test_top.env.slave_agent[5] [axi4_slave_agent] Connecting slave agent components
UVM_INFO ../slave/axi4_slave_pkg.sv(128) @ 0: uvm_test_top.env.slave_agent[6] [axi4_slave_agent] Connecting slave agent components
UVM_INFO ../slave/axi4_slave_pkg.sv(128) @ 0: uvm_test_top.env.slave_agent[7] [axi4_slave_agent] Connecting slave agent components
UVM_INFO ../slave/axi4_slave_pkg.sv(128) @ 0: uvm_test_top.env.slave_agent[8] [axi4_slave_agent] Connecting slave agent components
UVM_INFO /home/eda_tools/synopsys/vcs/W-2024.09-SP1//etc/uvm-1.2/base/uvm_root.svh(589) @ 0: reporter [UVMTOP] UVM testbench topology:
--------------------------------------------------------------------
Name                         Type                        Size  Value
--------------------------------------------------------------------
uvm_test_top                 axi4_stress_test            -     @340 
  env                        axi4_env                    -     @376 
    coverage                 axi4_protocol_coverage      -     @717 
    master_agent[0]          axi4_master_agent           -     @409 
      driver                 axi4_master_driver          -     @871 
        rsp_port             uvm_analysis_port           -     @890 
        seq_item_port        uvm_seq_item_pull_port      -     @880 
      monitor                axi4_master_monitor         -     @900 
        item_collected_port  uvm_analysis_port           -     @909 
      sequencer              axi4_master_sequencer       -     @734 
        rsp_export           uvm_analysis_export         -     @743 
        seq_item_export      uvm_seq_item_pull_imp       -     @861 
        arbitration_queue    array                       0     -    
        lock_queue           array                       0     -    
        num_last_reqs        integral                    32    'd1  
        num_last_rsps        integral                    32    'd1  
    master_agent[1]          axi4_master_agent           -     @418 
      driver                 axi4_master_driver          -     @1062
        rsp_port             uvm_analysis_port           -     @1081
        seq_item_port        uvm_seq_item_pull_port      -     @1071
      monitor                axi4_master_monitor         -     @1091
        item_collected_port  uvm_analysis_port           -     @1100
      sequencer              axi4_master_sequencer       -     @925 
        rsp_export           uvm_analysis_export         -     @934 
        seq_item_export      uvm_seq_item_pull_imp       -     @1052
        arbitration_queue    array                       0     -    
        lock_queue           array                       0     -    
        num_last_reqs        integral                    32    'd1  
        num_last_rsps        integral                    32    'd1  
    master_agent[2]          axi4_master_agent           -     @427 
      driver                 axi4_master_driver          -     @1253
        rsp_port             uvm_analysis_port           -     @1272
        seq_item_port        uvm_seq_item_pull_port      -     @1262
      monitor                axi4_master_monitor         -     @1282
        item_collected_port  uvm_analysis_port           -     @1291
      sequencer              axi4_master_sequencer       -     @1116
        rsp_export           uvm_analysis_export         -     @1125
        seq_item_export      uvm_seq_item_pull_imp       -     @1243
        arbitration_queue    array                       0     -    
        lock_queue           array                       0     -    
        num_last_reqs        integral                    32    'd1  
        num_last_rsps        integral                    32    'd1  
    master_agent[3]          axi4_master_agent           -     @436 
      driver                 axi4_master_driver          -     @1444
        rsp_port             uvm_analysis_port           -     @1463
        seq_item_port        uvm_seq_item_pull_port      -     @1453
      monitor                axi4_master_monitor         -     @1473
        item_collected_port  uvm_analysis_port           -     @1482
      sequencer              axi4_master_sequencer       -     @1307
        rsp_export           uvm_analysis_export         -     @1316
        seq_item_export      uvm_seq_item_pull_imp       -     @1434
        arbitration_queue    array                       0     -    
        lock_queue           array                       0     -    
        num_last_reqs        integral                    32    'd1  
        num_last_rsps        integral                    32    'd1  
    master_agent[4]          axi4_master_agent           -     @445 
      driver                 axi4_master_driver          -     @1635
        rsp_port             uvm_analysis_port           -     @1654
        seq_item_port        uvm_seq_item_pull_port      -     @1644
      monitor                axi4_master_monitor         -     @1664
        item_collected_port  uvm_analysis_port           -     @1673
      sequencer              axi4_master_sequencer       -     @1498
        rsp_export           uvm_analysis_export         -     @1507
        seq_item_export      uvm_seq_item_pull_imp       -     @1625
        arbitration_queue    array                       0     -    
        lock_queue           array                       0     -    
        num_last_reqs        integral                    32    'd1  
        num_last_rsps        integral                    32    'd1  
    master_agent[5]          axi4_master_agent           -     @454 
      driver                 axi4_master_driver          -     @1826
        rsp_port             uvm_analysis_port           -     @1845
        seq_item_port        uvm_seq_item_pull_port      -     @1835
      monitor                axi4_master_monitor         -     @1855
        item_collected_port  uvm_analysis_port           -     @1864
      sequencer              axi4_master_sequencer       -     @1689
        rsp_export           uvm_analysis_export         -     @1698
        seq_item_export      uvm_seq_item_pull_imp       -     @1816
        arbitration_queue    array                       0     -    
        lock_queue           array                       0     -    
        num_last_reqs        integral                    32    'd1  
        num_last_rsps        integral                    32    'd1  
    master_agent[6]          axi4_master_agent           -     @463 
      driver                 axi4_master_driver          -     @2017
        rsp_port             uvm_analysis_port           -     @2036
        seq_item_port        uvm_seq_item_pull_port      -     @2026
      monitor                axi4_master_monitor         -     @2046
        item_collected_port  uvm_analysis_port           -     @2055
      sequencer              axi4_master_sequencer       -     @1880
        rsp_export           uvm_analysis_export         -     @1889
        seq_item_export      uvm_seq_item_pull_imp       -     @2007
        arbitration_queue    array                       0     -    
        lock_queue           array                       0     -    
        num_last_reqs        integral                    32    'd1  
        num_last_rsps        integral                    32    'd1  
    master_agent[7]          axi4_master_agent           -     @472 
      driver                 axi4_master_driver          -     @2208
        rsp_port             uvm_analysis_port           -     @2227
        seq_item_port        uvm_seq_item_pull_port      -     @2217
      monitor                axi4_master_monitor         -     @2237
        item_collected_port  uvm_analysis_port           -     @2246
      sequencer              axi4_master_sequencer       -     @2071
        rsp_export           uvm_analysis_export         -     @2080
        seq_item_export      uvm_seq_item_pull_imp       -     @2198
        arbitration_queue    array                       0     -    
        lock_queue           array                       0     -    
        num_last_reqs        integral                    32    'd1  
        num_last_rsps        integral                    32    'd1  
    master_agent[8]          axi4_master_agent           -     @481 
      driver                 axi4_master_driver          -     @2399
        rsp_port             uvm_analysis_port           -     @2418
        seq_item_port        uvm_seq_item_pull_port      -     @2408
      monitor                axi4_master_monitor         -     @2428
        item_collected_port  uvm_analysis_port           -     @2437
      sequencer              axi4_master_sequencer       -     @2262
        rsp_export           uvm_analysis_export         -     @2271
        seq_item_export      uvm_seq_item_pull_imp       -     @2389
        arbitration_queue    array                       0     -    
        lock_queue           array                       0     -    
        num_last_reqs        integral                    32    'd1  
        num_last_rsps        integral                    32    'd1  
    scoreboard               axi4_scoreboard             -     @708 
      master_fifo[0]         uvm_tlm_analysis_fifo #(T)  -     @2447
        analysis_export      uvm_analysis_imp            -     @2496
        get_ap               uvm_analysis_port           -     @2486
        get_peek_export      uvm_get_peek_imp            -     @2466
        put_ap               uvm_analysis_port           -     @2476
        put_export           uvm_put_imp                 -     @2456
      master_fifo[1]         uvm_tlm_analysis_fifo #(T)  -     @2506
        analysis_export      uvm_analysis_imp            -     @2555
        get_ap               uvm_analysis_port           -     @2545
        get_peek_export      uvm_get_peek_imp            -     @2525
        put_ap               uvm_analysis_port           -     @2535
        put_export           uvm_put_imp                 -     @2515
      master_fifo[2]         uvm_tlm_analysis_fifo #(T)  -     @2565
        analysis_export      uvm_analysis_imp            -     @2614
        get_ap               uvm_analysis_port           -     @2604
        get_peek_export      uvm_get_peek_imp            -     @2584
        put_ap               uvm_analysis_port           -     @2594
        put_export           uvm_put_imp                 -     @2574
      master_fifo[3]         uvm_tlm_analysis_fifo #(T)  -     @2624
        analysis_export      uvm_analysis_imp            -     @2673
        get_ap               uvm_analysis_port           -     @2663
        get_peek_export      uvm_get_peek_imp            -     @2643
        put_ap               uvm_analysis_port           -     @2653
        put_export           uvm_put_imp                 -     @2633
      master_fifo[4]         uvm_tlm_analysis_fifo #(T)  -     @2683
        analysis_export      uvm_analysis_imp            -     @2732
        get_ap               uvm_analysis_port           -     @2722
        get_peek_export      uvm_get_peek_imp            -     @2702
        put_ap               uvm_analysis_port           -     @2712
        put_export           uvm_put_imp                 -     @2692
      master_fifo[5]         uvm_tlm_analysis_fifo #(T)  -     @2742
        analysis_export      uvm_analysis_imp            -     @2791
        get_ap               uvm_analysis_port           -     @2781
        get_peek_export      uvm_get_peek_imp            -     @2761
        put_ap               uvm_analysis_port           -     @2771
        put_export           uvm_put_imp                 -     @2751
      master_fifo[6]         uvm_tlm_analysis_fifo #(T)  -     @2801
        analysis_export      uvm_analysis_imp            -     @2850
        get_ap               uvm_analysis_port           -     @2840
        get_peek_export      uvm_get_peek_imp            -     @2820
        put_ap               uvm_analysis_port           -     @2830
        put_export           uvm_put_imp                 -     @2810
      master_fifo[7]         uvm_tlm_analysis_fifo #(T)  -     @2860
        analysis_export      uvm_analysis_imp            -     @2909
        get_ap               uvm_analysis_port           -     @2899
        get_peek_export      uvm_get_peek_imp            -     @2879
        put_ap               uvm_analysis_port           -     @2889
        put_export           uvm_put_imp                 -     @2869
      master_fifo[8]         uvm_tlm_analysis_fifo #(T)  -     @2919
        analysis_export      uvm_analysis_imp            -     @2968
        get_ap               uvm_analysis_port           -     @2958
        get_peek_export      uvm_get_peek_imp            -     @2938
        put_ap               uvm_analysis_port           -     @2948
        put_export           uvm_put_imp                 -     @2928
      slave_fifo[0]          uvm_tlm_analysis_fifo #(T)  -     @2978
        analysis_export      uvm_analysis_imp            -     @3027
        get_ap               uvm_analysis_port           -     @3017
        get_peek_export      uvm_get_peek_imp            -     @2997
        put_ap               uvm_analysis_port           -     @3007
        put_export           uvm_put_imp                 -     @2987
      slave_fifo[1]          uvm_tlm_analysis_fifo #(T)  -     @3037
        analysis_export      uvm_analysis_imp            -     @3086
        get_ap               uvm_analysis_port           -     @3076
        get_peek_export      uvm_get_peek_imp            -     @3056
        put_ap               uvm_analysis_port           -     @3066
        put_export           uvm_put_imp                 -     @3046
      slave_fifo[2]          uvm_tlm_analysis_fifo #(T)  -     @3096
        analysis_export      uvm_analysis_imp            -     @3145
        get_ap               uvm_analysis_port           -     @3135
        get_peek_export      uvm_get_peek_imp            -     @3115
        put_ap               uvm_analysis_port           -     @3125
        put_export           uvm_put_imp                 -     @3105
      slave_fifo[3]          uvm_tlm_analysis_fifo #(T)  -     @3155
        analysis_export      uvm_analysis_imp            -     @3204
        get_ap               uvm_analysis_port           -     @3194
        get_peek_export      uvm_get_peek_imp            -     @3174
        put_ap               uvm_analysis_port           -     @3184
        put_export           uvm_put_imp                 -     @3164
      slave_fifo[4]          uvm_tlm_analysis_fifo #(T)  -     @3214
        analysis_export      uvm_analysis_imp            -     @3263
        get_ap               uvm_analysis_port           -     @3253
        get_peek_export      uvm_get_peek_imp            -     @3233
        put_ap               uvm_analysis_port           -     @3243
        put_export           uvm_put_imp                 -     @3223
      slave_fifo[5]          uvm_tlm_analysis_fifo #(T)  -     @3273
        analysis_export      uvm_analysis_imp            -     @3322
        get_ap               uvm_analysis_port           -     @3312
        get_peek_export      uvm_get_peek_imp            -     @3292
        put_ap               uvm_analysis_port           -     @3302
        put_export           uvm_put_imp                 -     @3282
      slave_fifo[6]          uvm_tlm_analysis_fifo #(T)  -     @3332
        analysis_export      uvm_analysis_imp            -     @3381
        get_ap               uvm_analysis_port           -     @3371
        get_peek_export      uvm_get_peek_imp            -     @3351
        put_ap               uvm_analysis_port           -     @3361
        put_export           uvm_put_imp                 -     @3341
      slave_fifo[7]          uvm_tlm_analysis_fifo #(T)  -     @3391
        analysis_export      uvm_analysis_imp            -     @3440
        get_ap               uvm_analysis_port           -     @3430
        get_peek_export      uvm_get_peek_imp            -     @3410
        put_ap               uvm_analysis_port           -     @3420
        put_export           uvm_put_imp                 -     @3400
      slave_fifo[8]          uvm_tlm_analysis_fifo #(T)  -     @3450
        analysis_export      uvm_analysis_imp            -     @3499
        get_ap               uvm_analysis_port           -     @3489
        get_peek_export      uvm_get_peek_imp            -     @3469
        put_ap               uvm_analysis_port           -     @3479
        put_export           uvm_put_imp                 -     @3459
    slave_agent[0]           axi4_slave_agent            -     @490 
      driver                 axi4_slave_driver           -     @3652
        rsp_port             uvm_analysis_port           -     @3671
        seq_item_port        uvm_seq_item_pull_port      -     @3661
      monitor                axi4_slave_monitor          -     @3681
        item_collected_port  uvm_analysis_port           -     @3690
      sequencer              axi4_slave_sequencer        -     @3515
        rsp_export           uvm_analysis_export         -     @3524
        seq_item_export      uvm_seq_item_pull_imp       -     @3642
        arbitration_queue    array                       0     -    
        lock_queue           array                       0     -    
        num_last_reqs        integral                    32    'd1  
        num_last_rsps        integral                    32    'd1  
    slave_agent[1]           axi4_slave_agent            -     @499 
      driver                 axi4_slave_driver           -     @3843
        rsp_port             uvm_analysis_port           -     @3862
        seq_item_port        uvm_seq_item_pull_port      -     @3852
      monitor                axi4_slave_monitor          -     @3872
        item_collected_port  uvm_analysis_port           -     @3881
      sequencer              axi4_slave_sequencer        -     @3706
        rsp_export           uvm_analysis_export         -     @3715
        seq_item_export      uvm_seq_item_pull_imp       -     @3833
        arbitration_queue    array                       0     -    
        lock_queue           array                       0     -    
        num_last_reqs        integral                    32    'd1  
        num_last_rsps        integral                    32    'd1  
    slave_agent[2]           axi4_slave_agent            -     @508 
      driver                 axi4_slave_driver           -     @4034
        rsp_port             uvm_analysis_port           -     @4053
        seq_item_port        uvm_seq_item_pull_port      -     @4043
      monitor                axi4_slave_monitor          -     @4063
        item_collected_port  uvm_analysis_port           -     @4072
      sequencer              axi4_slave_sequencer        -     @3897
        rsp_export           uvm_analysis_export         -     @3906
        seq_item_export      uvm_seq_item_pull_imp       -     @4024
        arbitration_queue    array                       0     -    
        lock_queue           array                       0     -    
        num_last_reqs        integral                    32    'd1  
        num_last_rsps        integral                    32    'd1  
    slave_agent[3]           axi4_slave_agent            -     @517 
      driver                 axi4_slave_driver           -     @4225
        rsp_port             uvm_analysis_port           -     @4244
        seq_item_port        uvm_seq_item_pull_port      -     @4234
      monitor                axi4_slave_monitor          -     @4254
        item_collected_port  uvm_analysis_port           -     @4263
      sequencer              axi4_slave_sequencer        -     @4088
        rsp_export           uvm_analysis_export         -     @4097
        seq_item_export      uvm_seq_item_pull_imp       -     @4215
        arbitration_queue    array                       0     -    
        lock_queue           array                       0     -    
        num_last_reqs        integral                    32    'd1  
        num_last_rsps        integral                    32    'd1  
    slave_agent[4]           axi4_slave_agent            -     @526 
      driver                 axi4_slave_driver           -     @4416
        rsp_port             uvm_analysis_port           -     @4435
        seq_item_port        uvm_seq_item_pull_port      -     @4425
      monitor                axi4_slave_monitor          -     @4445
        item_collected_port  uvm_analysis_port           -     @4454
      sequencer              axi4_slave_sequencer        -     @4279
        rsp_export           uvm_analysis_export         -     @4288
        seq_item_export      uvm_seq_item_pull_imp       -     @4406
        arbitration_queue    array                       0     -    
        lock_queue           array                       0     -    
        num_last_reqs        integral                    32    'd1  
        num_last_rsps        integral                    32    'd1  
    slave_agent[5]           axi4_slave_agent            -     @535 
      driver                 axi4_slave_driver           -     @4607
        rsp_port             uvm_analysis_port           -     @4626
        seq_item_port        uvm_seq_item_pull_port      -     @4616
      monitor                axi4_slave_monitor          -     @4636
        item_collected_port  uvm_analysis_port           -     @4645
      sequencer              axi4_slave_sequencer        -     @4470
        rsp_export           uvm_analysis_export         -     @4479
        seq_item_export      uvm_seq_item_pull_imp       -     @4597
        arbitration_queue    array                       0     -    
        lock_queue           array                       0     -    
        num_last_reqs        integral                    32    'd1  
        num_last_rsps        integral                    32    'd1  
    slave_agent[6]           axi4_slave_agent            -     @544 
      driver                 axi4_slave_driver           -     @4798
        rsp_port             uvm_analysis_port           -     @4817
        seq_item_port        uvm_seq_item_pull_port      -     @4807
      monitor                axi4_slave_monitor          -     @4827
        item_collected_port  uvm_analysis_port           -     @4836
      sequencer              axi4_slave_sequencer        -     @4661
        rsp_export           uvm_analysis_export         -     @4670
        seq_item_export      uvm_seq_item_pull_imp       -     @4788
        arbitration_queue    array                       0     -    
        lock_queue           array                       0     -    
        num_last_reqs        integral                    32    'd1  
        num_last_rsps        integral                    32    'd1  
    slave_agent[7]           axi4_slave_agent            -     @553 
      driver                 axi4_slave_driver           -     @4989
        rsp_port             uvm_analysis_port           -     @5008
        seq_item_port        uvm_seq_item_pull_port      -     @4998
      monitor                axi4_slave_monitor          -     @5018
        item_collected_port  uvm_analysis_port           -     @5027
      sequencer              axi4_slave_sequencer        -     @4852
        rsp_export           uvm_analysis_export         -     @4861
        seq_item_export      uvm_seq_item_pull_imp       -     @4979
        arbitration_queue    array                       0     -    
        lock_queue           array                       0     -    
        num_last_reqs        integral                    32    'd1  
        num_last_rsps        integral                    32    'd1  
    slave_agent[8]           axi4_slave_agent            -     @562 
      driver                 axi4_slave_driver           -     @5180
        rsp_port             uvm_analysis_port           -     @5199
        seq_item_port        uvm_seq_item_pull_port      -     @5189
      monitor                axi4_slave_monitor          -     @5209
        item_collected_port  uvm_analysis_port           -     @5218
      sequencer              axi4_slave_sequencer        -     @5043
        rsp_export           uvm_analysis_export         -     @5052
        seq_item_export      uvm_seq_item_pull_imp       -     @5170
        arbitration_queue    array                       0     -    
        lock_queue           array                       0     -    
        num_last_reqs        integral                    32    'd1  
        num_last_rsps        integral                    32    'd1  
    v_seqr                   axi4_virtual_sequencer      -     @571 
      rsp_export             uvm_analysis_export         -     @580 
      seq_item_export        uvm_seq_item_pull_imp       -     @698 
      arbitration_queue      array                       0     -    
      lock_queue             array                       0     -    
      num_last_reqs          integral                    32    'd1  
      num_last_rsps          integral                    32    'd1  
--------------------------------------------------------------------

UVM_INFO ../master/axi4_master_pkg.sv(87) @ 0: uvm_test_top.env.master_agent[0].driver [axi4_master_driver] Starting master driver run_phase
UVM_INFO ../master/axi4_master_pkg.sv(132) @ 0: uvm_test_top.env.master_agent[0].monitor [axi4_master_monitor] Starting master monitor run_phase
UVM_INFO ../master/axi4_master_pkg.sv(133) @ 0: uvm_test_top.env.master_agent[0].monitor [axi4_master_monitor] Monitoring AXI4 master interface for transactions
UVM_INFO ../master/axi4_master_pkg.sv(87) @ 0: uvm_test_top.env.master_agent[1].driver [axi4_master_driver] Starting master driver run_phase
UVM_INFO ../master/axi4_master_pkg.sv(132) @ 0: uvm_test_top.env.master_agent[1].monitor [axi4_master_monitor] Starting master monitor run_phase
UVM_INFO ../master/axi4_master_pkg.sv(133) @ 0: uvm_test_top.env.master_agent[1].monitor [axi4_master_monitor] Monitoring AXI4 master interface for transactions
UVM_INFO ../master/axi4_master_pkg.sv(87) @ 0: uvm_test_top.env.master_agent[2].driver [axi4_master_driver] Starting master driver run_phase
UVM_INFO ../master/axi4_master_pkg.sv(132) @ 0: uvm_test_top.env.master_agent[2].monitor [axi4_master_monitor] Starting master monitor run_phase
UVM_INFO ../master/axi4_master_pkg.sv(133) @ 0: uvm_test_top.env.master_agent[2].monitor [axi4_master_monitor] Monitoring AXI4 master interface for transactions
UVM_INFO ../master/axi4_master_pkg.sv(87) @ 0: uvm_test_top.env.master_agent[3].driver [axi4_master_driver] Starting master driver run_phase
UVM_INFO ../master/axi4_master_pkg.sv(132) @ 0: uvm_test_top.env.master_agent[3].monitor [axi4_master_monitor] Starting master monitor run_phase
UVM_INFO ../master/axi4_master_pkg.sv(133) @ 0: uvm_test_top.env.master_agent[3].monitor [axi4_master_monitor] Monitoring AXI4 master interface for transactions
UVM_INFO ../master/axi4_master_pkg.sv(87) @ 0: uvm_test_top.env.master_agent[4].driver [axi4_master_driver] Starting master driver run_phase
UVM_INFO ../master/axi4_master_pkg.sv(132) @ 0: uvm_test_top.env.master_agent[4].monitor [axi4_master_monitor] Starting master monitor run_phase
UVM_INFO ../master/axi4_master_pkg.sv(133) @ 0: uvm_test_top.env.master_agent[4].monitor [axi4_master_monitor] Monitoring AXI4 master interface for transactions
UVM_INFO ../master/axi4_master_pkg.sv(87) @ 0: uvm_test_top.env.master_agent[5].driver [axi4_master_driver] Starting master driver run_phase
UVM_INFO ../master/axi4_master_pkg.sv(132) @ 0: uvm_test_top.env.master_agent[5].monitor [axi4_master_monitor] Starting master monitor run_phase
UVM_INFO ../master/axi4_master_pkg.sv(133) @ 0: uvm_test_top.env.master_agent[5].monitor [axi4_master_monitor] Monitoring AXI4 master interface for transactions
UVM_INFO ../master/axi4_master_pkg.sv(87) @ 0: uvm_test_top.env.master_agent[6].driver [axi4_master_driver] Starting master driver run_phase
UVM_INFO ../master/axi4_master_pkg.sv(132) @ 0: uvm_test_top.env.master_agent[6].monitor [axi4_master_monitor] Starting master monitor run_phase
UVM_INFO ../master/axi4_master_pkg.sv(133) @ 0: uvm_test_top.env.master_agent[6].monitor [axi4_master_monitor] Monitoring AXI4 master interface for transactions
UVM_INFO ../master/axi4_master_pkg.sv(87) @ 0: uvm_test_top.env.master_agent[7].driver [axi4_master_driver] Starting master driver run_phase
UVM_INFO ../master/axi4_master_pkg.sv(132) @ 0: uvm_test_top.env.master_agent[7].monitor [axi4_master_monitor] Starting master monitor run_phase
UVM_INFO ../master/axi4_master_pkg.sv(133) @ 0: uvm_test_top.env.master_agent[7].monitor [axi4_master_monitor] Monitoring AXI4 master interface for transactions
UVM_INFO ../master/axi4_master_pkg.sv(87) @ 0: uvm_test_top.env.master_agent[8].driver [axi4_master_driver] Starting master driver run_phase
UVM_INFO ../master/axi4_master_pkg.sv(132) @ 0: uvm_test_top.env.master_agent[8].monitor [axi4_master_monitor] Starting master monitor run_phase
UVM_INFO ../master/axi4_master_pkg.sv(133) @ 0: uvm_test_top.env.master_agent[8].monitor [axi4_master_monitor] Monitoring AXI4 master interface for transactions
UVM_INFO ../slave/axi4_slave_pkg.sv(82) @ 0: uvm_test_top.env.slave_agent[0].monitor [axi4_slave_monitor] Starting slave monitor run_phase
UVM_INFO ../slave/axi4_slave_pkg.sv(83) @ 0: uvm_test_top.env.slave_agent[0].monitor [axi4_slave_monitor] Monitoring AXI4 slave interface for transactions
UVM_INFO ../slave/axi4_slave_pkg.sv(82) @ 0: uvm_test_top.env.slave_agent[1].monitor [axi4_slave_monitor] Starting slave monitor run_phase
UVM_INFO ../slave/axi4_slave_pkg.sv(83) @ 0: uvm_test_top.env.slave_agent[1].monitor [axi4_slave_monitor] Monitoring AXI4 slave interface for transactions
UVM_INFO ../slave/axi4_slave_pkg.sv(82) @ 0: uvm_test_top.env.slave_agent[2].monitor [axi4_slave_monitor] Starting slave monitor run_phase
UVM_INFO ../slave/axi4_slave_pkg.sv(83) @ 0: uvm_test_top.env.slave_agent[2].monitor [axi4_slave_monitor] Monitoring AXI4 slave interface for transactions
UVM_INFO ../slave/axi4_slave_pkg.sv(82) @ 0: uvm_test_top.env.slave_agent[3].monitor [axi4_slave_monitor] Starting slave monitor run_phase
UVM_INFO ../slave/axi4_slave_pkg.sv(83) @ 0: uvm_test_top.env.slave_agent[3].monitor [axi4_slave_monitor] Monitoring AXI4 slave interface for transactions
UVM_INFO ../slave/axi4_slave_pkg.sv(82) @ 0: uvm_test_top.env.slave_agent[4].monitor [axi4_slave_monitor] Starting slave monitor run_phase
UVM_INFO ../slave/axi4_slave_pkg.sv(83) @ 0: uvm_test_top.env.slave_agent[4].monitor [axi4_slave_monitor] Monitoring AXI4 slave interface for transactions
UVM_INFO ../slave/axi4_slave_pkg.sv(82) @ 0: uvm_test_top.env.slave_agent[5].monitor [axi4_slave_monitor] Starting slave monitor run_phase
UVM_INFO ../slave/axi4_slave_pkg.sv(83) @ 0: uvm_test_top.env.slave_agent[5].monitor [axi4_slave_monitor] Monitoring AXI4 slave interface for transactions
UVM_INFO ../slave/axi4_slave_pkg.sv(82) @ 0: uvm_test_top.env.slave_agent[6].monitor [axi4_slave_monitor] Starting slave monitor run_phase
UVM_INFO ../slave/axi4_slave_pkg.sv(83) @ 0: uvm_test_top.env.slave_agent[6].monitor [axi4_slave_monitor] Monitoring AXI4 slave interface for transactions
UVM_INFO ../slave/axi4_slave_pkg.sv(82) @ 0: uvm_test_top.env.slave_agent[7].monitor [axi4_slave_monitor] Starting slave monitor run_phase
UVM_INFO ../slave/axi4_slave_pkg.sv(83) @ 0: uvm_test_top.env.slave_agent[7].monitor [axi4_slave_monitor] Monitoring AXI4 slave interface for transactions
UVM_INFO ../slave/axi4_slave_pkg.sv(82) @ 0: uvm_test_top.env.slave_agent[8].monitor [axi4_slave_monitor] Starting slave monitor run_phase
UVM_INFO ../slave/axi4_slave_pkg.sv(83) @ 0: uvm_test_top.env.slave_agent[8].monitor [axi4_slave_monitor] Monitoring AXI4 slave interface for transactions
UVM_INFO ../test/axi4_stress_test.sv(22) @ 0: uvm_test_top [axi4_stress_test] Starting stress test
UVM_INFO ../virtual_seq/axi4_virtual_stress_seq.sv(24) @ 0: uvm_test_top.env.v_seqr@@stress_seq [axi4_virtual_stress_seq] Starting virtual stress sequence
UVM_INFO ../master/axi4_master_pkg.sv(92) @ 0: uvm_test_top.env.master_agent[8].driver [axi4_master_driver] Got WRITE transaction - addr=0xdabeab6a, len=239, size=7, burst=2
UVM_INFO ../master/axi4_master_pkg.sv(92) @ 0: uvm_test_top.env.master_agent[7].driver [axi4_master_driver] Got READ transaction - addr=0xb0c9ded9, len=227, size=1, burst=3
UVM_INFO ../master/axi4_master_pkg.sv(92) @ 0: uvm_test_top.env.master_agent[6].driver [axi4_master_driver] Got READ transaction - addr=0x76f1ec4e, len=73, size=4, burst=3
UVM_INFO ../master/axi4_master_pkg.sv(92) @ 0: uvm_test_top.env.master_agent[5].driver [axi4_master_driver] Got READ transaction - addr=0x259d3794, len=96, size=0, burst=3
UVM_INFO ../master/axi4_master_pkg.sv(92) @ 0: uvm_test_top.env.master_agent[4].driver [axi4_master_driver] Got WRITE transaction - addr=0xdbdfe509, len=4, size=4, burst=1
UVM_INFO ../master/axi4_master_pkg.sv(92) @ 0: uvm_test_top.env.master_agent[3].driver [axi4_master_driver] Got READ transaction - addr=0xe87544a6, len=162, size=4, burst=1
UVM_INFO ../master/axi4_master_pkg.sv(92) @ 0: uvm_test_top.env.master_agent[2].driver [axi4_master_driver] Got WRITE transaction - addr=0x1113c2b7, len=179, size=5, burst=2
UVM_INFO ../master/axi4_master_pkg.sv(92) @ 0: uvm_test_top.env.master_agent[1].driver [axi4_master_driver] Got READ transaction - addr=0x86e1e756, len=39, size=3, burst=3
UVM_INFO ../master/axi4_master_pkg.sv(92) @ 0: uvm_test_top.env.master_agent[0].driver [axi4_master_driver] Got READ transaction - addr=0x201216dd, len=53, size=0, burst=3
*Verdi* : Begin traversing the scope (hdl_top.dut), layer (0).
*Verdi* : Enable +all dumping.
*Verdi* : End of traversing.
[1000] Added DUT internal signals to FSDB dump
UVM_INFO ../master/axi4_master_pkg.sv(92) @ 100000: uvm_test_top.env.master_agent[0].driver [axi4_master_driver] Got READ transaction - addr=0xb2ad560e, len=150, size=3, burst=3
UVM_INFO ../master/axi4_master_pkg.sv(92) @ 100000: uvm_test_top.env.master_agent[1].driver [axi4_master_driver] Got READ transaction - addr=0x77da7e66, len=148, size=3, burst=2
UVM_INFO ../master/axi4_master_pkg.sv(92) @ 100000: uvm_test_top.env.master_agent[2].driver [axi4_master_driver] Got READ transaction - addr=0x90d67c96, len=28, size=4, burst=3
UVM_INFO ../master/axi4_master_pkg.sv(92) @ 100000: uvm_test_top.env.master_agent[3].driver [axi4_master_driver] Got WRITE transaction - addr=0xa22aee96, len=69, size=4, burst=2
UVM_INFO ../master/axi4_master_pkg.sv(92) @ 100000: uvm_test_top.env.master_agent[4].driver [axi4_master_driver] Got WRITE transaction - addr=0x94b6a20c, len=46, size=1, burst=2
UVM_INFO ../master/axi4_master_pkg.sv(92) @ 100000: uvm_test_top.env.master_agent[5].driver [axi4_master_driver] Got WRITE transaction - addr=0xbfba6ce2, len=246, size=4, burst=0
UVM_INFO ../master/axi4_master_pkg.sv(92) @ 100000: uvm_test_top.env.master_agent[6].driver [axi4_master_driver] Got WRITE transaction - addr=0xd14a64ca, len=76, size=4, burst=2
UVM_INFO ../master/axi4_master_pkg.sv(92) @ 100000: uvm_test_top.env.master_agent[7].driver [axi4_master_driver] Got WRITE transaction - addr=0xe83ea380, len=219, size=3, burst=3
UVM_INFO ../master/axi4_master_pkg.sv(92) @ 100000: uvm_test_top.env.master_agent[8].driver [axi4_master_driver] Got READ transaction - addr=0xe34b100e, len=112, size=5, burst=0
UVM_INFO ../master/axi4_master_pkg.sv(92) @ 200000: uvm_test_top.env.master_agent[8].driver [axi4_master_driver] Got WRITE transaction - addr=0xb2b7045f, len=177, size=0, burst=1
UVM_INFO ../master/axi4_master_pkg.sv(92) @ 200000: uvm_test_top.env.master_agent[7].driver [axi4_master_driver] Got WRITE transaction - addr=0x5ac624ac, len=95, size=1, burst=2
UVM_INFO ../master/axi4_master_pkg.sv(92) @ 200000: uvm_test_top.env.master_agent[6].driver [axi4_master_driver] Got WRITE transaction - addr=0xe28c4aaf, len=234, size=7, burst=3
UVM_INFO ../master/axi4_master_pkg.sv(92) @ 200000: uvm_test_top.env.master_agent[5].driver [axi4_master_driver] Got WRITE transaction - addr=0x7ffb20b7, len=235, size=1, burst=3
UVM_INFO ../master/axi4_master_pkg.sv(92) @ 200000: uvm_test_top.env.master_agent[4].driver [axi4_master_driver] Got READ transaction - addr=0xa4de62dd, len=147, size=0, burst=3
UVM_INFO ../master/axi4_master_pkg.sv(92) @ 200000: uvm_test_top.env.master_agent[3].driver [axi4_master_driver] Got READ transaction - addr=0x56b1c11b, len=209, size=5, burst=3
UVM_INFO ../master/axi4_master_pkg.sv(92) @ 200000: uvm_test_top.env.master_agent[2].driver [axi4_master_driver] Got WRITE transaction - addr=0x87f330fc, len=94, size=2, burst=3
UVM_INFO ../master/axi4_master_pkg.sv(92) @ 200000: uvm_test_top.env.master_agent[1].driver [axi4_master_driver] Got READ transaction - addr=0x5c2262ef, len=75, size=7, burst=2
UVM_INFO ../master/axi4_master_pkg.sv(92) @ 200000: uvm_test_top.env.master_agent[0].driver [axi4_master_driver] Got READ transaction - addr=0xa41b2e17, len=206, size=7, burst=3
UVM_INFO ../master/axi4_master_pkg.sv(92) @ 300000: uvm_test_top.env.master_agent[0].driver [axi4_master_driver] Got READ transaction - addr=0xd33f202f, len=240, size=4, burst=1
UVM_INFO ../master/axi4_master_pkg.sv(92) @ 300000: uvm_test_top.env.master_agent[1].driver [axi4_master_driver] Got WRITE transaction - addr=0x7fdf070f, len=241, size=4, burst=2
UVM_INFO ../master/axi4_master_pkg.sv(92) @ 300000: uvm_test_top.env.master_agent[2].driver [axi4_master_driver] Got READ transaction - addr=0x4828466f, len=218, size=4, burst=2
UVM_INFO ../master/axi4_master_pkg.sv(92) @ 300000: uvm_test_top.env.master_agent[3].driver [axi4_master_driver] Got READ transaction - addr=0x4193e0a6, len=42, size=7, burst=0
UVM_INFO ../master/axi4_master_pkg.sv(92) @ 300000: uvm_test_top.env.master_agent[4].driver [axi4_master_driver] Got READ transaction - addr=0x9359da95, len=26, size=0, burst=0
UVM_INFO ../master/axi4_master_pkg.sv(92) @ 300000: uvm_test_top.env.master_agent[5].driver [axi4_master_driver] Got WRITE transaction - addr=0x11515e51, len=90, size=5, burst=2
UVM_INFO ../master/axi4_master_pkg.sv(92) @ 300000: uvm_test_top.env.master_agent[6].driver [axi4_master_driver] Got WRITE transaction - addr=0x7e83132b, len=142, size=1, burst=0
UVM_INFO ../master/axi4_master_pkg.sv(92) @ 300000: uvm_test_top.env.master_agent[7].driver [axi4_master_driver] Got WRITE transaction - addr=0x1b2a7469, len=158, size=7, burst=3
UVM_INFO ../master/axi4_master_pkg.sv(92) @ 300000: uvm_test_top.env.master_agent[8].driver [axi4_master_driver] Got WRITE transaction - addr=0x9389cc27, len=14, size=1, burst=3
UVM_INFO ../master/axi4_master_pkg.sv(92) @ 400000: uvm_test_top.env.master_agent[8].driver [axi4_master_driver] Got WRITE transaction - addr=0x3ef60577, len=46, size=0, burst=2
UVM_INFO ../master/axi4_master_pkg.sv(92) @ 400000: uvm_test_top.env.master_agent[7].driver [axi4_master_driver] Got READ transaction - addr=0xd5b3a9d2, len=102, size=2, burst=1
UVM_INFO ../master/axi4_master_pkg.sv(92) @ 400000: uvm_test_top.env.master_agent[6].driver [axi4_master_driver] Got WRITE transaction - addr=0x5801edd1, len=155, size=2, burst=3
UVM_INFO ../master/axi4_master_pkg.sv(92) @ 400000: uvm_test_top.env.master_agent[5].driver [axi4_master_driver] Got WRITE transaction - addr=0x42a13fd2, len=232, size=0, burst=2
UVM_INFO ../master/axi4_master_pkg.sv(92) @ 400000: uvm_test_top.env.master_agent[4].driver [axi4_master_driver] Got READ transaction - addr=0xa97779c3, len=239, size=0, burst=1
UVM_INFO ../master/axi4_master_pkg.sv(92) @ 400000: uvm_test_top.env.master_agent[3].driver [axi4_master_driver] Got READ transaction - addr=0x69eea544, len=190, size=1, burst=3
UVM_INFO ../master/axi4_master_pkg.sv(92) @ 400000: uvm_test_top.env.master_agent[2].driver [axi4_master_driver] Got READ transaction - addr=0x85cfe082, len=223, size=0, burst=0
UVM_INFO ../master/axi4_master_pkg.sv(92) @ 400000: uvm_test_top.env.master_agent[1].driver [axi4_master_driver] Got WRITE transaction - addr=0xe3bb8932, len=201, size=6, burst=1
UVM_INFO ../master/axi4_master_pkg.sv(92) @ 400000: uvm_test_top.env.master_agent[0].driver [axi4_master_driver] Got WRITE transaction - addr=0x44f8cd10, len=122, size=2, burst=3
UVM_INFO ../master/axi4_master_pkg.sv(92) @ 500000: uvm_test_top.env.master_agent[0].driver [axi4_master_driver] Got WRITE transaction - addr=0x7405fe7b, len=7, size=2, burst=3
UVM_INFO ../master/axi4_master_pkg.sv(92) @ 500000: uvm_test_top.env.master_agent[1].driver [axi4_master_driver] Got READ transaction - addr=0x46f25427, len=116, size=1, burst=0
UVM_INFO ../master/axi4_master_pkg.sv(92) @ 500000: uvm_test_top.env.master_agent[2].driver [axi4_master_driver] Got READ transaction - addr=0xe974cd24, len=130, size=7, burst=1
UVM_INFO ../master/axi4_master_pkg.sv(92) @ 500000: uvm_test_top.env.master_agent[3].driver [axi4_master_driver] Got WRITE transaction - addr=0x70aed162, len=99, size=5, burst=2
UVM_INFO ../master/axi4_master_pkg.sv(92) @ 500000: uvm_test_top.env.master_agent[4].driver [axi4_master_driver] Got READ transaction - addr=0x1ea245d, len=79, size=0, burst=2
UVM_INFO ../master/axi4_master_pkg.sv(92) @ 500000: uvm_test_top.env.master_agent[5].driver [axi4_master_driver] Got READ transaction - addr=0x72c755e8, len=245, size=0, burst=1
UVM_INFO ../master/axi4_master_pkg.sv(92) @ 500000: uvm_test_top.env.master_agent[6].driver [axi4_master_driver] Got WRITE transaction - addr=0x92ee50ae, len=71, size=0, burst=0
UVM_INFO ../master/axi4_master_pkg.sv(92) @ 500000: uvm_test_top.env.master_agent[7].driver [axi4_master_driver] Got READ transaction - addr=0xfd75fc0c, len=204, size=4, burst=0
UVM_INFO ../master/axi4_master_pkg.sv(92) @ 500000: uvm_test_top.env.master_agent[8].driver [axi4_master_driver] Got WRITE transaction - addr=0x7bb98c93, len=234, size=6, burst=0
UVM_INFO ../master/axi4_master_pkg.sv(92) @ 600000: uvm_test_top.env.master_agent[8].driver [axi4_master_driver] Got READ transaction - addr=0x6113c3e9, len=194, size=2, burst=3
UVM_INFO ../master/axi4_master_pkg.sv(92) @ 600000: uvm_test_top.env.master_agent[7].driver [axi4_master_driver] Got WRITE transaction - addr=0x49e8a3ee, len=209, size=0, burst=3
UVM_INFO ../master/axi4_master_pkg.sv(92) @ 600000: uvm_test_top.env.master_agent[6].driver [axi4_master_driver] Got READ transaction - addr=0x61596bc, len=99, size=0, burst=2
UVM_INFO ../master/axi4_master_pkg.sv(92) @ 600000: uvm_test_top.env.master_agent[5].driver [axi4_master_driver] Got READ transaction - addr=0xc4dd5fbd, len=35, size=6, burst=3
UVM_INFO ../master/axi4_master_pkg.sv(92) @ 600000: uvm_test_top.env.master_agent[4].driver [axi4_master_driver] Got READ transaction - addr=0x1dbbcfe3, len=56, size=5, burst=3
UVM_INFO ../master/axi4_master_pkg.sv(92) @ 600000: uvm_test_top.env.master_agent[3].driver [axi4_master_driver] Got READ transaction - addr=0x8fb12387, len=102, size=7, burst=1
UVM_INFO ../master/axi4_master_pkg.sv(92) @ 600000: uvm_test_top.env.master_agent[2].driver [axi4_master_driver] Got WRITE transaction - addr=0xb48f635e, len=39, size=1, burst=3
UVM_INFO ../master/axi4_master_pkg.sv(92) @ 600000: uvm_test_top.env.master_agent[1].driver [axi4_master_driver] Got WRITE transaction - addr=0x9ea8f15b, len=225, size=3, burst=0
UVM_INFO ../master/axi4_master_pkg.sv(92) @ 600000: uvm_test_top.env.master_agent[0].driver [axi4_master_driver] Got READ transaction - addr=0x61e4991b, len=125, size=2, burst=0
UVM_INFO ../master/axi4_master_pkg.sv(92) @ 700000: uvm_test_top.env.master_agent[0].driver [axi4_master_driver] Got READ transaction - addr=0x2f2d90bf, len=12, size=7, burst=3
UVM_INFO ../master/axi4_master_pkg.sv(92) @ 700000: uvm_test_top.env.master_agent[1].driver [axi4_master_driver] Got READ transaction - addr=0x5ec6b867, len=172, size=6, burst=3
UVM_INFO ../master/axi4_master_pkg.sv(92) @ 700000: uvm_test_top.env.master_agent[2].driver [axi4_master_driver] Got WRITE transaction - addr=0xbdb1b133, len=42, size=0, burst=0
UVM_INFO ../master/axi4_master_pkg.sv(92) @ 700000: uvm_test_top.env.master_agent[3].driver [axi4_master_driver] Got WRITE transaction - addr=0x1223e238, len=194, size=1, burst=1
UVM_INFO ../master/axi4_master_pkg.sv(92) @ 700000: uvm_test_top.env.master_agent[4].driver [axi4_master_driver] Got WRITE transaction - addr=0x66f2786f, len=37, size=7, burst=3
UVM_INFO ../master/axi4_master_pkg.sv(92) @ 700000: uvm_test_top.env.master_agent[5].driver [axi4_master_driver] Got WRITE transaction - addr=0xd695623d, len=55, size=5, burst=0
UVM_INFO ../master/axi4_master_pkg.sv(92) @ 700000: uvm_test_top.env.master_agent[6].driver [axi4_master_driver] Got WRITE transaction - addr=0x1b422c3d, len=21, size=4, burst=2
UVM_INFO ../master/axi4_master_pkg.sv(92) @ 700000: uvm_test_top.env.master_agent[7].driver [axi4_master_driver] Got READ transaction - addr=0xd7876b3a, len=37, size=2, burst=3
UVM_INFO ../master/axi4_master_pkg.sv(92) @ 700000: uvm_test_top.env.master_agent[8].driver [axi4_master_driver] Got WRITE transaction - addr=0x76286dc1, len=251, size=1, burst=1
UVM_INFO ../master/axi4_master_pkg.sv(92) @ 800000: uvm_test_top.env.master_agent[8].driver [axi4_master_driver] Got WRITE transaction - addr=0x58d41a25, len=204, size=0, burst=1
UVM_INFO ../master/axi4_master_pkg.sv(92) @ 800000: uvm_test_top.env.master_agent[7].driver [axi4_master_driver] Got READ transaction - addr=0x6e71d42e, len=40, size=0, burst=2
UVM_INFO ../master/axi4_master_pkg.sv(92) @ 800000: uvm_test_top.env.master_agent[6].driver [axi4_master_driver] Got WRITE transaction - addr=0x372974c1, len=248, size=3, burst=2
UVM_INFO ../master/axi4_master_pkg.sv(92) @ 800000: uvm_test_top.env.master_agent[5].driver [axi4_master_driver] Got READ transaction - addr=0x739f020f, len=0, size=1, burst=2
UVM_INFO ../master/axi4_master_pkg.sv(92) @ 800000: uvm_test_top.env.master_agent[4].driver [axi4_master_driver] Got WRITE transaction - addr=0xa2cdebf8, len=70, size=2, burst=1
UVM_INFO ../master/axi4_master_pkg.sv(92) @ 800000: uvm_test_top.env.master_agent[3].driver [axi4_master_driver] Got READ transaction - addr=0x95f8c8d, len=151, size=2, burst=0
UVM_INFO ../master/axi4_master_pkg.sv(92) @ 800000: uvm_test_top.env.master_agent[2].driver [axi4_master_driver] Got WRITE transaction - addr=0x726095c7, len=79, size=5, burst=2
UVM_INFO ../master/axi4_master_pkg.sv(92) @ 800000: uvm_test_top.env.master_agent[1].driver [axi4_master_driver] Got READ transaction - addr=0xe67edf47, len=64, size=1, burst=1
UVM_INFO ../master/axi4_master_pkg.sv(92) @ 800000: uvm_test_top.env.master_agent[0].driver [axi4_master_driver] Got READ transaction - addr=0x40b0b066, len=168, size=5, burst=1
UVM_INFO ../master/axi4_master_pkg.sv(92) @ 900000: uvm_test_top.env.master_agent[0].driver [axi4_master_driver] Got WRITE transaction - addr=0xa80941aa, len=144, size=4, burst=2
UVM_INFO ../master/axi4_master_pkg.sv(92) @ 900000: uvm_test_top.env.master_agent[1].driver [axi4_master_driver] Got WRITE transaction - addr=0xbc6fc35d, len=249, size=4, burst=3
UVM_INFO ../master/axi4_master_pkg.sv(92) @ 900000: uvm_test_top.env.master_agent[2].driver [axi4_master_driver] Got READ transaction - addr=0x405a7f9c, len=96, size=4, burst=2
UVM_INFO ../master/axi4_master_pkg.sv(92) @ 900000: uvm_test_top.env.master_agent[3].driver [axi4_master_driver] Got WRITE transaction - addr=0xfd0b8f0, len=164, size=6, burst=3
UVM_INFO ../master/axi4_master_pkg.sv(92) @ 900000: uvm_test_top.env.master_agent[4].driver [axi4_master_driver] Got READ transaction - addr=0x2cf2748a, len=73, size=3, burst=1
UVM_INFO ../master/axi4_master_pkg.sv(92) @ 900000: uvm_test_top.env.master_agent[5].driver [axi4_master_driver] Got READ transaction - addr=0x7ac8647c, len=172, size=0, burst=1
UVM_INFO ../master/axi4_master_pkg.sv(92) @ 900000: uvm_test_top.env.master_agent[6].driver [axi4_master_driver] Got READ transaction - addr=0xe078e9a5, len=220, size=3, burst=1
UVM_INFO ../master/axi4_master_pkg.sv(92) @ 900000: uvm_test_top.env.master_agent[7].driver [axi4_master_driver] Got READ transaction - addr=0x7ae2a107, len=183, size=6, burst=3
UVM_INFO ../master/axi4_master_pkg.sv(92) @ 900000: uvm_test_top.env.master_agent[8].driver [axi4_master_driver] Got WRITE transaction - addr=0x45708cd7, len=78, size=5, burst=0
UVM_INFO ../master/axi4_master_pkg.sv(92) @ 1000000: uvm_test_top.env.master_agent[8].driver [axi4_master_driver] Got READ transaction - addr=0x3ac43bc9, len=254, size=2, burst=0
UVM_INFO ../master/axi4_master_pkg.sv(92) @ 1000000: uvm_test_top.env.master_agent[7].driver [axi4_master_driver] Got WRITE transaction - addr=0xd9e6cca0, len=182, size=2, burst=1
UVM_INFO ../master/axi4_master_pkg.sv(92) @ 1000000: uvm_test_top.env.master_agent[6].driver [axi4_master_driver] Got WRITE transaction - addr=0xc225d0ba, len=38, size=0, burst=2
UVM_INFO ../master/axi4_master_pkg.sv(92) @ 1000000: uvm_test_top.env.master_agent[5].driver [axi4_master_driver] Got READ transaction - addr=0xdaedb714, len=225, size=5, burst=2
UVM_INFO ../master/axi4_master_pkg.sv(92) @ 1000000: uvm_test_top.env.master_agent[4].driver [axi4_master_driver] Got READ transaction - addr=0x693f74ed, len=17, size=7, burst=1
UVM_INFO ../master/axi4_master_pkg.sv(92) @ 1000000: uvm_test_top.env.master_agent[3].driver [axi4_master_driver] Got WRITE transaction - addr=0xb74452f9, len=6, size=0, burst=2
UVM_INFO ../master/axi4_master_pkg.sv(92) @ 1000000: uvm_test_top.env.master_agent[2].driver [axi4_master_driver] Got WRITE transaction - addr=0x10b0d5a9, len=125, size=6, burst=2
UVM_INFO ../master/axi4_master_pkg.sv(92) @ 1000000: uvm_test_top.env.master_agent[1].driver [axi4_master_driver] Got READ transaction - addr=0x6ff08c88, len=224, size=4, burst=1
UVM_INFO ../master/axi4_master_pkg.sv(92) @ 1000000: uvm_test_top.env.master_agent[0].driver [axi4_master_driver] Got WRITE transaction - addr=0xc4e75d64, len=158, size=4, burst=2
UVM_INFO ../master/axi4_master_pkg.sv(92) @ 1100000: uvm_test_top.env.master_agent[0].driver [axi4_master_driver] Got READ transaction - addr=0x1e950d09, len=193, size=6, burst=2
UVM_INFO ../master/axi4_master_pkg.sv(92) @ 1100000: uvm_test_top.env.master_agent[1].driver [axi4_master_driver] Got READ transaction - addr=0x1ee839d, len=85, size=5, burst=3
UVM_INFO ../master/axi4_master_pkg.sv(92) @ 1100000: uvm_test_top.env.master_agent[2].driver [axi4_master_driver] Got WRITE transaction - addr=0x319729d0, len=160, size=6, burst=1
UVM_INFO ../master/axi4_master_pkg.sv(92) @ 1100000: uvm_test_top.env.master_agent[3].driver [axi4_master_driver] Got READ transaction - addr=0xefcf4c54, len=66, size=4, burst=2
UVM_INFO ../master/axi4_master_pkg.sv(92) @ 1100000: uvm_test_top.env.master_agent[4].driver [axi4_master_driver] Got READ transaction - addr=0xec3bfe7, len=51, size=5, burst=1
UVM_INFO ../master/axi4_master_pkg.sv(92) @ 1100000: uvm_test_top.env.master_agent[5].driver [axi4_master_driver] Got READ transaction - addr=0x7dfdf4f0, len=88, size=6, burst=1
UVM_INFO ../master/axi4_master_pkg.sv(92) @ 1100000: uvm_test_top.env.master_agent[6].driver [axi4_master_driver] Got WRITE transaction - addr=0x9dceb5db, len=158, size=7, burst=3
UVM_INFO ../master/axi4_master_pkg.sv(92) @ 1100000: uvm_test_top.env.master_agent[7].driver [axi4_master_driver] Got READ transaction - addr=0xfe6d4bdb, len=91, size=4, burst=1
UVM_INFO ../master/axi4_master_pkg.sv(92) @ 1100000: uvm_test_top.env.master_agent[8].driver [axi4_master_driver] Got READ transaction - addr=0x46c43a4c, len=50, size=5, burst=0
UVM_INFO ../master/axi4_master_pkg.sv(92) @ 1200000: uvm_test_top.env.master_agent[8].driver [axi4_master_driver] Got READ transaction - addr=0x4792ef8f, len=191, size=0, burst=3
UVM_INFO ../master/axi4_master_pkg.sv(92) @ 1200000: uvm_test_top.env.master_agent[7].driver [axi4_master_driver] Got READ transaction - addr=0xbaf3185e, len=55, size=1, burst=1
UVM_INFO ../master/axi4_master_pkg.sv(92) @ 1200000: uvm_test_top.env.master_agent[6].driver [axi4_master_driver] Got WRITE transaction - addr=0xe36ba85f, len=88, size=3, burst=0
UVM_INFO ../master/axi4_master_pkg.sv(92) @ 1200000: uvm_test_top.env.master_agent[5].driver [axi4_master_driver] Got READ transaction - addr=0x3f25f1e1, len=156, size=0, burst=1
UVM_INFO ../master/axi4_master_pkg.sv(92) @ 1200000: uvm_test_top.env.master_agent[4].driver [axi4_master_driver] Got WRITE transaction - addr=0x79c3762d, len=206, size=5, burst=3
UVM_INFO ../master/axi4_master_pkg.sv(92) @ 1200000: uvm_test_top.env.master_agent[3].driver [axi4_master_driver] Got WRITE transaction - addr=0x4794e7fe, len=4, size=0, burst=0
UVM_INFO ../master/axi4_master_pkg.sv(92) @ 1200000: uvm_test_top.env.master_agent[2].driver [axi4_master_driver] Got READ transaction - addr=0xbe4fa3b6, len=21, size=3, burst=3
UVM_INFO ../master/axi4_master_pkg.sv(92) @ 1200000: uvm_test_top.env.master_agent[1].driver [axi4_master_driver] Got WRITE transaction - addr=0xc04df79d, len=70, size=5, burst=0
UVM_INFO ../master/axi4_master_pkg.sv(92) @ 1200000: uvm_test_top.env.master_agent[0].driver [axi4_master_driver] Got READ transaction - addr=0x3093b0e6, len=64, size=7, burst=2
UVM_INFO ../master/axi4_master_pkg.sv(92) @ 1300000: uvm_test_top.env.master_agent[0].driver [axi4_master_driver] Got READ transaction - addr=0xe23bbff9, len=187, size=5, burst=3
UVM_INFO ../master/axi4_master_pkg.sv(92) @ 1300000: uvm_test_top.env.master_agent[1].driver [axi4_master_driver] Got WRITE transaction - addr=0x5b3248c1, len=252, size=5, burst=0
UVM_INFO ../master/axi4_master_pkg.sv(92) @ 1300000: uvm_test_top.env.master_agent[2].driver [axi4_master_driver] Got READ transaction - addr=0x5bef4573, len=75, size=5, burst=2
UVM_INFO ../master/axi4_master_pkg.sv(92) @ 1300000: uvm_test_top.env.master_agent[3].driver [axi4_master_driver] Got READ transaction - addr=0xabf97442, len=242, size=7, burst=0
UVM_INFO ../master/axi4_master_pkg.sv(92) @ 1300000: uvm_test_top.env.master_agent[4].driver [axi4_master_driver] Got READ transaction - addr=0x3c5b0d2e, len=40, size=1, burst=3
UVM_INFO ../master/axi4_master_pkg.sv(92) @ 1300000: uvm_test_top.env.master_agent[5].driver [axi4_master_driver] Got READ transaction - addr=0xdcb70e9a, len=79, size=6, burst=0
UVM_INFO ../master/axi4_master_pkg.sv(92) @ 1300000: uvm_test_top.env.master_agent[6].driver [axi4_master_driver] Got WRITE transaction - addr=0x2aef38e1, len=2, size=0, burst=0
UVM_INFO ../master/axi4_master_pkg.sv(92) @ 1300000: uvm_test_top.env.master_agent[7].driver [axi4_master_driver] Got WRITE transaction - addr=0x415c06dd, len=98, size=4, burst=3
UVM_INFO ../master/axi4_master_pkg.sv(92) @ 1300000: uvm_test_top.env.master_agent[8].driver [axi4_master_driver] Got WRITE transaction - addr=0x716226c4, len=169, size=7, burst=2
UVM_INFO ../master/axi4_master_pkg.sv(92) @ 1400000: uvm_test_top.env.master_agent[8].driver [axi4_master_driver] Got WRITE transaction - addr=0x131f181f, len=254, size=0, burst=1
UVM_INFO ../master/axi4_master_pkg.sv(92) @ 1400000: uvm_test_top.env.master_agent[7].driver [axi4_master_driver] Got WRITE transaction - addr=0xda93d822, len=217, size=0, burst=1
UVM_INFO ../master/axi4_master_pkg.sv(92) @ 1400000: uvm_test_top.env.master_agent[6].driver [axi4_master_driver] Got READ transaction - addr=0x7d59e6b4, len=97, size=3, burst=0
UVM_INFO ../master/axi4_master_pkg.sv(92) @ 1400000: uvm_test_top.env.master_agent[5].driver [axi4_master_driver] Got READ transaction - addr=0xbc571447, len=15, size=6, burst=0
UVM_INFO ../master/axi4_master_pkg.sv(92) @ 1400000: uvm_test_top.env.master_agent[4].driver [axi4_master_driver] Got READ transaction - addr=0x9f87bad6, len=214, size=1, burst=2
UVM_INFO ../master/axi4_master_pkg.sv(92) @ 1400000: uvm_test_top.env.master_agent[3].driver [axi4_master_driver] Got READ transaction - addr=0x59797c5d, len=79, size=0, burst=1
UVM_INFO ../master/axi4_master_pkg.sv(92) @ 1400000: uvm_test_top.env.master_agent[2].driver [axi4_master_driver] Got READ transaction - addr=0x3c4b112b, len=173, size=3, burst=1
UVM_INFO ../master/axi4_master_pkg.sv(92) @ 1400000: uvm_test_top.env.master_agent[1].driver [axi4_master_driver] Got WRITE transaction - addr=0x9245cb45, len=215, size=0, burst=3
UVM_INFO ../master/axi4_master_pkg.sv(92) @ 1400000: uvm_test_top.env.master_agent[0].driver [axi4_master_driver] Got READ transaction - addr=0x161beb71, len=116, size=2, burst=1
UVM_INFO ../master/axi4_master_pkg.sv(92) @ 1500000: uvm_test_top.env.master_agent[0].driver [axi4_master_driver] Got READ transaction - addr=0x96a4a04c, len=204, size=0, burst=1
UVM_INFO ../master/axi4_master_pkg.sv(92) @ 1500000: uvm_test_top.env.master_agent[1].driver [axi4_master_driver] Got WRITE transaction - addr=0x957e7e35, len=229, size=2, burst=1
UVM_INFO ../master/axi4_master_pkg.sv(92) @ 1500000: uvm_test_top.env.master_agent[2].driver [axi4_master_driver] Got WRITE transaction - addr=0x47e7a43d, len=202, size=7, burst=1
UVM_INFO ../master/axi4_master_pkg.sv(92) @ 1500000: uvm_test_top.env.master_agent[3].driver [axi4_master_driver] Got READ transaction - addr=0xe3ce0535, len=9, size=4, burst=3
UVM_INFO ../master/axi4_master_pkg.sv(92) @ 1500000: uvm_test_top.env.master_agent[4].driver [axi4_master_driver] Got WRITE transaction - addr=0x7eba19b8, len=161, size=4, burst=0
UVM_INFO ../master/axi4_master_pkg.sv(92) @ 1500000: uvm_test_top.env.master_agent[5].driver [axi4_master_driver] Got WRITE transaction - addr=0x6ef9544d, len=68, size=0, burst=2
UVM_INFO ../master/axi4_master_pkg.sv(92) @ 1500000: uvm_test_top.env.master_agent[6].driver [axi4_master_driver] Got WRITE transaction - addr=0x5b43f6ee, len=8, size=6, burst=0
UVM_INFO ../master/axi4_master_pkg.sv(92) @ 1500000: uvm_test_top.env.master_agent[7].driver [axi4_master_driver] Got WRITE transaction - addr=0x89590783, len=142, size=2, burst=1
UVM_INFO ../master/axi4_master_pkg.sv(92) @ 1500000: uvm_test_top.env.master_agent[8].driver [axi4_master_driver] Got READ transaction - addr=0xdf001818, len=163, size=1, burst=0
UVM_INFO ../master/axi4_master_pkg.sv(92) @ 1600000: uvm_test_top.env.master_agent[8].driver [axi4_master_driver] Got WRITE transaction - addr=0xd85b620e, len=251, size=0, burst=3
UVM_INFO ../master/axi4_master_pkg.sv(92) @ 1600000: uvm_test_top.env.master_agent[7].driver [axi4_master_driver] Got WRITE transaction - addr=0xaf9df2cc, len=219, size=4, burst=2
UVM_INFO ../master/axi4_master_pkg.sv(92) @ 1600000: uvm_test_top.env.master_agent[6].driver [axi4_master_driver] Got READ transaction - addr=0x57653616, len=158, size=5, burst=1
UVM_INFO ../master/axi4_master_pkg.sv(92) @ 1600000: uvm_test_top.env.master_agent[5].driver [axi4_master_driver] Got WRITE transaction - addr=0xd5570717, len=202, size=6, burst=2
UVM_INFO ../master/axi4_master_pkg.sv(92) @ 1600000: uvm_test_top.env.master_agent[4].driver [axi4_master_driver] Got READ transaction - addr=0xfe0e8296, len=137, size=5, burst=3
UVM_INFO ../master/axi4_master_pkg.sv(92) @ 1600000: uvm_test_top.env.master_agent[3].driver [axi4_master_driver] Got WRITE transaction - addr=0x6f1d7a53, len=149, size=7, burst=2
UVM_INFO ../master/axi4_master_pkg.sv(92) @ 1600000: uvm_test_top.env.master_agent[2].driver [axi4_master_driver] Got WRITE transaction - addr=0x61b01a29, len=78, size=0, burst=0
UVM_INFO ../master/axi4_master_pkg.sv(92) @ 1600000: uvm_test_top.env.master_agent[1].driver [axi4_master_driver] Got READ transaction - addr=0x754b4079, len=166, size=0, burst=1
UVM_INFO ../master/axi4_master_pkg.sv(92) @ 1600000: uvm_test_top.env.master_agent[0].driver [axi4_master_driver] Got WRITE transaction - addr=0xd766f51d, len=207, size=3, burst=0
UVM_INFO ../master/axi4_master_pkg.sv(92) @ 1700000: uvm_test_top.env.master_agent[0].driver [axi4_master_driver] Got WRITE transaction - addr=0x5b23fb46, len=13, size=4, burst=0
UVM_INFO ../master/axi4_master_pkg.sv(92) @ 1700000: uvm_test_top.env.master_agent[1].driver [axi4_master_driver] Got READ transaction - addr=0x8bc4f1af, len=120, size=3, burst=2
UVM_INFO ../master/axi4_master_pkg.sv(92) @ 1700000: uvm_test_top.env.master_agent[2].driver [axi4_master_driver] Got WRITE transaction - addr=0xa9068bf5, len=154, size=3, burst=0
UVM_INFO ../master/axi4_master_pkg.sv(92) @ 1700000: uvm_test_top.env.master_agent[3].driver [axi4_master_driver] Got READ transaction - addr=0x3ae56b1b, len=106, size=2, burst=0
UVM_INFO ../master/axi4_master_pkg.sv(92) @ 1700000: uvm_test_top.env.master_agent[4].driver [axi4_master_driver] Got WRITE transaction - addr=0xd3d3dd08, len=34, size=4, burst=0
UVM_INFO ../master/axi4_master_pkg.sv(92) @ 1700000: uvm_test_top.env.master_agent[5].driver [axi4_master_driver] Got WRITE transaction - addr=0x7ae5b4e7, len=228, size=6, burst=3
UVM_INFO ../master/axi4_master_pkg.sv(92) @ 1700000: uvm_test_top.env.master_agent[6].driver [axi4_master_driver] Got READ transaction - addr=0xeb7f3e8e, len=245, size=1, burst=1
UVM_INFO ../master/axi4_master_pkg.sv(92) @ 1700000: uvm_test_top.env.master_agent[7].driver [axi4_master_driver] Got WRITE transaction - addr=0x255fc31f, len=216, size=3, burst=2
UVM_INFO ../master/axi4_master_pkg.sv(92) @ 1700000: uvm_test_top.env.master_agent[8].driver [axi4_master_driver] Got READ transaction - addr=0xd6658241, len=191, size=5, burst=0
UVM_INFO ../master/axi4_master_pkg.sv(92) @ 1800000: uvm_test_top.env.master_agent[8].driver [axi4_master_driver] Got READ transaction - addr=0x72e32be9, len=39, size=7, burst=1
UVM_INFO ../master/axi4_master_pkg.sv(92) @ 1800000: uvm_test_top.env.master_agent[7].driver [axi4_master_driver] Got READ transaction - addr=0x2a71246f, len=189, size=1, burst=0
UVM_INFO ../master/axi4_master_pkg.sv(92) @ 1800000: uvm_test_top.env.master_agent[6].driver [axi4_master_driver] Got WRITE transaction - addr=0xa842355b, len=6, size=7, burst=0
UVM_INFO ../master/axi4_master_pkg.sv(92) @ 1800000: uvm_test_top.env.master_agent[5].driver [axi4_master_driver] Got READ transaction - addr=0x8a8a6d6b, len=131, size=1, burst=1
UVM_INFO ../master/axi4_master_pkg.sv(92) @ 1800000: uvm_test_top.env.master_agent[4].driver [axi4_master_driver] Got WRITE transaction - addr=0x5832f305, len=237, size=3, burst=0
UVM_INFO ../master/axi4_master_pkg.sv(92) @ 1800000: uvm_test_top.env.master_agent[3].driver [axi4_master_driver] Got READ transaction - addr=0xa7c9cc40, len=151, size=3, burst=3
UVM_INFO ../master/axi4_master_pkg.sv(92) @ 1800000: uvm_test_top.env.master_agent[2].driver [axi4_master_driver] Got READ transaction - addr=0x938da7c8, len=107, size=6, burst=1
UVM_INFO ../master/axi4_master_pkg.sv(92) @ 1800000: uvm_test_top.env.master_agent[1].driver [axi4_master_driver] Got READ transaction - addr=0xb6f9321a, len=110, size=7, burst=3
UVM_INFO ../master/axi4_master_pkg.sv(92) @ 1800000: uvm_test_top.env.master_agent[0].driver [axi4_master_driver] Got READ transaction - addr=0xfb8812e6, len=83, size=0, burst=2
UVM_INFO ../master/axi4_master_pkg.sv(92) @ 1900000: uvm_test_top.env.master_agent[0].driver [axi4_master_driver] Got READ transaction - addr=0xbda9901e, len=0, size=3, burst=1
UVM_INFO ../master/axi4_master_pkg.sv(92) @ 1900000: uvm_test_top.env.master_agent[1].driver [axi4_master_driver] Got WRITE transaction - addr=0xa0f9a7eb, len=57, size=5, burst=3
UVM_INFO ../master/axi4_master_pkg.sv(92) @ 1900000: uvm_test_top.env.master_agent[2].driver [axi4_master_driver] Got READ transaction - addr=0xf55e824a, len=65, size=0, burst=2
UVM_INFO ../master/axi4_master_pkg.sv(92) @ 1900000: uvm_test_top.env.master_agent[3].driver [axi4_master_driver] Got WRITE transaction - addr=0xa3ce3ea1, len=54, size=5, burst=0
UVM_INFO ../master/axi4_master_pkg.sv(92) @ 1900000: uvm_test_top.env.master_agent[4].driver [axi4_master_driver] Got WRITE transaction - addr=0xc9f65b40, len=60, size=1, burst=2
UVM_INFO ../master/axi4_master_pkg.sv(92) @ 1900000: uvm_test_top.env.master_agent[5].driver [axi4_master_driver] Got READ transaction - addr=0x7a9e4406, len=149, size=3, burst=2
UVM_INFO ../master/axi4_master_pkg.sv(92) @ 1900000: uvm_test_top.env.master_agent[6].driver [axi4_master_driver] Got WRITE transaction - addr=0x6314670e, len=128, size=6, burst=3
UVM_INFO ../master/axi4_master_pkg.sv(92) @ 1900000: uvm_test_top.env.master_agent[7].driver [axi4_master_driver] Got READ transaction - addr=0x49b025, len=90, size=1, burst=3
UVM_INFO ../master/axi4_master_pkg.sv(92) @ 1900000: uvm_test_top.env.master_agent[8].driver [axi4_master_driver] Got READ transaction - addr=0x9e548fde, len=162, size=2, burst=3
UVM_INFO ../master/axi4_master_pkg.sv(92) @ 2000000: uvm_test_top.env.master_agent[8].driver [axi4_master_driver] Got WRITE transaction - addr=0x4899a064, len=65, size=3, burst=1
UVM_INFO ../master/axi4_master_pkg.sv(92) @ 2000000: uvm_test_top.env.master_agent[7].driver [axi4_master_driver] Got WRITE transaction - addr=0xe496ef41, len=199, size=5, burst=3
UVM_INFO ../master/axi4_master_pkg.sv(92) @ 2000000: uvm_test_top.env.master_agent[6].driver [axi4_master_driver] Got READ transaction - addr=0xea4b87e8, len=1, size=4, burst=1
UVM_INFO ../master/axi4_master_pkg.sv(92) @ 2000000: uvm_test_top.env.master_agent[5].driver [axi4_master_driver] Got WRITE transaction - addr=0xa65b16cd, len=52, size=1, burst=3
UVM_INFO ../master/axi4_master_pkg.sv(92) @ 2000000: uvm_test_top.env.master_agent[4].driver [axi4_master_driver] Got WRITE transaction - addr=0x95257ca6, len=245, size=4, burst=3
UVM_INFO ../master/axi4_master_pkg.sv(92) @ 2000000: uvm_test_top.env.master_agent[3].driver [axi4_master_driver] Got READ transaction - addr=0x54d40696, len=9, size=3, burst=2
UVM_INFO ../master/axi4_master_pkg.sv(92) @ 2000000: uvm_test_top.env.master_agent[2].driver [axi4_master_driver] Got WRITE transaction - addr=0x89554e31, len=90, size=1, burst=0
UVM_INFO ../master/axi4_master_pkg.sv(92) @ 2000000: uvm_test_top.env.master_agent[1].driver [axi4_master_driver] Got WRITE transaction - addr=0x17b8fdeb, len=126, size=7, burst=2
UVM_INFO ../master/axi4_master_pkg.sv(92) @ 2000000: uvm_test_top.env.master_agent[0].driver [axi4_master_driver] Got READ transaction - addr=0x6bb0acc, len=147, size=1, burst=3
UVM_INFO ../master/axi4_master_pkg.sv(92) @ 2100000: uvm_test_top.env.master_agent[0].driver [axi4_master_driver] Got WRITE transaction - addr=0xb5422e77, len=105, size=7, burst=0
UVM_INFO ../master/axi4_master_pkg.sv(92) @ 2100000: uvm_test_top.env.master_agent[1].driver [axi4_master_driver] Got READ transaction - addr=0x388a9474, len=251, size=5, burst=2
UVM_INFO ../master/axi4_master_pkg.sv(92) @ 2100000: uvm_test_top.env.master_agent[2].driver [axi4_master_driver] Got READ transaction - addr=0xbb71af51, len=91, size=6, burst=2
UVM_INFO ../master/axi4_master_pkg.sv(92) @ 2100000: uvm_test_top.env.master_agent[3].driver [axi4_master_driver] Got READ transaction - addr=0xa1a56350, len=36, size=2, burst=2
UVM_INFO ../master/axi4_master_pkg.sv(92) @ 2100000: uvm_test_top.env.master_agent[4].driver [axi4_master_driver] Got READ transaction - addr=0x411721cf, len=59, size=3, burst=3
UVM_INFO ../master/axi4_master_pkg.sv(92) @ 2100000: uvm_test_top.env.master_agent[5].driver [axi4_master_driver] Got WRITE transaction - addr=0x49c93f8, len=161, size=0, burst=3
UVM_INFO ../master/axi4_master_pkg.sv(92) @ 2100000: uvm_test_top.env.master_agent[6].driver [axi4_master_driver] Got WRITE transaction - addr=0x5f7f53c9, len=189, size=1, burst=3
UVM_INFO ../master/axi4_master_pkg.sv(92) @ 2100000: uvm_test_top.env.master_agent[7].driver [axi4_master_driver] Got READ transaction - addr=0x173507d7, len=192, size=0, burst=0
UVM_INFO ../master/axi4_master_pkg.sv(92) @ 2100000: uvm_test_top.env.master_agent[8].driver [axi4_master_driver] Got READ transaction - addr=0xd1bfdbcd, len=236, size=0, burst=1
UVM_INFO ../master/axi4_master_pkg.sv(92) @ 2200000: uvm_test_top.env.master_agent[8].driver [axi4_master_driver] Got WRITE transaction - addr=0x4283755f, len=228, size=7, burst=0
UVM_INFO ../master/axi4_master_pkg.sv(92) @ 2200000: uvm_test_top.env.master_agent[7].driver [axi4_master_driver] Got WRITE transaction - addr=0x15b5de07, len=167, size=0, burst=3
UVM_INFO ../master/axi4_master_pkg.sv(92) @ 2200000: uvm_test_top.env.master_agent[6].driver [axi4_master_driver] Got READ transaction - addr=0x146844f8, len=106, size=2, burst=3
UVM_INFO ../master/axi4_master_pkg.sv(92) @ 2200000: uvm_test_top.env.master_agent[5].driver [axi4_master_driver] Got READ transaction - addr=0x9bde9189, len=6, size=7, burst=1
UVM_INFO ../master/axi4_master_pkg.sv(92) @ 2200000: uvm_test_top.env.master_agent[4].driver [axi4_master_driver] Got WRITE transaction - addr=0xbbb82da8, len=131, size=7, burst=2
UVM_INFO ../master/axi4_master_pkg.sv(92) @ 2200000: uvm_test_top.env.master_agent[3].driver [axi4_master_driver] Got READ transaction - addr=0xc948c9be, len=178, size=6, burst=1
UVM_INFO ../master/axi4_master_pkg.sv(92) @ 2200000: uvm_test_top.env.master_agent[2].driver [axi4_master_driver] Got WRITE transaction - addr=0xda4ddd73, len=126, size=1, burst=1
UVM_INFO ../master/axi4_master_pkg.sv(92) @ 2200000: uvm_test_top.env.master_agent[1].driver [axi4_master_driver] Got READ transaction - addr=0x7046cddf, len=180, size=1, burst=3
UVM_INFO ../master/axi4_master_pkg.sv(92) @ 2200000: uvm_test_top.env.master_agent[0].driver [axi4_master_driver] Got WRITE transaction - addr=0xd10b6e8a, len=100, size=6, burst=3
UVM_INFO ../master/axi4_master_pkg.sv(92) @ 2300000: uvm_test_top.env.master_agent[0].driver [axi4_master_driver] Got READ transaction - addr=0xebe41afb, len=198, size=7, burst=0
UVM_INFO ../master/axi4_master_pkg.sv(92) @ 2300000: uvm_test_top.env.master_agent[1].driver [axi4_master_driver] Got READ transaction - addr=0xafbd636e, len=112, size=2, burst=2
UVM_INFO ../master/axi4_master_pkg.sv(92) @ 2300000: uvm_test_top.env.master_agent[2].driver [axi4_master_driver] Got WRITE transaction - addr=0x33dfaab3, len=156, size=6, burst=3
UVM_INFO ../master/axi4_master_pkg.sv(92) @ 2300000: uvm_test_top.env.master_agent[3].driver [axi4_master_driver] Got WRITE transaction - addr=0xeb37fedf, len=109, size=6, burst=1
UVM_INFO ../master/axi4_master_pkg.sv(92) @ 2300000: uvm_test_top.env.master_agent[4].driver [axi4_master_driver] Got READ transaction - addr=0x2bc731d3, len=77, size=4, burst=3
UVM_INFO ../master/axi4_master_pkg.sv(92) @ 2300000: uvm_test_top.env.master_agent[5].driver [axi4_master_driver] Got WRITE transaction - addr=0x36ed70a8, len=108, size=2, burst=0
UVM_INFO ../master/axi4_master_pkg.sv(92) @ 2300000: uvm_test_top.env.master_agent[6].driver [axi4_master_driver] Got WRITE transaction - addr=0x3e5e0d6d, len=224, size=3, burst=2
UVM_INFO ../master/axi4_master_pkg.sv(92) @ 2300000: uvm_test_top.env.master_agent[7].driver [axi4_master_driver] Got READ transaction - addr=0x99dbc1a1, len=18, size=2, burst=0
UVM_INFO ../master/axi4_master_pkg.sv(92) @ 2300000: uvm_test_top.env.master_agent[8].driver [axi4_master_driver] Got WRITE transaction - addr=0x270081ef, len=215, size=2, burst=2
UVM_INFO ../master/axi4_master_pkg.sv(92) @ 2400000: uvm_test_top.env.master_agent[8].driver [axi4_master_driver] Got WRITE transaction - addr=0xc93644e9, len=12, size=5, burst=2
UVM_INFO ../master/axi4_master_pkg.sv(92) @ 2400000: uvm_test_top.env.master_agent[7].driver [axi4_master_driver] Got WRITE transaction - addr=0x8747a460, len=173, size=1, burst=0
UVM_INFO ../master/axi4_master_pkg.sv(92) @ 2400000: uvm_test_top.env.master_agent[6].driver [axi4_master_driver] Got READ transaction - addr=0xb88dbb06, len=208, size=5, burst=1
UVM_INFO ../master/axi4_master_pkg.sv(92) @ 2400000: uvm_test_top.env.master_agent[5].driver [axi4_master_driver] Got WRITE transaction - addr=0x7faebe2b, len=173, size=3, burst=2
UVM_INFO ../master/axi4_master_pkg.sv(92) @ 2400000: uvm_test_top.env.master_agent[4].driver [axi4_master_driver] Got WRITE transaction - addr=0xac2cc1db, len=148, size=4, burst=1
UVM_INFO ../master/axi4_master_pkg.sv(92) @ 2400000: uvm_test_top.env.master_agent[3].driver [axi4_master_driver] Got WRITE transaction - addr=0xf71f0ff4, len=29, size=2, burst=0
UVM_INFO ../master/axi4_master_pkg.sv(92) @ 2400000: uvm_test_top.env.master_agent[2].driver [axi4_master_driver] Got WRITE transaction - addr=0x1b312d01, len=136, size=6, burst=0
UVM_INFO ../master/axi4_master_pkg.sv(92) @ 2400000: uvm_test_top.env.master_agent[1].driver [axi4_master_driver] Got WRITE transaction - addr=0x3dfc712f, len=102, size=5, burst=2
UVM_INFO ../master/axi4_master_pkg.sv(92) @ 2400000: uvm_test_top.env.master_agent[0].driver [axi4_master_driver] Got WRITE transaction - addr=0xb206a431, len=234, size=0, burst=2
UVM_INFO ../master/axi4_master_pkg.sv(92) @ 2500000: uvm_test_top.env.master_agent[0].driver [axi4_master_driver] Got READ transaction - addr=0x53b70247, len=125, size=4, burst=3
UVM_INFO ../master/axi4_master_pkg.sv(92) @ 2500000: uvm_test_top.env.master_agent[1].driver [axi4_master_driver] Got WRITE transaction - addr=0xc11fb307, len=231, size=3, burst=0
UVM_INFO ../master/axi4_master_pkg.sv(92) @ 2500000: uvm_test_top.env.master_agent[2].driver [axi4_master_driver] Got WRITE transaction - addr=0xb34ac66c, len=140, size=2, burst=1
UVM_INFO ../master/axi4_master_pkg.sv(92) @ 2500000: uvm_test_top.env.master_agent[3].driver [axi4_master_driver] Got WRITE transaction - addr=0x73bf1115, len=215, size=7, burst=3
UVM_INFO ../master/axi4_master_pkg.sv(92) @ 2500000: uvm_test_top.env.master_agent[4].driver [axi4_master_driver] Got READ transaction - addr=0x399fc320, len=173, size=0, burst=1
UVM_INFO ../master/axi4_master_pkg.sv(92) @ 2500000: uvm_test_top.env.master_agent[5].driver [axi4_master_driver] Got WRITE transaction - addr=0xe00ac51e, len=253, size=0, burst=3
UVM_INFO ../master/axi4_master_pkg.sv(92) @ 2500000: uvm_test_top.env.master_agent[6].driver [axi4_master_driver] Got READ transaction - addr=0xa797fe53, len=161, size=5, burst=2
UVM_INFO ../master/axi4_master_pkg.sv(92) @ 2500000: uvm_test_top.env.master_agent[7].driver [axi4_master_driver] Got READ transaction - addr=0x77548424, len=24, size=4, burst=3
UVM_INFO ../master/axi4_master_pkg.sv(92) @ 2500000: uvm_test_top.env.master_agent[8].driver [axi4_master_driver] Got WRITE transaction - addr=0xa0425693, len=187, size=1, burst=3
UVM_INFO ../master/axi4_master_pkg.sv(92) @ 2600000: uvm_test_top.env.master_agent[8].driver [axi4_master_driver] Got WRITE transaction - addr=0xcb32827c, len=248, size=5, burst=2
UVM_INFO ../master/axi4_master_pkg.sv(92) @ 2600000: uvm_test_top.env.master_agent[7].driver [axi4_master_driver] Got WRITE transaction - addr=0x6cce61c1, len=150, size=1, burst=0
UVM_INFO ../master/axi4_master_pkg.sv(92) @ 2600000: uvm_test_top.env.master_agent[6].driver [axi4_master_driver] Got READ transaction - addr=0xeefba777, len=115, size=7, burst=3
UVM_INFO ../master/axi4_master_pkg.sv(92) @ 2600000: uvm_test_top.env.master_agent[5].driver [axi4_master_driver] Got READ transaction - addr=0x878b5e89, len=116, size=0, burst=3
UVM_INFO ../master/axi4_master_pkg.sv(92) @ 2600000: uvm_test_top.env.master_agent[4].driver [axi4_master_driver] Got READ transaction - addr=0xc7b943c1, len=63, size=1, burst=3
UVM_INFO ../master/axi4_master_pkg.sv(92) @ 2600000: uvm_test_top.env.master_agent[3].driver [axi4_master_driver] Got WRITE transaction - addr=0x692d1ac1, len=233, size=0, burst=0
UVM_INFO ../master/axi4_master_pkg.sv(92) @ 2600000: uvm_test_top.env.master_agent[2].driver [axi4_master_driver] Got READ transaction - addr=0x8874689, len=130, size=3, burst=2
UVM_INFO ../master/axi4_master_pkg.sv(92) @ 2600000: uvm_test_top.env.master_agent[1].driver [axi4_master_driver] Got READ transaction - addr=0x16b4d62, len=120, size=2, burst=3
UVM_INFO ../master/axi4_master_pkg.sv(92) @ 2600000: uvm_test_top.env.master_agent[0].driver [axi4_master_driver] Got WRITE transaction - addr=0x82dfcb51, len=6, size=7, burst=2
UVM_INFO ../master/axi4_master_pkg.sv(92) @ 2700000: uvm_test_top.env.master_agent[0].driver [axi4_master_driver] Got READ transaction - addr=0xdb69977a, len=41, size=4, burst=0
UVM_INFO ../master/axi4_master_pkg.sv(92) @ 2700000: uvm_test_top.env.master_agent[1].driver [axi4_master_driver] Got WRITE transaction - addr=0xd9ea9507, len=89, size=7, burst=0
UVM_INFO ../master/axi4_master_pkg.sv(92) @ 2700000: uvm_test_top.env.master_agent[2].driver [axi4_master_driver] Got WRITE transaction - addr=0x4f1a59cf, len=51, size=1, burst=1
UVM_INFO ../master/axi4_master_pkg.sv(92) @ 2700000: uvm_test_top.env.master_agent[3].driver [axi4_master_driver] Got READ transaction - addr=0xf2d8e8b4, len=20, size=1, burst=1
UVM_INFO ../master/axi4_master_pkg.sv(92) @ 2700000: uvm_test_top.env.master_agent[4].driver [axi4_master_driver] Got WRITE transaction - addr=0xc1b43508, len=250, size=1, burst=0
UVM_INFO ../master/axi4_master_pkg.sv(92) @ 2700000: uvm_test_top.env.master_agent[5].driver [axi4_master_driver] Got WRITE transaction - addr=0x940cc8e, len=205, size=2, burst=2
UVM_INFO ../master/axi4_master_pkg.sv(92) @ 2700000: uvm_test_top.env.master_agent[6].driver [axi4_master_driver] Got READ transaction - addr=0x57c570da, len=11, size=2, burst=1
UVM_INFO ../master/axi4_master_pkg.sv(92) @ 2700000: uvm_test_top.env.master_agent[7].driver [axi4_master_driver] Got READ transaction - addr=0x3da8e307, len=252, size=3, burst=1
UVM_INFO ../master/axi4_master_pkg.sv(92) @ 2700000: uvm_test_top.env.master_agent[8].driver [axi4_master_driver] Got WRITE transaction - addr=0xc23f6846, len=221, size=6, burst=0
UVM_INFO ../master/axi4_master_pkg.sv(92) @ 2800000: uvm_test_top.env.master_agent[8].driver [axi4_master_driver] Got READ transaction - addr=0x579e3dbd, len=172, size=4, burst=3
UVM_INFO ../master/axi4_master_pkg.sv(92) @ 2800000: uvm_test_top.env.master_agent[7].driver [axi4_master_driver] Got WRITE transaction - addr=0x48a05234, len=4, size=2, burst=3
UVM_INFO ../master/axi4_master_pkg.sv(92) @ 2800000: uvm_test_top.env.master_agent[6].driver [axi4_master_driver] Got WRITE transaction - addr=0x52274d85, len=124, size=1, burst=3
UVM_INFO ../master/axi4_master_pkg.sv(92) @ 2800000: uvm_test_top.env.master_agent[5].driver [axi4_master_driver] Got READ transaction - addr=0x2069e37c, len=201, size=5, burst=3
UVM_INFO ../master/axi4_master_pkg.sv(92) @ 2800000: uvm_test_top.env.master_agent[4].driver [axi4_master_driver] Got WRITE transaction - addr=0xaf36e2b4, len=79, size=7, burst=0
UVM_INFO ../master/axi4_master_pkg.sv(92) @ 2800000: uvm_test_top.env.master_agent[3].driver [axi4_master_driver] Got WRITE transaction - addr=0x1817d48c, len=0, size=7, burst=0
UVM_INFO ../master/axi4_master_pkg.sv(92) @ 2800000: uvm_test_top.env.master_agent[2].driver [axi4_master_driver] Got WRITE transaction - addr=0x4ff2c9ec, len=243, size=1, burst=1
UVM_INFO ../master/axi4_master_pkg.sv(92) @ 2800000: uvm_test_top.env.master_agent[1].driver [axi4_master_driver] Got READ transaction - addr=0x515e2a2b, len=101, size=7, burst=3
UVM_INFO ../master/axi4_master_pkg.sv(92) @ 2800000: uvm_test_top.env.master_agent[0].driver [axi4_master_driver] Got WRITE transaction - addr=0x6b85d4a8, len=24, size=1, burst=2
UVM_INFO ../master/axi4_master_pkg.sv(92) @ 2900000: uvm_test_top.env.master_agent[0].driver [axi4_master_driver] Got READ transaction - addr=0xaebdc85b, len=143, size=0, burst=3
UVM_INFO ../master/axi4_master_pkg.sv(92) @ 2900000: uvm_test_top.env.master_agent[1].driver [axi4_master_driver] Got WRITE transaction - addr=0x2154857b, len=182, size=0, burst=1
UVM_INFO ../master/axi4_master_pkg.sv(92) @ 2900000: uvm_test_top.env.master_agent[2].driver [axi4_master_driver] Got READ transaction - addr=0x5c2a5317, len=102, size=6, burst=1
UVM_INFO ../master/axi4_master_pkg.sv(92) @ 2900000: uvm_test_top.env.master_agent[3].driver [axi4_master_driver] Got READ transaction - addr=0xfb422341, len=134, size=5, burst=3
UVM_INFO ../master/axi4_master_pkg.sv(92) @ 2900000: uvm_test_top.env.master_agent[4].driver [axi4_master_driver] Got WRITE transaction - addr=0xef4004b4, len=206, size=3, burst=1
UVM_INFO ../master/axi4_master_pkg.sv(92) @ 2900000: uvm_test_top.env.master_agent[5].driver [axi4_master_driver] Got WRITE transaction - addr=0xd18f6d68, len=98, size=7, burst=3
UVM_INFO ../master/axi4_master_pkg.sv(92) @ 2900000: uvm_test_top.env.master_agent[6].driver [axi4_master_driver] Got WRITE transaction - addr=0xacd27450, len=225, size=3, burst=1
UVM_INFO ../master/axi4_master_pkg.sv(92) @ 2900000: uvm_test_top.env.master_agent[7].driver [axi4_master_driver] Got READ transaction - addr=0xb5404302, len=86, size=3, burst=3
UVM_INFO ../master/axi4_master_pkg.sv(92) @ 2900000: uvm_test_top.env.master_agent[8].driver [axi4_master_driver] Got WRITE transaction - addr=0x88e6815c, len=185, size=7, burst=1
UVM_INFO ../master/axi4_master_pkg.sv(92) @ 3000000: uvm_test_top.env.master_agent[8].driver [axi4_master_driver] Got WRITE transaction - addr=0xf1089cb2, len=28, size=3, burst=3
UVM_INFO ../master/axi4_master_pkg.sv(92) @ 3000000: uvm_test_top.env.master_agent[7].driver [axi4_master_driver] Got READ transaction - addr=0xe8eca2f4, len=99, size=0, burst=2
UVM_INFO ../master/axi4_master_pkg.sv(92) @ 3000000: uvm_test_top.env.master_agent[6].driver [axi4_master_driver] Got READ transaction - addr=0x5089db25, len=126, size=7, burst=2
UVM_INFO ../master/axi4_master_pkg.sv(92) @ 3000000: uvm_test_top.env.master_agent[5].driver [axi4_master_driver] Got WRITE transaction - addr=0xd4646b3c, len=220, size=4, burst=1
UVM_INFO ../master/axi4_master_pkg.sv(92) @ 3000000: uvm_test_top.env.master_agent[4].driver [axi4_master_driver] Got READ transaction - addr=0x31f21777, len=251, size=6, burst=3
UVM_INFO ../master/axi4_master_pkg.sv(92) @ 3000000: uvm_test_top.env.master_agent[3].driver [axi4_master_driver] Got WRITE transaction - addr=0x5c127cd5, len=117, size=7, burst=0
UVM_INFO ../master/axi4_master_pkg.sv(92) @ 3000000: uvm_test_top.env.master_agent[2].driver [axi4_master_driver] Got READ transaction - addr=0x7ee25b3b, len=248, size=5, burst=2
UVM_INFO ../master/axi4_master_pkg.sv(92) @ 3000000: uvm_test_top.env.master_agent[1].driver [axi4_master_driver] Got READ transaction - addr=0x2cd89984, len=223, size=4, burst=3
UVM_INFO ../master/axi4_master_pkg.sv(92) @ 3000000: uvm_test_top.env.master_agent[0].driver [axi4_master_driver] Got READ transaction - addr=0x6d37c4b2, len=125, size=1, burst=1
UVM_INFO ../master/axi4_master_pkg.sv(92) @ 3100000: uvm_test_top.env.master_agent[0].driver [axi4_master_driver] Got READ transaction - addr=0xbfb07a00, len=20, size=2, burst=3
UVM_INFO ../master/axi4_master_pkg.sv(92) @ 3100000: uvm_test_top.env.master_agent[1].driver [axi4_master_driver] Got WRITE transaction - addr=0x9e312864, len=169, size=1, burst=3
UVM_INFO ../master/axi4_master_pkg.sv(92) @ 3100000: uvm_test_top.env.master_agent[2].driver [axi4_master_driver] Got WRITE transaction - addr=0x48b73d4a, len=69, size=7, burst=1
UVM_INFO ../master/axi4_master_pkg.sv(92) @ 3100000: uvm_test_top.env.master_agent[3].driver [axi4_master_driver] Got READ transaction - addr=0xbf9f26d7, len=164, size=4, burst=1
UVM_INFO ../master/axi4_master_pkg.sv(92) @ 3100000: uvm_test_top.env.master_agent[4].driver [axi4_master_driver] Got WRITE transaction - addr=0x3f4e8d6e, len=170, size=1, burst=2
UVM_INFO ../master/axi4_master_pkg.sv(92) @ 3100000: uvm_test_top.env.master_agent[5].driver [axi4_master_driver] Got READ transaction - addr=0x541cbf64, len=126, size=2, burst=0
UVM_INFO ../master/axi4_master_pkg.sv(92) @ 3100000: uvm_test_top.env.master_agent[6].driver [axi4_master_driver] Got WRITE transaction - addr=0x8ae2088e, len=108, size=7, burst=1
UVM_INFO ../master/axi4_master_pkg.sv(92) @ 3100000: uvm_test_top.env.master_agent[7].driver [axi4_master_driver] Got READ transaction - addr=0xd5551d82, len=22, size=0, burst=3
UVM_INFO ../master/axi4_master_pkg.sv(92) @ 3100000: uvm_test_top.env.master_agent[8].driver [axi4_master_driver] Got WRITE transaction - addr=0x399bfa12, len=238, size=1, burst=0
UVM_INFO ../master/axi4_master_pkg.sv(92) @ 3200000: uvm_test_top.env.master_agent[8].driver [axi4_master_driver] Got WRITE transaction - addr=0xd904ca77, len=190, size=4, burst=3
UVM_INFO ../master/axi4_master_pkg.sv(92) @ 3200000: uvm_test_top.env.master_agent[7].driver [axi4_master_driver] Got WRITE transaction - addr=0xa3c8d983, len=180, size=0, burst=3
UVM_INFO ../master/axi4_master_pkg.sv(92) @ 3200000: uvm_test_top.env.master_agent[6].driver [axi4_master_driver] Got READ transaction - addr=0x474a26c3, len=128, size=2, burst=2
UVM_INFO ../master/axi4_master_pkg.sv(92) @ 3200000: uvm_test_top.env.master_agent[5].driver [axi4_master_driver] Got WRITE transaction - addr=0x1f5178f0, len=171, size=3, burst=2
UVM_INFO ../master/axi4_master_pkg.sv(92) @ 3200000: uvm_test_top.env.master_agent[4].driver [axi4_master_driver] Got WRITE transaction - addr=0xb3a7de58, len=244, size=2, burst=1
UVM_INFO ../master/axi4_master_pkg.sv(92) @ 3200000: uvm_test_top.env.master_agent[3].driver [axi4_master_driver] Got READ transaction - addr=0xa3e53b69, len=121, size=1, burst=0
UVM_INFO ../master/axi4_master_pkg.sv(92) @ 3200000: uvm_test_top.env.master_agent[2].driver [axi4_master_driver] Got READ transaction - addr=0x4a701b1e, len=96, size=4, burst=1
UVM_INFO ../master/axi4_master_pkg.sv(92) @ 3200000: uvm_test_top.env.master_agent[1].driver [axi4_master_driver] Got WRITE transaction - addr=0x106c19a2, len=236, size=2, burst=3
UVM_INFO ../master/axi4_master_pkg.sv(92) @ 3200000: uvm_test_top.env.master_agent[0].driver [axi4_master_driver] Got READ transaction - addr=0x3a1059dd, len=197, size=4, burst=2
UVM_INFO ../master/axi4_master_pkg.sv(92) @ 3300000: uvm_test_top.env.master_agent[0].driver [axi4_master_driver] Got READ transaction - addr=0x1cdd358f, len=0, size=5, burst=0
UVM_INFO ../master/axi4_master_pkg.sv(92) @ 3300000: uvm_test_top.env.master_agent[1].driver [axi4_master_driver] Got READ transaction - addr=0xca1f4020, len=0, size=6, burst=2
UVM_INFO ../master/axi4_master_pkg.sv(92) @ 3300000: uvm_test_top.env.master_agent[2].driver [axi4_master_driver] Got READ transaction - addr=0xb6a4d35b, len=180, size=6, burst=3
UVM_INFO ../master/axi4_master_pkg.sv(92) @ 3300000: uvm_test_top.env.master_agent[3].driver [axi4_master_driver] Got READ transaction - addr=0x6144d871, len=238, size=0, burst=3
UVM_INFO ../master/axi4_master_pkg.sv(92) @ 3300000: uvm_test_top.env.master_agent[4].driver [axi4_master_driver] Got READ transaction - addr=0xc03cf20b, len=184, size=5, burst=1
UVM_INFO ../master/axi4_master_pkg.sv(92) @ 3300000: uvm_test_top.env.master_agent[5].driver [axi4_master_driver] Got READ transaction - addr=0x26bd1fd9, len=41, size=3, burst=2
UVM_INFO ../master/axi4_master_pkg.sv(92) @ 3300000: uvm_test_top.env.master_agent[6].driver [axi4_master_driver] Got WRITE transaction - addr=0x3a1cce6e, len=119, size=7, burst=0
UVM_INFO ../master/axi4_master_pkg.sv(92) @ 3300000: uvm_test_top.env.master_agent[7].driver [axi4_master_driver] Got WRITE transaction - addr=0x917310fd, len=13, size=5, burst=3
UVM_INFO ../master/axi4_master_pkg.sv(92) @ 3300000: uvm_test_top.env.master_agent[8].driver [axi4_master_driver] Got WRITE transaction - addr=0x9ecf0e94, len=209, size=2, burst=2
UVM_INFO ../master/axi4_master_pkg.sv(92) @ 3400000: uvm_test_top.env.master_agent[8].driver [axi4_master_driver] Got WRITE transaction - addr=0xdf5547bd, len=30, size=4, burst=1
UVM_INFO ../master/axi4_master_pkg.sv(92) @ 3400000: uvm_test_top.env.master_agent[7].driver [axi4_master_driver] Got READ transaction - addr=0x6a476631, len=33, size=3, burst=2
UVM_INFO ../master/axi4_master_pkg.sv(92) @ 3400000: uvm_test_top.env.master_agent[6].driver [axi4_master_driver] Got WRITE transaction - addr=0x4c2576e7, len=148, size=6, burst=0
UVM_INFO ../master/axi4_master_pkg.sv(92) @ 3400000: uvm_test_top.env.master_agent[5].driver [axi4_master_driver] Got WRITE transaction - addr=0x779b5492, len=18, size=7, burst=0
UVM_INFO ../master/axi4_master_pkg.sv(92) @ 3400000: uvm_test_top.env.master_agent[4].driver [axi4_master_driver] Got WRITE transaction - addr=0x4a381402, len=20, size=7, burst=2
UVM_INFO ../master/axi4_master_pkg.sv(92) @ 3400000: uvm_test_top.env.master_agent[3].driver [axi4_master_driver] Got READ transaction - addr=0x1279fa0a, len=172, size=4, burst=3
UVM_INFO ../master/axi4_master_pkg.sv(92) @ 3400000: uvm_test_top.env.master_agent[2].driver [axi4_master_driver] Got READ transaction - addr=0xf745e2ed, len=76, size=2, burst=3
UVM_INFO ../master/axi4_master_pkg.sv(92) @ 3400000: uvm_test_top.env.master_agent[1].driver [axi4_master_driver] Got WRITE transaction - addr=0xf932a53b, len=45, size=0, burst=0
UVM_INFO ../master/axi4_master_pkg.sv(92) @ 3400000: uvm_test_top.env.master_agent[0].driver [axi4_master_driver] Got READ transaction - addr=0x584cbb42, len=121, size=1, burst=1
UVM_INFO ../master/axi4_master_pkg.sv(92) @ 3500000: uvm_test_top.env.master_agent[0].driver [axi4_master_driver] Got READ transaction - addr=0x6ea1a3c4, len=2, size=7, burst=3
UVM_INFO ../master/axi4_master_pkg.sv(92) @ 3500000: uvm_test_top.env.master_agent[1].driver [axi4_master_driver] Got READ transaction - addr=0xfac739cf, len=81, size=7, burst=0
UVM_INFO ../master/axi4_master_pkg.sv(92) @ 3500000: uvm_test_top.env.master_agent[2].driver [axi4_master_driver] Got READ transaction - addr=0x2fc45e3a, len=234, size=1, burst=3
UVM_INFO ../master/axi4_master_pkg.sv(92) @ 3500000: uvm_test_top.env.master_agent[3].driver [axi4_master_driver] Got WRITE transaction - addr=0x5480998a, len=92, size=1, burst=2
UVM_INFO ../master/axi4_master_pkg.sv(92) @ 3500000: uvm_test_top.env.master_agent[4].driver [axi4_master_driver] Got READ transaction - addr=0x893ea1b9, len=100, size=7, burst=0
UVM_INFO ../master/axi4_master_pkg.sv(92) @ 3500000: uvm_test_top.env.master_agent[5].driver [axi4_master_driver] Got READ transaction - addr=0xfca5c90b, len=175, size=7, burst=0
UVM_INFO ../master/axi4_master_pkg.sv(92) @ 3500000: uvm_test_top.env.master_agent[6].driver [axi4_master_driver] Got WRITE transaction - addr=0x6200433a, len=249, size=0, burst=1
UVM_INFO ../master/axi4_master_pkg.sv(92) @ 3500000: uvm_test_top.env.master_agent[7].driver [axi4_master_driver] Got WRITE transaction - addr=0xd843f76b, len=106, size=0, burst=1
UVM_INFO ../master/axi4_master_pkg.sv(92) @ 3500000: uvm_test_top.env.master_agent[8].driver [axi4_master_driver] Got READ transaction - addr=0xfc96b325, len=20, size=4, burst=2
UVM_INFO ../master/axi4_master_pkg.sv(92) @ 3600000: uvm_test_top.env.master_agent[8].driver [axi4_master_driver] Got READ transaction - addr=0xe4d40297, len=26, size=5, burst=2
UVM_INFO ../master/axi4_master_pkg.sv(92) @ 3600000: uvm_test_top.env.master_agent[7].driver [axi4_master_driver] Got READ transaction - addr=0xa57b989c, len=53, size=4, burst=2
UVM_INFO ../master/axi4_master_pkg.sv(92) @ 3600000: uvm_test_top.env.master_agent[6].driver [axi4_master_driver] Got WRITE transaction - addr=0x73f36591, len=231, size=7, burst=2
UVM_INFO ../master/axi4_master_pkg.sv(92) @ 3600000: uvm_test_top.env.master_agent[5].driver [axi4_master_driver] Got WRITE transaction - addr=0x21b74244, len=0, size=1, burst=2
