Command: /home/timtim01/eda_test/project/gen_amba_2025/9x9_vip/axi4_vip_env_rtl_integration/sim/./simv +UVM_TESTNAME=axi4_stress_test +UVM_TIMEOUT=1000us -l ./logs/axi4_stress_test_1.log
Chronologic VCS simulator copyright 1991-2024
Contains Synopsys proprietary information.
Compiler version W-2024.09-SP1_Full64; Runtime version W-2024.09-SP1_Full64;  Aug  4 16:33 2025
UVM_INFO /home/eda_tools/synopsys/vcs/W-2024.09-SP1//etc/uvm-1.2/base/uvm_root.svh(402) @ 0: reporter [UVM/RELNOTES] 
----------------------------------------------------------------
UVM-1.2.Synopsys
(C) 2007-2014 Mentor Graphics Corporation
(C) 2007-2014 Cadence Design Systems, Inc.
(C) 2006-2014 Synopsys, Inc.
(C) 2011-2013 Cypress Semiconductor Corp.
(C) 2013-2014 NVIDIA Corporation
----------------------------------------------------------------

  ***********       IMPORTANT RELEASE NOTES         ************

  You are using a version of the UVM library that has been compiled
  with `UVM_OBJECT_DO_NOT_NEED_CONSTRUCTOR undefined.
  See http://www.eda.org/svdb/view.php?id=3770 for more details.

      (Specify +UVM_NO_RELNOTES to turn off this notice)

UVM_INFO ../agent/master_agent_bfm/axi4_master_driver_bfm.sv(259) @ 0: reporter [AXI_MASTER_DRIVER_BFM] Master BFM signals initialized
UVM_INFO ../agent/master_agent_bfm/axi4_master_driver_bfm.sv(269) @ 0: reporter [AXI_MASTER_DRIVER_BFM] Enabling BFM driving for signal visibility
UVM_INFO ../agent/master_agent_bfm/axi4_master_driver_bfm.sv(259) @ 0: reporter [AXI_MASTER_DRIVER_BFM] Master BFM signals initialized
UVM_INFO ../agent/master_agent_bfm/axi4_master_driver_bfm.sv(269) @ 0: reporter [AXI_MASTER_DRIVER_BFM] Enabling BFM driving for signal visibility
UVM_INFO ../agent/master_agent_bfm/axi4_master_driver_bfm.sv(259) @ 0: reporter [AXI_MASTER_DRIVER_BFM] Master BFM signals initialized
UVM_INFO ../agent/master_agent_bfm/axi4_master_driver_bfm.sv(269) @ 0: reporter [AXI_MASTER_DRIVER_BFM] Enabling BFM driving for signal visibility
UVM_INFO ../agent/master_agent_bfm/axi4_master_driver_bfm.sv(259) @ 0: reporter [AXI_MASTER_DRIVER_BFM] Master BFM signals initialized
UVM_INFO ../agent/master_agent_bfm/axi4_master_driver_bfm.sv(269) @ 0: reporter [AXI_MASTER_DRIVER_BFM] Enabling BFM driving for signal visibility
UVM_INFO ../agent/master_agent_bfm/axi4_master_driver_bfm.sv(259) @ 0: reporter [AXI_MASTER_DRIVER_BFM] Master BFM signals initialized
UVM_INFO ../agent/master_agent_bfm/axi4_master_driver_bfm.sv(269) @ 0: reporter [AXI_MASTER_DRIVER_BFM] Enabling BFM driving for signal visibility
UVM_INFO ../agent/master_agent_bfm/axi4_master_driver_bfm.sv(259) @ 0: reporter [AXI_MASTER_DRIVER_BFM] Master BFM signals initialized
UVM_INFO ../agent/master_agent_bfm/axi4_master_driver_bfm.sv(269) @ 0: reporter [AXI_MASTER_DRIVER_BFM] Enabling BFM driving for signal visibility
UVM_INFO ../agent/master_agent_bfm/axi4_master_driver_bfm.sv(259) @ 0: reporter [AXI_MASTER_DRIVER_BFM] Master BFM signals initialized
UVM_INFO ../agent/master_agent_bfm/axi4_master_driver_bfm.sv(269) @ 0: reporter [AXI_MASTER_DRIVER_BFM] Enabling BFM driving for signal visibility
UVM_INFO ../agent/master_agent_bfm/axi4_master_driver_bfm.sv(259) @ 0: reporter [AXI_MASTER_DRIVER_BFM] Master BFM signals initialized
UVM_INFO ../agent/master_agent_bfm/axi4_master_driver_bfm.sv(269) @ 0: reporter [AXI_MASTER_DRIVER_BFM] Enabling BFM driving for signal visibility
UVM_INFO ../agent/master_agent_bfm/axi4_master_driver_bfm.sv(259) @ 0: reporter [AXI_MASTER_DRIVER_BFM] Master BFM signals initialized
UVM_INFO ../agent/master_agent_bfm/axi4_master_driver_bfm.sv(269) @ 0: reporter [AXI_MASTER_DRIVER_BFM] Enabling BFM driving for signal visibility
UVM_INFO ../agent/slave_agent_bfm/axi4_slave_driver_bfm.sv(265) @ 0: reporter [AXI_SLAVE_DRIVER_BFM] Slave BFM signals initialized
UVM_INFO ../agent/slave_agent_bfm/axi4_slave_driver_bfm.sv(265) @ 0: reporter [AXI_SLAVE_DRIVER_BFM] Slave BFM signals initialized
UVM_INFO ../agent/slave_agent_bfm/axi4_slave_driver_bfm.sv(265) @ 0: reporter [AXI_SLAVE_DRIVER_BFM] Slave BFM signals initialized
UVM_INFO ../agent/slave_agent_bfm/axi4_slave_driver_bfm.sv(265) @ 0: reporter [AXI_SLAVE_DRIVER_BFM] Slave BFM signals initialized
UVM_INFO ../agent/slave_agent_bfm/axi4_slave_driver_bfm.sv(265) @ 0: reporter [AXI_SLAVE_DRIVER_BFM] Slave BFM signals initialized
UVM_INFO ../agent/slave_agent_bfm/axi4_slave_driver_bfm.sv(265) @ 0: reporter [AXI_SLAVE_DRIVER_BFM] Slave BFM signals initialized
UVM_INFO ../agent/slave_agent_bfm/axi4_slave_driver_bfm.sv(265) @ 0: reporter [AXI_SLAVE_DRIVER_BFM] Slave BFM signals initialized
UVM_INFO ../agent/slave_agent_bfm/axi4_slave_driver_bfm.sv(265) @ 0: reporter [AXI_SLAVE_DRIVER_BFM] Slave BFM signals initialized
UVM_INFO ../agent/slave_agent_bfm/axi4_slave_driver_bfm.sv(265) @ 0: reporter [AXI_SLAVE_DRIVER_BFM] Slave BFM signals initialized
[0] HDL Top: BFMs instantiated and connected
[0] HDL Top: 9 Master BFMs connected to axi_if interfaces
[0] HDL Top: 9 Slave BFMs connected to slave_if interfaces
[0] HDL Top: Signal driving is now handled by BFMs
UVM_INFO @ 0: reporter [RNTST] Running test axi4_stress_test...
UVM_INFO ../agent/master_agent_bfm/axi4_master_driver_bfm.sv(29) @ 0: reporter [AXI_MASTER_DRIVER_BFM] Starting AXI transaction generation for waveform visibility
UVM_INFO ../agent/master_agent_bfm/axi4_master_driver_bfm.sv(29) @ 0: reporter [AXI_MASTER_DRIVER_BFM] Starting AXI transaction generation for waveform visibility
UVM_INFO ../agent/master_agent_bfm/axi4_master_driver_bfm.sv(29) @ 0: reporter [AXI_MASTER_DRIVER_BFM] Starting AXI transaction generation for waveform visibility
UVM_INFO ../agent/master_agent_bfm/axi4_master_driver_bfm.sv(29) @ 0: reporter [AXI_MASTER_DRIVER_BFM] Starting AXI transaction generation for waveform visibility
UVM_INFO ../agent/master_agent_bfm/axi4_master_driver_bfm.sv(29) @ 0: reporter [AXI_MASTER_DRIVER_BFM] Starting AXI transaction generation for waveform visibility
UVM_INFO ../agent/master_agent_bfm/axi4_master_driver_bfm.sv(29) @ 0: reporter [AXI_MASTER_DRIVER_BFM] Starting AXI transaction generation for waveform visibility
UVM_INFO ../agent/master_agent_bfm/axi4_master_driver_bfm.sv(29) @ 0: reporter [AXI_MASTER_DRIVER_BFM] Starting AXI transaction generation for waveform visibility
UVM_INFO ../agent/master_agent_bfm/axi4_master_driver_bfm.sv(29) @ 0: reporter [AXI_MASTER_DRIVER_BFM] Starting AXI transaction generation for waveform visibility
UVM_INFO ../agent/master_agent_bfm/axi4_master_driver_bfm.sv(29) @ 0: reporter [AXI_MASTER_DRIVER_BFM] Starting AXI transaction generation for waveform visibility
UVM_INFO @ 0: reporter [TIMOUTSET] '+UVM_TIMEOUT=1000us' provided on the command line is being applied.
UVM_INFO ../test/axi4_base_test.sv(61) @ 0: uvm_test_top [axi4_stress_test] Configured slave address ranges
UVM_INFO ../env/axi4_protocol_coverage.sv(19) @ 0: uvm_test_top.env.coverage [axi4_protocol_coverage] Protocol coverage build phase
UVM_INFO ../master/axi4_master_pkg.sv(221) @ 0: uvm_test_top.env.master_agent[0] [axi4_master_agent] Building master agent components
UVM_INFO ../master/axi4_master_pkg.sv(227) @ 0: uvm_test_top.env.master_agent[0] [axi4_master_agent] Master agent mode:  ACTIVE
UVM_INFO ../master/axi4_master_pkg.sv(221) @ 0: uvm_test_top.env.master_agent[1] [axi4_master_agent] Building master agent components
UVM_INFO ../master/axi4_master_pkg.sv(227) @ 0: uvm_test_top.env.master_agent[1] [axi4_master_agent] Master agent mode:  ACTIVE
UVM_INFO ../master/axi4_master_pkg.sv(221) @ 0: uvm_test_top.env.master_agent[2] [axi4_master_agent] Building master agent components
UVM_INFO ../master/axi4_master_pkg.sv(227) @ 0: uvm_test_top.env.master_agent[2] [axi4_master_agent] Master agent mode:  ACTIVE
UVM_INFO ../master/axi4_master_pkg.sv(221) @ 0: uvm_test_top.env.master_agent[3] [axi4_master_agent] Building master agent components
UVM_INFO ../master/axi4_master_pkg.sv(227) @ 0: uvm_test_top.env.master_agent[3] [axi4_master_agent] Master agent mode:  ACTIVE
UVM_INFO ../master/axi4_master_pkg.sv(221) @ 0: uvm_test_top.env.master_agent[4] [axi4_master_agent] Building master agent components
UVM_INFO ../master/axi4_master_pkg.sv(227) @ 0: uvm_test_top.env.master_agent[4] [axi4_master_agent] Master agent mode:  ACTIVE
UVM_INFO ../master/axi4_master_pkg.sv(221) @ 0: uvm_test_top.env.master_agent[5] [axi4_master_agent] Building master agent components
UVM_INFO ../master/axi4_master_pkg.sv(227) @ 0: uvm_test_top.env.master_agent[5] [axi4_master_agent] Master agent mode:  ACTIVE
UVM_INFO ../master/axi4_master_pkg.sv(221) @ 0: uvm_test_top.env.master_agent[6] [axi4_master_agent] Building master agent components
UVM_INFO ../master/axi4_master_pkg.sv(227) @ 0: uvm_test_top.env.master_agent[6] [axi4_master_agent] Master agent mode:  ACTIVE
UVM_INFO ../master/axi4_master_pkg.sv(221) @ 0: uvm_test_top.env.master_agent[7] [axi4_master_agent] Building master agent components
UVM_INFO ../master/axi4_master_pkg.sv(227) @ 0: uvm_test_top.env.master_agent[7] [axi4_master_agent] Master agent mode:  ACTIVE
UVM_INFO ../master/axi4_master_pkg.sv(221) @ 0: uvm_test_top.env.master_agent[8] [axi4_master_agent] Building master agent components
UVM_INFO ../master/axi4_master_pkg.sv(227) @ 0: uvm_test_top.env.master_agent[8] [axi4_master_agent] Master agent mode:  ACTIVE
UVM_INFO ../slave/axi4_slave_pkg.sv(108) @ 0: uvm_test_top.env.slave_agent[0] [axi4_slave_agent] Building slave agent components
UVM_INFO ../slave/axi4_slave_pkg.sv(114) @ 0: uvm_test_top.env.slave_agent[0] [axi4_slave_agent] Slave agent mode:  ACTIVE
UVM_INFO ../slave/axi4_slave_pkg.sv(108) @ 0: uvm_test_top.env.slave_agent[1] [axi4_slave_agent] Building slave agent components
UVM_INFO ../slave/axi4_slave_pkg.sv(114) @ 0: uvm_test_top.env.slave_agent[1] [axi4_slave_agent] Slave agent mode:  ACTIVE
UVM_INFO ../slave/axi4_slave_pkg.sv(108) @ 0: uvm_test_top.env.slave_agent[2] [axi4_slave_agent] Building slave agent components
UVM_INFO ../slave/axi4_slave_pkg.sv(114) @ 0: uvm_test_top.env.slave_agent[2] [axi4_slave_agent] Slave agent mode:  ACTIVE
UVM_INFO ../slave/axi4_slave_pkg.sv(108) @ 0: uvm_test_top.env.slave_agent[3] [axi4_slave_agent] Building slave agent components
UVM_INFO ../slave/axi4_slave_pkg.sv(114) @ 0: uvm_test_top.env.slave_agent[3] [axi4_slave_agent] Slave agent mode:  ACTIVE
UVM_INFO ../slave/axi4_slave_pkg.sv(108) @ 0: uvm_test_top.env.slave_agent[4] [axi4_slave_agent] Building slave agent components
UVM_INFO ../slave/axi4_slave_pkg.sv(114) @ 0: uvm_test_top.env.slave_agent[4] [axi4_slave_agent] Slave agent mode:  ACTIVE
UVM_INFO ../slave/axi4_slave_pkg.sv(108) @ 0: uvm_test_top.env.slave_agent[5] [axi4_slave_agent] Building slave agent components
UVM_INFO ../slave/axi4_slave_pkg.sv(114) @ 0: uvm_test_top.env.slave_agent[5] [axi4_slave_agent] Slave agent mode:  ACTIVE
UVM_INFO ../slave/axi4_slave_pkg.sv(108) @ 0: uvm_test_top.env.slave_agent[6] [axi4_slave_agent] Building slave agent components
UVM_INFO ../slave/axi4_slave_pkg.sv(114) @ 0: uvm_test_top.env.slave_agent[6] [axi4_slave_agent] Slave agent mode:  ACTIVE
UVM_INFO ../slave/axi4_slave_pkg.sv(108) @ 0: uvm_test_top.env.slave_agent[7] [axi4_slave_agent] Building slave agent components
UVM_INFO ../slave/axi4_slave_pkg.sv(114) @ 0: uvm_test_top.env.slave_agent[7] [axi4_slave_agent] Slave agent mode:  ACTIVE
UVM_INFO ../slave/axi4_slave_pkg.sv(108) @ 0: uvm_test_top.env.slave_agent[8] [axi4_slave_agent] Building slave agent components
UVM_INFO ../slave/axi4_slave_pkg.sv(114) @ 0: uvm_test_top.env.slave_agent[8] [axi4_slave_agent] Slave agent mode:  ACTIVE
UVM_INFO ../master/axi4_master_pkg.sv(241) @ 0: uvm_test_top.env.master_agent[0] [axi4_master_agent] Connecting master agent components
UVM_INFO ../master/axi4_master_pkg.sv(241) @ 0: uvm_test_top.env.master_agent[1] [axi4_master_agent] Connecting master agent components
UVM_INFO ../master/axi4_master_pkg.sv(241) @ 0: uvm_test_top.env.master_agent[2] [axi4_master_agent] Connecting master agent components
UVM_INFO ../master/axi4_master_pkg.sv(241) @ 0: uvm_test_top.env.master_agent[3] [axi4_master_agent] Connecting master agent components
UVM_INFO ../master/axi4_master_pkg.sv(241) @ 0: uvm_test_top.env.master_agent[4] [axi4_master_agent] Connecting master agent components
UVM_INFO ../master/axi4_master_pkg.sv(241) @ 0: uvm_test_top.env.master_agent[5] [axi4_master_agent] Connecting master agent components
UVM_INFO ../master/axi4_master_pkg.sv(241) @ 0: uvm_test_top.env.master_agent[6] [axi4_master_agent] Connecting master agent components
UVM_INFO ../master/axi4_master_pkg.sv(241) @ 0: uvm_test_top.env.master_agent[7] [axi4_master_agent] Connecting master agent components
UVM_INFO ../master/axi4_master_pkg.sv(241) @ 0: uvm_test_top.env.master_agent[8] [axi4_master_agent] Connecting master agent components
UVM_INFO ../slave/axi4_slave_pkg.sv(128) @ 0: uvm_test_top.env.slave_agent[0] [axi4_slave_agent] Connecting slave agent components
UVM_INFO ../slave/axi4_slave_pkg.sv(128) @ 0: uvm_test_top.env.slave_agent[1] [axi4_slave_agent] Connecting slave agent components
UVM_INFO ../slave/axi4_slave_pkg.sv(128) @ 0: uvm_test_top.env.slave_agent[2] [axi4_slave_agent] Connecting slave agent components
UVM_INFO ../slave/axi4_slave_pkg.sv(128) @ 0: uvm_test_top.env.slave_agent[3] [axi4_slave_agent] Connecting slave agent components
UVM_INFO ../slave/axi4_slave_pkg.sv(128) @ 0: uvm_test_top.env.slave_agent[4] [axi4_slave_agent] Connecting slave agent components
UVM_INFO ../slave/axi4_slave_pkg.sv(128) @ 0: uvm_test_top.env.slave_agent[5] [axi4_slave_agent] Connecting slave agent components
UVM_INFO ../slave/axi4_slave_pkg.sv(128) @ 0: uvm_test_top.env.slave_agent[6] [axi4_slave_agent] Connecting slave agent components
UVM_INFO ../slave/axi4_slave_pkg.sv(128) @ 0: uvm_test_top.env.slave_agent[7] [axi4_slave_agent] Connecting slave agent components
UVM_INFO ../slave/axi4_slave_pkg.sv(128) @ 0: uvm_test_top.env.slave_agent[8] [axi4_slave_agent] Connecting slave agent components
UVM_INFO /home/eda_tools/synopsys/vcs/W-2024.09-SP1//etc/uvm-1.2/base/uvm_root.svh(589) @ 0: reporter [UVMTOP] UVM testbench topology:
--------------------------------------------------------------------
Name                         Type                        Size  Value
--------------------------------------------------------------------
uvm_test_top                 axi4_stress_test            -     @394 
  env                        axi4_env                    -     @452 
    coverage                 axi4_protocol_coverage      -     @793 
    master_agent[0]          axi4_master_agent           -     @485 
      driver                 axi4_master_driver          -     @947 
        rsp_port             uvm_analysis_port           -     @966 
        seq_item_port        uvm_seq_item_pull_port      -     @956 
      monitor                axi4_master_monitor         -     @976 
        item_collected_port  uvm_analysis_port           -     @985 
      sequencer              axi4_master_sequencer       -     @810 
        rsp_export           uvm_analysis_export         -     @819 
        seq_item_export      uvm_seq_item_pull_imp       -     @937 
        arbitration_queue    array                       0     -    
        lock_queue           array                       0     -    
        num_last_reqs        integral                    32    'd1  
        num_last_rsps        integral                    32    'd1  
    master_agent[1]          axi4_master_agent           -     @494 
      driver                 axi4_master_driver          -     @1138
        rsp_port             uvm_analysis_port           -     @1157
        seq_item_port        uvm_seq_item_pull_port      -     @1147
      monitor                axi4_master_monitor         -     @1167
        item_collected_port  uvm_analysis_port           -     @1176
      sequencer              axi4_master_sequencer       -     @1001
        rsp_export           uvm_analysis_export         -     @1010
        seq_item_export      uvm_seq_item_pull_imp       -     @1128
        arbitration_queue    array                       0     -    
        lock_queue           array                       0     -    
        num_last_reqs        integral                    32    'd1  
        num_last_rsps        integral                    32    'd1  
    master_agent[2]          axi4_master_agent           -     @503 
      driver                 axi4_master_driver          -     @1329
        rsp_port             uvm_analysis_port           -     @1348
        seq_item_port        uvm_seq_item_pull_port      -     @1338
      monitor                axi4_master_monitor         -     @1358
        item_collected_port  uvm_analysis_port           -     @1367
      sequencer              axi4_master_sequencer       -     @1192
        rsp_export           uvm_analysis_export         -     @1201
        seq_item_export      uvm_seq_item_pull_imp       -     @1319
        arbitration_queue    array                       0     -    
        lock_queue           array                       0     -    
        num_last_reqs        integral                    32    'd1  
        num_last_rsps        integral                    32    'd1  
    master_agent[3]          axi4_master_agent           -     @512 
      driver                 axi4_master_driver          -     @1520
        rsp_port             uvm_analysis_port           -     @1539
        seq_item_port        uvm_seq_item_pull_port      -     @1529
      monitor                axi4_master_monitor         -     @1549
        item_collected_port  uvm_analysis_port           -     @1558
      sequencer              axi4_master_sequencer       -     @1383
        rsp_export           uvm_analysis_export         -     @1392
        seq_item_export      uvm_seq_item_pull_imp       -     @1510
        arbitration_queue    array                       0     -    
        lock_queue           array                       0     -    
        num_last_reqs        integral                    32    'd1  
        num_last_rsps        integral                    32    'd1  
    master_agent[4]          axi4_master_agent           -     @521 
      driver                 axi4_master_driver          -     @1711
        rsp_port             uvm_analysis_port           -     @1730
        seq_item_port        uvm_seq_item_pull_port      -     @1720
      monitor                axi4_master_monitor         -     @1740
        item_collected_port  uvm_analysis_port           -     @1749
      sequencer              axi4_master_sequencer       -     @1574
        rsp_export           uvm_analysis_export         -     @1583
        seq_item_export      uvm_seq_item_pull_imp       -     @1701
        arbitration_queue    array                       0     -    
        lock_queue           array                       0     -    
        num_last_reqs        integral                    32    'd1  
        num_last_rsps        integral                    32    'd1  
    master_agent[5]          axi4_master_agent           -     @530 
      driver                 axi4_master_driver          -     @1902
        rsp_port             uvm_analysis_port           -     @1921
        seq_item_port        uvm_seq_item_pull_port      -     @1911
      monitor                axi4_master_monitor         -     @1931
        item_collected_port  uvm_analysis_port           -     @1940
      sequencer              axi4_master_sequencer       -     @1765
        rsp_export           uvm_analysis_export         -     @1774
        seq_item_export      uvm_seq_item_pull_imp       -     @1892
        arbitration_queue    array                       0     -    
        lock_queue           array                       0     -    
        num_last_reqs        integral                    32    'd1  
        num_last_rsps        integral                    32    'd1  
    master_agent[6]          axi4_master_agent           -     @539 
      driver                 axi4_master_driver          -     @2093
        rsp_port             uvm_analysis_port           -     @2112
        seq_item_port        uvm_seq_item_pull_port      -     @2102
      monitor                axi4_master_monitor         -     @2122
        item_collected_port  uvm_analysis_port           -     @2131
      sequencer              axi4_master_sequencer       -     @1956
        rsp_export           uvm_analysis_export         -     @1965
        seq_item_export      uvm_seq_item_pull_imp       -     @2083
        arbitration_queue    array                       0     -    
        lock_queue           array                       0     -    
        num_last_reqs        integral                    32    'd1  
        num_last_rsps        integral                    32    'd1  
    master_agent[7]          axi4_master_agent           -     @548 
      driver                 axi4_master_driver          -     @2284
        rsp_port             uvm_analysis_port           -     @2303
        seq_item_port        uvm_seq_item_pull_port      -     @2293
      monitor                axi4_master_monitor         -     @2313
        item_collected_port  uvm_analysis_port           -     @2322
      sequencer              axi4_master_sequencer       -     @2147
        rsp_export           uvm_analysis_export         -     @2156
        seq_item_export      uvm_seq_item_pull_imp       -     @2274
        arbitration_queue    array                       0     -    
        lock_queue           array                       0     -    
        num_last_reqs        integral                    32    'd1  
        num_last_rsps        integral                    32    'd1  
    master_agent[8]          axi4_master_agent           -     @557 
      driver                 axi4_master_driver          -     @2475
        rsp_port             uvm_analysis_port           -     @2494
        seq_item_port        uvm_seq_item_pull_port      -     @2484
      monitor                axi4_master_monitor         -     @2504
        item_collected_port  uvm_analysis_port           -     @2513
      sequencer              axi4_master_sequencer       -     @2338
        rsp_export           uvm_analysis_export         -     @2347
        seq_item_export      uvm_seq_item_pull_imp       -     @2465
        arbitration_queue    array                       0     -    
        lock_queue           array                       0     -    
        num_last_reqs        integral                    32    'd1  
        num_last_rsps        integral                    32    'd1  
    scoreboard               axi4_scoreboard             -     @784 
      master_fifo[0]         uvm_tlm_analysis_fifo #(T)  -     @2523
        analysis_export      uvm_analysis_imp            -     @2572
        get_ap               uvm_analysis_port           -     @2562
        get_peek_export      uvm_get_peek_imp            -     @2542
        put_ap               uvm_analysis_port           -     @2552
        put_export           uvm_put_imp                 -     @2532
      master_fifo[1]         uvm_tlm_analysis_fifo #(T)  -     @2582
        analysis_export      uvm_analysis_imp            -     @2631
        get_ap               uvm_analysis_port           -     @2621
        get_peek_export      uvm_get_peek_imp            -     @2601
        put_ap               uvm_analysis_port           -     @2611
        put_export           uvm_put_imp                 -     @2591
      master_fifo[2]         uvm_tlm_analysis_fifo #(T)  -     @2641
        analysis_export      uvm_analysis_imp            -     @2690
        get_ap               uvm_analysis_port           -     @2680
        get_peek_export      uvm_get_peek_imp            -     @2660
        put_ap               uvm_analysis_port           -     @2670
        put_export           uvm_put_imp                 -     @2650
      master_fifo[3]         uvm_tlm_analysis_fifo #(T)  -     @2700
        analysis_export      uvm_analysis_imp            -     @2749
        get_ap               uvm_analysis_port           -     @2739
        get_peek_export      uvm_get_peek_imp            -     @2719
        put_ap               uvm_analysis_port           -     @2729
        put_export           uvm_put_imp                 -     @2709
      master_fifo[4]         uvm_tlm_analysis_fifo #(T)  -     @2759
        analysis_export      uvm_analysis_imp            -     @2808
        get_ap               uvm_analysis_port           -     @2798
        get_peek_export      uvm_get_peek_imp            -     @2778
        put_ap               uvm_analysis_port           -     @2788
        put_export           uvm_put_imp                 -     @2768
      master_fifo[5]         uvm_tlm_analysis_fifo #(T)  -     @2818
        analysis_export      uvm_analysis_imp            -     @2867
        get_ap               uvm_analysis_port           -     @2857
        get_peek_export      uvm_get_peek_imp            -     @2837
        put_ap               uvm_analysis_port           -     @2847
        put_export           uvm_put_imp                 -     @2827
      master_fifo[6]         uvm_tlm_analysis_fifo #(T)  -     @2877
        analysis_export      uvm_analysis_imp            -     @2926
        get_ap               uvm_analysis_port           -     @2916
        get_peek_export      uvm_get_peek_imp            -     @2896
        put_ap               uvm_analysis_port           -     @2906
        put_export           uvm_put_imp                 -     @2886
      master_fifo[7]         uvm_tlm_analysis_fifo #(T)  -     @2936
        analysis_export      uvm_analysis_imp            -     @2985
        get_ap               uvm_analysis_port           -     @2975
        get_peek_export      uvm_get_peek_imp            -     @2955
        put_ap               uvm_analysis_port           -     @2965
        put_export           uvm_put_imp                 -     @2945
      master_fifo[8]         uvm_tlm_analysis_fifo #(T)  -     @2995
        analysis_export      uvm_analysis_imp            -     @3044
        get_ap               uvm_analysis_port           -     @3034
        get_peek_export      uvm_get_peek_imp            -     @3014
        put_ap               uvm_analysis_port           -     @3024
        put_export           uvm_put_imp                 -     @3004
      slave_fifo[0]          uvm_tlm_analysis_fifo #(T)  -     @3054
        analysis_export      uvm_analysis_imp            -     @3103
        get_ap               uvm_analysis_port           -     @3093
        get_peek_export      uvm_get_peek_imp            -     @3073
        put_ap               uvm_analysis_port           -     @3083
        put_export           uvm_put_imp                 -     @3063
      slave_fifo[1]          uvm_tlm_analysis_fifo #(T)  -     @3113
        analysis_export      uvm_analysis_imp            -     @3162
        get_ap               uvm_analysis_port           -     @3152
        get_peek_export      uvm_get_peek_imp            -     @3132
        put_ap               uvm_analysis_port           -     @3142
        put_export           uvm_put_imp                 -     @3122
      slave_fifo[2]          uvm_tlm_analysis_fifo #(T)  -     @3172
        analysis_export      uvm_analysis_imp            -     @3221
        get_ap               uvm_analysis_port           -     @3211
        get_peek_export      uvm_get_peek_imp            -     @3191
        put_ap               uvm_analysis_port           -     @3201
        put_export           uvm_put_imp                 -     @3181
      slave_fifo[3]          uvm_tlm_analysis_fifo #(T)  -     @3231
        analysis_export      uvm_analysis_imp            -     @3280
        get_ap               uvm_analysis_port           -     @3270
        get_peek_export      uvm_get_peek_imp            -     @3250
        put_ap               uvm_analysis_port           -     @3260
        put_export           uvm_put_imp                 -     @3240
      slave_fifo[4]          uvm_tlm_analysis_fifo #(T)  -     @3290
        analysis_export      uvm_analysis_imp            -     @3339
        get_ap               uvm_analysis_port           -     @3329
        get_peek_export      uvm_get_peek_imp            -     @3309
        put_ap               uvm_analysis_port           -     @3319
        put_export           uvm_put_imp                 -     @3299
      slave_fifo[5]          uvm_tlm_analysis_fifo #(T)  -     @3349
        analysis_export      uvm_analysis_imp            -     @3398
        get_ap               uvm_analysis_port           -     @3388
        get_peek_export      uvm_get_peek_imp            -     @3368
        put_ap               uvm_analysis_port           -     @3378
        put_export           uvm_put_imp                 -     @3358
      slave_fifo[6]          uvm_tlm_analysis_fifo #(T)  -     @3408
        analysis_export      uvm_analysis_imp            -     @3457
        get_ap               uvm_analysis_port           -     @3447
        get_peek_export      uvm_get_peek_imp            -     @3427
        put_ap               uvm_analysis_port           -     @3437
        put_export           uvm_put_imp                 -     @3417
      slave_fifo[7]          uvm_tlm_analysis_fifo #(T)  -     @3467
        analysis_export      uvm_analysis_imp            -     @3516
        get_ap               uvm_analysis_port           -     @3506
        get_peek_export      uvm_get_peek_imp            -     @3486
        put_ap               uvm_analysis_port           -     @3496
        put_export           uvm_put_imp                 -     @3476
      slave_fifo[8]          uvm_tlm_analysis_fifo #(T)  -     @3526
        analysis_export      uvm_analysis_imp            -     @3575
        get_ap               uvm_analysis_port           -     @3565
        get_peek_export      uvm_get_peek_imp            -     @3545
        put_ap               uvm_analysis_port           -     @3555
        put_export           uvm_put_imp                 -     @3535
    slave_agent[0]           axi4_slave_agent            -     @566 
      driver                 axi4_slave_driver           -     @3728
        rsp_port             uvm_analysis_port           -     @3747
        seq_item_port        uvm_seq_item_pull_port      -     @3737
      monitor                axi4_slave_monitor          -     @3757
        item_collected_port  uvm_analysis_port           -     @3766
      sequencer              axi4_slave_sequencer        -     @3591
        rsp_export           uvm_analysis_export         -     @3600
        seq_item_export      uvm_seq_item_pull_imp       -     @3718
        arbitration_queue    array                       0     -    
        lock_queue           array                       0     -    
        num_last_reqs        integral                    32    'd1  
        num_last_rsps        integral                    32    'd1  
    slave_agent[1]           axi4_slave_agent            -     @575 
      driver                 axi4_slave_driver           -     @3919
        rsp_port             uvm_analysis_port           -     @3938
        seq_item_port        uvm_seq_item_pull_port      -     @3928
      monitor                axi4_slave_monitor          -     @3948
        item_collected_port  uvm_analysis_port           -     @3957
      sequencer              axi4_slave_sequencer        -     @3782
        rsp_export           uvm_analysis_export         -     @3791
        seq_item_export      uvm_seq_item_pull_imp       -     @3909
        arbitration_queue    array                       0     -    
        lock_queue           array                       0     -    
        num_last_reqs        integral                    32    'd1  
        num_last_rsps        integral                    32    'd1  
    slave_agent[2]           axi4_slave_agent            -     @584 
      driver                 axi4_slave_driver           -     @4110
        rsp_port             uvm_analysis_port           -     @4129
        seq_item_port        uvm_seq_item_pull_port      -     @4119
      monitor                axi4_slave_monitor          -     @4139
        item_collected_port  uvm_analysis_port           -     @4148
      sequencer              axi4_slave_sequencer        -     @3973
        rsp_export           uvm_analysis_export         -     @3982
        seq_item_export      uvm_seq_item_pull_imp       -     @4100
        arbitration_queue    array                       0     -    
        lock_queue           array                       0     -    
        num_last_reqs        integral                    32    'd1  
        num_last_rsps        integral                    32    'd1  
    slave_agent[3]           axi4_slave_agent            -     @593 
      driver                 axi4_slave_driver           -     @4301
        rsp_port             uvm_analysis_port           -     @4320
        seq_item_port        uvm_seq_item_pull_port      -     @4310
      monitor                axi4_slave_monitor          -     @4330
        item_collected_port  uvm_analysis_port           -     @4339
      sequencer              axi4_slave_sequencer        -     @4164
        rsp_export           uvm_analysis_export         -     @4173
        seq_item_export      uvm_seq_item_pull_imp       -     @4291
        arbitration_queue    array                       0     -    
        lock_queue           array                       0     -    
        num_last_reqs        integral                    32    'd1  
        num_last_rsps        integral                    32    'd1  
    slave_agent[4]           axi4_slave_agent            -     @602 
      driver                 axi4_slave_driver           -     @4492
        rsp_port             uvm_analysis_port           -     @4511
        seq_item_port        uvm_seq_item_pull_port      -     @4501
      monitor                axi4_slave_monitor          -     @4521
        item_collected_port  uvm_analysis_port           -     @4530
      sequencer              axi4_slave_sequencer        -     @4355
        rsp_export           uvm_analysis_export         -     @4364
        seq_item_export      uvm_seq_item_pull_imp       -     @4482
        arbitration_queue    array                       0     -    
        lock_queue           array                       0     -    
        num_last_reqs        integral                    32    'd1  
        num_last_rsps        integral                    32    'd1  
    slave_agent[5]           axi4_slave_agent            -     @611 
      driver                 axi4_slave_driver           -     @4683
        rsp_port             uvm_analysis_port           -     @4702
        seq_item_port        uvm_seq_item_pull_port      -     @4692
      monitor                axi4_slave_monitor          -     @4712
        item_collected_port  uvm_analysis_port           -     @4721
      sequencer              axi4_slave_sequencer        -     @4546
        rsp_export           uvm_analysis_export         -     @4555
        seq_item_export      uvm_seq_item_pull_imp       -     @4673
        arbitration_queue    array                       0     -    
        lock_queue           array                       0     -    
        num_last_reqs        integral                    32    'd1  
        num_last_rsps        integral                    32    'd1  
    slave_agent[6]           axi4_slave_agent            -     @620 
      driver                 axi4_slave_driver           -     @4874
        rsp_port             uvm_analysis_port           -     @4893
        seq_item_port        uvm_seq_item_pull_port      -     @4883
      monitor                axi4_slave_monitor          -     @4903
        item_collected_port  uvm_analysis_port           -     @4912
      sequencer              axi4_slave_sequencer        -     @4737
        rsp_export           uvm_analysis_export         -     @4746
        seq_item_export      uvm_seq_item_pull_imp       -     @4864
        arbitration_queue    array                       0     -    
        lock_queue           array                       0     -    
        num_last_reqs        integral                    32    'd1  
        num_last_rsps        integral                    32    'd1  
    slave_agent[7]           axi4_slave_agent            -     @629 
      driver                 axi4_slave_driver           -     @5065
        rsp_port             uvm_analysis_port           -     @5084
        seq_item_port        uvm_seq_item_pull_port      -     @5074
      monitor                axi4_slave_monitor          -     @5094
        item_collected_port  uvm_analysis_port           -     @5103
      sequencer              axi4_slave_sequencer        -     @4928
        rsp_export           uvm_analysis_export         -     @4937
        seq_item_export      uvm_seq_item_pull_imp       -     @5055
        arbitration_queue    array                       0     -    
        lock_queue           array                       0     -    
        num_last_reqs        integral                    32    'd1  
        num_last_rsps        integral                    32    'd1  
    slave_agent[8]           axi4_slave_agent            -     @638 
      driver                 axi4_slave_driver           -     @5256
        rsp_port             uvm_analysis_port           -     @5275
        seq_item_port        uvm_seq_item_pull_port      -     @5265
      monitor                axi4_slave_monitor          -     @5285
        item_collected_port  uvm_analysis_port           -     @5294
      sequencer              axi4_slave_sequencer        -     @5119
        rsp_export           uvm_analysis_export         -     @5128
        seq_item_export      uvm_seq_item_pull_imp       -     @5246
        arbitration_queue    array                       0     -    
        lock_queue           array                       0     -    
        num_last_reqs        integral                    32    'd1  
        num_last_rsps        integral                    32    'd1  
    v_seqr                   axi4_virtual_sequencer      -     @647 
      rsp_export             uvm_analysis_export         -     @656 
      seq_item_export        uvm_seq_item_pull_imp       -     @774 
      arbitration_queue      array                       0     -    
      lock_queue             array                       0     -    
      num_last_reqs          integral                    32    'd1  
      num_last_rsps          integral                    32    'd1  
--------------------------------------------------------------------

UVM_INFO ../master/axi4_master_pkg.sv(87) @ 0: uvm_test_top.env.master_agent[0].driver [axi4_master_driver] Starting master driver run_phase
UVM_INFO ../master/axi4_master_pkg.sv(134) @ 0: uvm_test_top.env.master_agent[0].monitor [axi4_master_monitor] Starting master monitor run_phase
UVM_INFO ../master/axi4_master_pkg.sv(135) @ 0: uvm_test_top.env.master_agent[0].monitor [axi4_master_monitor] Monitoring AXI4 master interface for transactions
UVM_INFO ../master/axi4_master_pkg.sv(87) @ 0: uvm_test_top.env.master_agent[1].driver [axi4_master_driver] Starting master driver run_phase
UVM_INFO ../master/axi4_master_pkg.sv(134) @ 0: uvm_test_top.env.master_agent[1].monitor [axi4_master_monitor] Starting master monitor run_phase
UVM_INFO ../master/axi4_master_pkg.sv(135) @ 0: uvm_test_top.env.master_agent[1].monitor [axi4_master_monitor] Monitoring AXI4 master interface for transactions
UVM_INFO ../master/axi4_master_pkg.sv(87) @ 0: uvm_test_top.env.master_agent[2].driver [axi4_master_driver] Starting master driver run_phase
UVM_INFO ../master/axi4_master_pkg.sv(134) @ 0: uvm_test_top.env.master_agent[2].monitor [axi4_master_monitor] Starting master monitor run_phase
UVM_INFO ../master/axi4_master_pkg.sv(135) @ 0: uvm_test_top.env.master_agent[2].monitor [axi4_master_monitor] Monitoring AXI4 master interface for transactions
UVM_INFO ../master/axi4_master_pkg.sv(87) @ 0: uvm_test_top.env.master_agent[3].driver [axi4_master_driver] Starting master driver run_phase
UVM_INFO ../master/axi4_master_pkg.sv(134) @ 0: uvm_test_top.env.master_agent[3].monitor [axi4_master_monitor] Starting master monitor run_phase
UVM_INFO ../master/axi4_master_pkg.sv(135) @ 0: uvm_test_top.env.master_agent[3].monitor [axi4_master_monitor] Monitoring AXI4 master interface for transactions
UVM_INFO ../master/axi4_master_pkg.sv(87) @ 0: uvm_test_top.env.master_agent[4].driver [axi4_master_driver] Starting master driver run_phase
UVM_INFO ../master/axi4_master_pkg.sv(134) @ 0: uvm_test_top.env.master_agent[4].monitor [axi4_master_monitor] Starting master monitor run_phase
UVM_INFO ../master/axi4_master_pkg.sv(135) @ 0: uvm_test_top.env.master_agent[4].monitor [axi4_master_monitor] Monitoring AXI4 master interface for transactions
UVM_INFO ../master/axi4_master_pkg.sv(87) @ 0: uvm_test_top.env.master_agent[5].driver [axi4_master_driver] Starting master driver run_phase
UVM_INFO ../master/axi4_master_pkg.sv(134) @ 0: uvm_test_top.env.master_agent[5].monitor [axi4_master_monitor] Starting master monitor run_phase
UVM_INFO ../master/axi4_master_pkg.sv(135) @ 0: uvm_test_top.env.master_agent[5].monitor [axi4_master_monitor] Monitoring AXI4 master interface for transactions
UVM_INFO ../master/axi4_master_pkg.sv(87) @ 0: uvm_test_top.env.master_agent[6].driver [axi4_master_driver] Starting master driver run_phase
UVM_INFO ../master/axi4_master_pkg.sv(134) @ 0: uvm_test_top.env.master_agent[6].monitor [axi4_master_monitor] Starting master monitor run_phase
UVM_INFO ../master/axi4_master_pkg.sv(135) @ 0: uvm_test_top.env.master_agent[6].monitor [axi4_master_monitor] Monitoring AXI4 master interface for transactions
UVM_INFO ../master/axi4_master_pkg.sv(87) @ 0: uvm_test_top.env.master_agent[7].driver [axi4_master_driver] Starting master driver run_phase
UVM_INFO ../master/axi4_master_pkg.sv(134) @ 0: uvm_test_top.env.master_agent[7].monitor [axi4_master_monitor] Starting master monitor run_phase
UVM_INFO ../master/axi4_master_pkg.sv(135) @ 0: uvm_test_top.env.master_agent[7].monitor [axi4_master_monitor] Monitoring AXI4 master interface for transactions
UVM_INFO ../master/axi4_master_pkg.sv(87) @ 0: uvm_test_top.env.master_agent[8].driver [axi4_master_driver] Starting master driver run_phase
UVM_INFO ../master/axi4_master_pkg.sv(134) @ 0: uvm_test_top.env.master_agent[8].monitor [axi4_master_monitor] Starting master monitor run_phase
UVM_INFO ../master/axi4_master_pkg.sv(135) @ 0: uvm_test_top.env.master_agent[8].monitor [axi4_master_monitor] Monitoring AXI4 master interface for transactions
UVM_INFO ../slave/axi4_slave_pkg.sv(82) @ 0: uvm_test_top.env.slave_agent[0].monitor [axi4_slave_monitor] Starting slave monitor run_phase
UVM_INFO ../slave/axi4_slave_pkg.sv(83) @ 0: uvm_test_top.env.slave_agent[0].monitor [axi4_slave_monitor] Monitoring AXI4 slave interface for transactions
UVM_INFO ../slave/axi4_slave_pkg.sv(82) @ 0: uvm_test_top.env.slave_agent[1].monitor [axi4_slave_monitor] Starting slave monitor run_phase
UVM_INFO ../slave/axi4_slave_pkg.sv(83) @ 0: uvm_test_top.env.slave_agent[1].monitor [axi4_slave_monitor] Monitoring AXI4 slave interface for transactions
UVM_INFO ../slave/axi4_slave_pkg.sv(82) @ 0: uvm_test_top.env.slave_agent[2].monitor [axi4_slave_monitor] Starting slave monitor run_phase
UVM_INFO ../slave/axi4_slave_pkg.sv(83) @ 0: uvm_test_top.env.slave_agent[2].monitor [axi4_slave_monitor] Monitoring AXI4 slave interface for transactions
UVM_INFO ../slave/axi4_slave_pkg.sv(82) @ 0: uvm_test_top.env.slave_agent[3].monitor [axi4_slave_monitor] Starting slave monitor run_phase
UVM_INFO ../slave/axi4_slave_pkg.sv(83) @ 0: uvm_test_top.env.slave_agent[3].monitor [axi4_slave_monitor] Monitoring AXI4 slave interface for transactions
UVM_INFO ../slave/axi4_slave_pkg.sv(82) @ 0: uvm_test_top.env.slave_agent[4].monitor [axi4_slave_monitor] Starting slave monitor run_phase
UVM_INFO ../slave/axi4_slave_pkg.sv(83) @ 0: uvm_test_top.env.slave_agent[4].monitor [axi4_slave_monitor] Monitoring AXI4 slave interface for transactions
UVM_INFO ../slave/axi4_slave_pkg.sv(82) @ 0: uvm_test_top.env.slave_agent[5].monitor [axi4_slave_monitor] Starting slave monitor run_phase
UVM_INFO ../slave/axi4_slave_pkg.sv(83) @ 0: uvm_test_top.env.slave_agent[5].monitor [axi4_slave_monitor] Monitoring AXI4 slave interface for transactions
UVM_INFO ../slave/axi4_slave_pkg.sv(82) @ 0: uvm_test_top.env.slave_agent[6].monitor [axi4_slave_monitor] Starting slave monitor run_phase
UVM_INFO ../slave/axi4_slave_pkg.sv(83) @ 0: uvm_test_top.env.slave_agent[6].monitor [axi4_slave_monitor] Monitoring AXI4 slave interface for transactions
UVM_INFO ../slave/axi4_slave_pkg.sv(82) @ 0: uvm_test_top.env.slave_agent[7].monitor [axi4_slave_monitor] Starting slave monitor run_phase
UVM_INFO ../slave/axi4_slave_pkg.sv(83) @ 0: uvm_test_top.env.slave_agent[7].monitor [axi4_slave_monitor] Monitoring AXI4 slave interface for transactions
UVM_INFO ../slave/axi4_slave_pkg.sv(82) @ 0: uvm_test_top.env.slave_agent[8].monitor [axi4_slave_monitor] Starting slave monitor run_phase
UVM_INFO ../slave/axi4_slave_pkg.sv(83) @ 0: uvm_test_top.env.slave_agent[8].monitor [axi4_slave_monitor] Monitoring AXI4 slave interface for transactions
UVM_INFO ../test/axi4_stress_test.sv(22) @ 0: uvm_test_top [axi4_stress_test] Starting stress test
UVM_INFO ../master/axi4_master_pkg.sv(155) @ 0: uvm_test_top.env.master_agent[0].monitor [axi4_master_monitor] Starting synthetic transaction generation for throughput testing
UVM_INFO ../master/axi4_master_pkg.sv(155) @ 0: uvm_test_top.env.master_agent[1].monitor [axi4_master_monitor] Starting synthetic transaction generation for throughput testing
UVM_INFO ../master/axi4_master_pkg.sv(155) @ 0: uvm_test_top.env.master_agent[2].monitor [axi4_master_monitor] Starting synthetic transaction generation for throughput testing
UVM_INFO ../master/axi4_master_pkg.sv(155) @ 0: uvm_test_top.env.master_agent[3].monitor [axi4_master_monitor] Starting synthetic transaction generation for throughput testing
UVM_INFO ../master/axi4_master_pkg.sv(155) @ 0: uvm_test_top.env.master_agent[4].monitor [axi4_master_monitor] Starting synthetic transaction generation for throughput testing
UVM_INFO ../master/axi4_master_pkg.sv(155) @ 0: uvm_test_top.env.master_agent[5].monitor [axi4_master_monitor] Starting synthetic transaction generation for throughput testing
UVM_INFO ../master/axi4_master_pkg.sv(155) @ 0: uvm_test_top.env.master_agent[6].monitor [axi4_master_monitor] Starting synthetic transaction generation for throughput testing
UVM_INFO ../master/axi4_master_pkg.sv(155) @ 0: uvm_test_top.env.master_agent[7].monitor [axi4_master_monitor] Starting synthetic transaction generation for throughput testing
UVM_INFO ../master/axi4_master_pkg.sv(155) @ 0: uvm_test_top.env.master_agent[8].monitor [axi4_master_monitor] Starting synthetic transaction generation for throughput testing
UVM_INFO ../virtual_seq/axi4_virtual_stress_seq.sv(24) @ 0: uvm_test_top.env.v_seqr@@stress_seq [axi4_virtual_stress_seq] Starting virtual stress sequence
UVM_INFO ../master/axi4_master_pkg.sv(92) @ 0: uvm_test_top.env.master_agent[8].driver [axi4_master_driver] Got WRITE transaction - addr=0xdabeab6a, len=239, size=7, burst=2
UVM_INFO ../master/axi4_master_pkg.sv(92) @ 0: uvm_test_top.env.master_agent[7].driver [axi4_master_driver] Got READ transaction - addr=0xb0c9ded9, len=227, size=1, burst=3
UVM_INFO ../master/axi4_master_pkg.sv(92) @ 0: uvm_test_top.env.master_agent[6].driver [axi4_master_driver] Got READ transaction - addr=0x76f1ec4e, len=73, size=4, burst=3
UVM_INFO ../master/axi4_master_pkg.sv(92) @ 0: uvm_test_top.env.master_agent[5].driver [axi4_master_driver] Got READ transaction - addr=0x259d3794, len=96, size=0, burst=3
UVM_INFO ../master/axi4_master_pkg.sv(92) @ 0: uvm_test_top.env.master_agent[4].driver [axi4_master_driver] Got WRITE transaction - addr=0xdbdfe509, len=4, size=4, burst=1
UVM_INFO ../master/axi4_master_pkg.sv(92) @ 0: uvm_test_top.env.master_agent[3].driver [axi4_master_driver] Got READ transaction - addr=0xe87544a6, len=162, size=4, burst=1
UVM_INFO ../master/axi4_master_pkg.sv(92) @ 0: uvm_test_top.env.master_agent[2].driver [axi4_master_driver] Got WRITE transaction - addr=0x1113c2b7, len=179, size=5, burst=2
UVM_INFO ../master/axi4_master_pkg.sv(92) @ 0: uvm_test_top.env.master_agent[1].driver [axi4_master_driver] Got READ transaction - addr=0x86e1e756, len=39, size=3, burst=3
UVM_INFO ../master/axi4_master_pkg.sv(92) @ 0: uvm_test_top.env.master_agent[0].driver [axi4_master_driver] Got READ transaction - addr=0x201216dd, len=53, size=0, burst=3
UVM_INFO ../master/axi4_master_pkg.sv(92) @ 100000: uvm_test_top.env.master_agent[0].driver [axi4_master_driver] Got READ transaction - addr=0xb2ad560e, len=150, size=3, burst=3
UVM_INFO ../master/axi4_master_pkg.sv(92) @ 100000: uvm_test_top.env.master_agent[1].driver [axi4_master_driver] Got READ transaction - addr=0x77da7e66, len=148, size=3, burst=2
UVM_INFO ../master/axi4_master_pkg.sv(92) @ 100000: uvm_test_top.env.master_agent[2].driver [axi4_master_driver] Got READ transaction - addr=0x90d67c96, len=28, size=4, burst=3
UVM_INFO ../master/axi4_master_pkg.sv(92) @ 100000: uvm_test_top.env.master_agent[3].driver [axi4_master_driver] Got WRITE transaction - addr=0xa22aee96, len=69, size=4, burst=2
UVM_INFO ../master/axi4_master_pkg.sv(92) @ 100000: uvm_test_top.env.master_agent[4].driver [axi4_master_driver] Got WRITE transaction - addr=0x94b6a20c, len=46, size=1, burst=2
UVM_INFO ../master/axi4_master_pkg.sv(92) @ 100000: uvm_test_top.env.master_agent[5].driver [axi4_master_driver] Got WRITE transaction - addr=0xbfba6ce2, len=246, size=4, burst=0
UVM_INFO ../master/axi4_master_pkg.sv(92) @ 100000: uvm_test_top.env.master_agent[6].driver [axi4_master_driver] Got WRITE transaction - addr=0xd14a64ca, len=76, size=4, burst=2
UVM_INFO ../master/axi4_master_pkg.sv(92) @ 100000: uvm_test_top.env.master_agent[7].driver [axi4_master_driver] Got WRITE transaction - addr=0xe83ea380, len=219, size=3, burst=3
UVM_INFO ../master/axi4_master_pkg.sv(92) @ 100000: uvm_test_top.env.master_agent[8].driver [axi4_master_driver] Got READ transaction - addr=0xe34b100e, len=112, size=5, burst=0
UVM_INFO ../agent/slave_agent_bfm/axi4_slave_driver_bfm.sv(35) @ 145000: reporter [AXI_SLAVE_DRIVER_BFM] Starting write transaction handling
UVM_INFO ../agent/slave_agent_bfm/axi4_slave_driver_bfm.sv(48) @ 145000: reporter [AXI_SLAVE_DRIVER_BFM] Starting read transaction handling
UVM_INFO ../agent/slave_agent_bfm/axi4_slave_driver_bfm.sv(35) @ 145000: reporter [AXI_SLAVE_DRIVER_BFM] Starting write transaction handling
UVM_INFO ../agent/slave_agent_bfm/axi4_slave_driver_bfm.sv(48) @ 145000: reporter [AXI_SLAVE_DRIVER_BFM] Starting read transaction handling
UVM_INFO ../agent/slave_agent_bfm/axi4_slave_driver_bfm.sv(35) @ 145000: reporter [AXI_SLAVE_DRIVER_BFM] Starting write transaction handling
UVM_INFO ../agent/slave_agent_bfm/axi4_slave_driver_bfm.sv(48) @ 145000: reporter [AXI_SLAVE_DRIVER_BFM] Starting read transaction handling
UVM_INFO ../agent/slave_agent_bfm/axi4_slave_driver_bfm.sv(35) @ 145000: reporter [AXI_SLAVE_DRIVER_BFM] Starting write transaction handling
UVM_INFO ../agent/slave_agent_bfm/axi4_slave_driver_bfm.sv(48) @ 145000: reporter [AXI_SLAVE_DRIVER_BFM] Starting read transaction handling
UVM_INFO ../agent/slave_agent_bfm/axi4_slave_driver_bfm.sv(35) @ 145000: reporter [AXI_SLAVE_DRIVER_BFM] Starting write transaction handling
UVM_INFO ../agent/slave_agent_bfm/axi4_slave_driver_bfm.sv(48) @ 145000: reporter [AXI_SLAVE_DRIVER_BFM] Starting read transaction handling
UVM_INFO ../agent/slave_agent_bfm/axi4_slave_driver_bfm.sv(35) @ 145000: reporter [AXI_SLAVE_DRIVER_BFM] Starting write transaction handling
UVM_INFO ../agent/slave_agent_bfm/axi4_slave_driver_bfm.sv(48) @ 145000: reporter [AXI_SLAVE_DRIVER_BFM] Starting read transaction handling
UVM_INFO ../agent/slave_agent_bfm/axi4_slave_driver_bfm.sv(35) @ 145000: reporter [AXI_SLAVE_DRIVER_BFM] Starting write transaction handling
UVM_INFO ../agent/slave_agent_bfm/axi4_slave_driver_bfm.sv(48) @ 145000: reporter [AXI_SLAVE_DRIVER_BFM] Starting read transaction handling
UVM_INFO ../agent/slave_agent_bfm/axi4_slave_driver_bfm.sv(35) @ 145000: reporter [AXI_SLAVE_DRIVER_BFM] Starting write transaction handling
UVM_INFO ../agent/slave_agent_bfm/axi4_slave_driver_bfm.sv(48) @ 145000: reporter [AXI_SLAVE_DRIVER_BFM] Starting read transaction handling
UVM_INFO ../agent/slave_agent_bfm/axi4_slave_driver_bfm.sv(35) @ 145000: reporter [AXI_SLAVE_DRIVER_BFM] Starting write transaction handling
UVM_INFO ../agent/slave_agent_bfm/axi4_slave_driver_bfm.sv(48) @ 145000: reporter [AXI_SLAVE_DRIVER_BFM] Starting read transaction handling
UVM_INFO ../master/axi4_master_pkg.sv(92) @ 200000: uvm_test_top.env.master_agent[8].driver [axi4_master_driver] Got WRITE transaction - addr=0xb2b7045f, len=177, size=0, burst=1
UVM_INFO ../master/axi4_master_pkg.sv(92) @ 200000: uvm_test_top.env.master_agent[7].driver [axi4_master_driver] Got WRITE transaction - addr=0x5ac624ac, len=95, size=1, burst=2
UVM_INFO ../master/axi4_master_pkg.sv(92) @ 200000: uvm_test_top.env.master_agent[6].driver [axi4_master_driver] Got WRITE transaction - addr=0xe28c4aaf, len=234, size=7, burst=3
UVM_INFO ../master/axi4_master_pkg.sv(92) @ 200000: uvm_test_top.env.master_agent[5].driver [axi4_master_driver] Got WRITE transaction - addr=0x7ffb20b7, len=235, size=1, burst=3
UVM_INFO ../master/axi4_master_pkg.sv(92) @ 200000: uvm_test_top.env.master_agent[4].driver [axi4_master_driver] Got READ transaction - addr=0xa4de62dd, len=147, size=0, burst=3
UVM_INFO ../master/axi4_master_pkg.sv(92) @ 200000: uvm_test_top.env.master_agent[3].driver [axi4_master_driver] Got READ transaction - addr=0x56b1c11b, len=209, size=5, burst=3
UVM_INFO ../master/axi4_master_pkg.sv(92) @ 200000: uvm_test_top.env.master_agent[2].driver [axi4_master_driver] Got WRITE transaction - addr=0x87f330fc, len=94, size=2, burst=3
UVM_INFO ../master/axi4_master_pkg.sv(92) @ 200000: uvm_test_top.env.master_agent[1].driver [axi4_master_driver] Got READ transaction - addr=0x5c2262ef, len=75, size=7, burst=2
UVM_INFO ../master/axi4_master_pkg.sv(92) @ 200000: uvm_test_top.env.master_agent[0].driver [axi4_master_driver] Got READ transaction - addr=0xa41b2e17, len=206, size=7, burst=3
UVM_INFO ../master/axi4_master_pkg.sv(92) @ 300000: uvm_test_top.env.master_agent[0].driver [axi4_master_driver] Got READ transaction - addr=0xd33f202f, len=240, size=4, burst=1
UVM_INFO ../master/axi4_master_pkg.sv(92) @ 300000: uvm_test_top.env.master_agent[1].driver [axi4_master_driver] Got WRITE transaction - addr=0x7fdf070f, len=241, size=4, burst=2
UVM_INFO ../master/axi4_master_pkg.sv(92) @ 300000: uvm_test_top.env.master_agent[2].driver [axi4_master_driver] Got READ transaction - addr=0x4828466f, len=218, size=4, burst=2
UVM_INFO ../master/axi4_master_pkg.sv(92) @ 300000: uvm_test_top.env.master_agent[3].driver [axi4_master_driver] Got READ transaction - addr=0x4193e0a6, len=42, size=7, burst=0
UVM_INFO ../master/axi4_master_pkg.sv(92) @ 300000: uvm_test_top.env.master_agent[4].driver [axi4_master_driver] Got READ transaction - addr=0x9359da95, len=26, size=0, burst=0
UVM_INFO ../master/axi4_master_pkg.sv(92) @ 300000: uvm_test_top.env.master_agent[5].driver [axi4_master_driver] Got WRITE transaction - addr=0x11515e51, len=90, size=5, burst=2
UVM_INFO ../master/axi4_master_pkg.sv(92) @ 300000: uvm_test_top.env.master_agent[6].driver [axi4_master_driver] Got WRITE transaction - addr=0x7e83132b, len=142, size=1, burst=0
UVM_INFO ../master/axi4_master_pkg.sv(92) @ 300000: uvm_test_top.env.master_agent[7].driver [axi4_master_driver] Got WRITE transaction - addr=0x1b2a7469, len=158, size=7, burst=3
UVM_INFO ../master/axi4_master_pkg.sv(92) @ 300000: uvm_test_top.env.master_agent[8].driver [axi4_master_driver] Got WRITE transaction - addr=0x9389cc27, len=14, size=1, burst=3
UVM_INFO ../agent/master_agent_bfm/axi4_master_driver_bfm.sv(94) @ 335000: reporter [AXI_MASTER_DRIVER_BFM] Write Transaction 1: addr=0x000038a7, len=3, size=0, burst=0, id=9
UVM_INFO ../agent/master_agent_bfm/axi4_master_driver_bfm.sv(94) @ 335000: reporter [AXI_MASTER_DRIVER_BFM] Write Transaction 1: addr=0x000038a7, len=3, size=0, burst=0, id=9
UVM_INFO ../agent/master_agent_bfm/axi4_master_driver_bfm.sv(94) @ 335000: reporter [AXI_MASTER_DRIVER_BFM] Write Transaction 1: addr=0x000038a7, len=3, size=0, burst=0, id=9
UVM_INFO ../agent/master_agent_bfm/axi4_master_driver_bfm.sv(94) @ 335000: reporter [AXI_MASTER_DRIVER_BFM] Write Transaction 1: addr=0x000038a7, len=3, size=0, burst=0, id=9
UVM_INFO ../agent/master_agent_bfm/axi4_master_driver_bfm.sv(94) @ 335000: reporter [AXI_MASTER_DRIVER_BFM] Write Transaction 1: addr=0x000038a7, len=3, size=0, burst=0, id=9
UVM_INFO ../agent/master_agent_bfm/axi4_master_driver_bfm.sv(94) @ 335000: reporter [AXI_MASTER_DRIVER_BFM] Write Transaction 1: addr=0x000038a7, len=3, size=0, burst=0, id=9
UVM_INFO ../agent/master_agent_bfm/axi4_master_driver_bfm.sv(94) @ 335000: reporter [AXI_MASTER_DRIVER_BFM] Write Transaction 1: addr=0x000038a7, len=3, size=0, burst=0, id=9
UVM_INFO ../agent/master_agent_bfm/axi4_master_driver_bfm.sv(94) @ 335000: reporter [AXI_MASTER_DRIVER_BFM] Write Transaction 1: addr=0x000038a7, len=3, size=0, burst=0, id=9
UVM_INFO ../agent/master_agent_bfm/axi4_master_driver_bfm.sv(94) @ 335000: reporter [AXI_MASTER_DRIVER_BFM] Write Transaction 1: addr=0x000038a7, len=3, size=0, burst=0, id=9
UVM_INFO ../master/axi4_master_pkg.sv(92) @ 400000: uvm_test_top.env.master_agent[8].driver [axi4_master_driver] Got WRITE transaction - addr=0x3ef60577, len=46, size=0, burst=2
UVM_INFO ../master/axi4_master_pkg.sv(92) @ 400000: uvm_test_top.env.master_agent[7].driver [axi4_master_driver] Got READ transaction - addr=0xd5b3a9d2, len=102, size=2, burst=1
UVM_INFO ../master/axi4_master_pkg.sv(92) @ 400000: uvm_test_top.env.master_agent[6].driver [axi4_master_driver] Got WRITE transaction - addr=0x5801edd1, len=155, size=2, burst=3
UVM_INFO ../master/axi4_master_pkg.sv(92) @ 400000: uvm_test_top.env.master_agent[5].driver [axi4_master_driver] Got WRITE transaction - addr=0x42a13fd2, len=232, size=0, burst=2
UVM_INFO ../master/axi4_master_pkg.sv(92) @ 400000: uvm_test_top.env.master_agent[4].driver [axi4_master_driver] Got READ transaction - addr=0xa97779c3, len=239, size=0, burst=1
UVM_INFO ../master/axi4_master_pkg.sv(92) @ 400000: uvm_test_top.env.master_agent[3].driver [axi4_master_driver] Got READ transaction - addr=0x69eea544, len=190, size=1, burst=3
UVM_INFO ../master/axi4_master_pkg.sv(92) @ 400000: uvm_test_top.env.master_agent[2].driver [axi4_master_driver] Got READ transaction - addr=0x85cfe082, len=223, size=0, burst=0
UVM_INFO ../master/axi4_master_pkg.sv(92) @ 400000: uvm_test_top.env.master_agent[1].driver [axi4_master_driver] Got WRITE transaction - addr=0xe3bb8932, len=201, size=6, burst=1
UVM_INFO ../master/axi4_master_pkg.sv(92) @ 400000: uvm_test_top.env.master_agent[0].driver [axi4_master_driver] Got WRITE transaction - addr=0x44f8cd10, len=122, size=2, burst=3
UVM_INFO ../agent/master_agent_bfm/axi4_master_driver_bfm.sv(140) @ 435000: reporter [AXI_MASTER_DRIVER_BFM] Write response received for transaction 1, bresp=3
UVM_INFO ../master/axi4_master_pkg.sv(92) @ 500000: uvm_test_top.env.master_agent[0].driver [axi4_master_driver] Got WRITE transaction - addr=0x7405fe7b, len=7, size=2, burst=3
UVM_INFO ../master/axi4_master_pkg.sv(92) @ 500000: uvm_test_top.env.master_agent[1].driver [axi4_master_driver] Got READ transaction - addr=0x46f25427, len=116, size=1, burst=0
UVM_INFO ../master/axi4_master_pkg.sv(92) @ 500000: uvm_test_top.env.master_agent[2].driver [axi4_master_driver] Got READ transaction - addr=0xe974cd24, len=130, size=7, burst=1
UVM_INFO ../master/axi4_master_pkg.sv(92) @ 500000: uvm_test_top.env.master_agent[3].driver [axi4_master_driver] Got WRITE transaction - addr=0x70aed162, len=99, size=5, burst=2
UVM_INFO ../master/axi4_master_pkg.sv(92) @ 500000: uvm_test_top.env.master_agent[4].driver [axi4_master_driver] Got READ transaction - addr=0x1ea245d, len=79, size=0, burst=2
UVM_INFO ../master/axi4_master_pkg.sv(92) @ 500000: uvm_test_top.env.master_agent[5].driver [axi4_master_driver] Got READ transaction - addr=0x72c755e8, len=245, size=0, burst=1
UVM_INFO ../master/axi4_master_pkg.sv(92) @ 500000: uvm_test_top.env.master_agent[6].driver [axi4_master_driver] Got WRITE transaction - addr=0x92ee50ae, len=71, size=0, burst=0
UVM_INFO ../master/axi4_master_pkg.sv(92) @ 500000: uvm_test_top.env.master_agent[7].driver [axi4_master_driver] Got READ transaction - addr=0xfd75fc0c, len=204, size=4, burst=0
UVM_INFO ../master/axi4_master_pkg.sv(92) @ 500000: uvm_test_top.env.master_agent[8].driver [axi4_master_driver] Got WRITE transaction - addr=0x7bb98c93, len=234, size=6, burst=0
UVM_INFO ../agent/master_agent_bfm/axi4_master_driver_bfm.sv(178) @ 585000: reporter [AXI_MASTER_DRIVER_BFM] Read Transaction 1: addr=0x00006436, len=9, size=2, burst=1, id=7
UVM_INFO ../master/axi4_master_pkg.sv(92) @ 600000: uvm_test_top.env.master_agent[8].driver [axi4_master_driver] Got READ transaction - addr=0x6113c3e9, len=194, size=2, burst=3
UVM_INFO ../master/axi4_master_pkg.sv(92) @ 600000: uvm_test_top.env.master_agent[7].driver [axi4_master_driver] Got WRITE transaction - addr=0x49e8a3ee, len=209, size=0, burst=3
UVM_INFO ../master/axi4_master_pkg.sv(92) @ 600000: uvm_test_top.env.master_agent[6].driver [axi4_master_driver] Got READ transaction - addr=0x61596bc, len=99, size=0, burst=2
UVM_INFO ../master/axi4_master_pkg.sv(92) @ 600000: uvm_test_top.env.master_agent[5].driver [axi4_master_driver] Got READ transaction - addr=0xc4dd5fbd, len=35, size=6, burst=3
UVM_INFO ../master/axi4_master_pkg.sv(92) @ 600000: uvm_test_top.env.master_agent[4].driver [axi4_master_driver] Got READ transaction - addr=0x1dbbcfe3, len=56, size=5, burst=3
UVM_INFO ../master/axi4_master_pkg.sv(92) @ 600000: uvm_test_top.env.master_agent[3].driver [axi4_master_driver] Got READ transaction - addr=0x8fb12387, len=102, size=7, burst=1
UVM_INFO ../master/axi4_master_pkg.sv(92) @ 600000: uvm_test_top.env.master_agent[2].driver [axi4_master_driver] Got WRITE transaction - addr=0xb48f635e, len=39, size=1, burst=3
UVM_INFO ../master/axi4_master_pkg.sv(92) @ 600000: uvm_test_top.env.master_agent[1].driver [axi4_master_driver] Got WRITE transaction - addr=0x9ea8f15b, len=225, size=3, burst=0
UVM_INFO ../master/axi4_master_pkg.sv(92) @ 600000: uvm_test_top.env.master_agent[0].driver [axi4_master_driver] Got READ transaction - addr=0x61e4991b, len=125, size=2, burst=0
UVM_INFO ../agent/slave_agent_bfm/axi4_slave_driver_bfm.sv(192) @ 605000: reporter [AXI_SLAVE_DRIVER_BFM] Read address accepted: id=7, addr=0x00006436, len=9
UVM_INFO ../agent/slave_agent_bfm/axi4_slave_driver_bfm.sv(192) @ 605000: reporter [AXI_SLAVE_DRIVER_BFM] Read address accepted: id=7, addr=0x00006436, len=9
UVM_INFO ../agent/slave_agent_bfm/axi4_slave_driver_bfm.sv(192) @ 605000: reporter [AXI_SLAVE_DRIVER_BFM] Read address accepted: id=7, addr=0x00006436, len=9
UVM_INFO ../agent/slave_agent_bfm/axi4_slave_driver_bfm.sv(192) @ 605000: reporter [AXI_SLAVE_DRIVER_BFM] Read address accepted: id=7, addr=0x00006436, len=9
UVM_INFO ../agent/slave_agent_bfm/axi4_slave_driver_bfm.sv(192) @ 605000: reporter [AXI_SLAVE_DRIVER_BFM] Read address accepted: id=7, addr=0x00006436, len=9
UVM_INFO ../agent/slave_agent_bfm/axi4_slave_driver_bfm.sv(192) @ 605000: reporter [AXI_SLAVE_DRIVER_BFM] Read address accepted: id=7, addr=0x00006436, len=9
UVM_INFO ../agent/slave_agent_bfm/axi4_slave_driver_bfm.sv(192) @ 605000: reporter [AXI_SLAVE_DRIVER_BFM] Read address accepted: id=7, addr=0x00006436, len=9
UVM_INFO ../agent/slave_agent_bfm/axi4_slave_driver_bfm.sv(192) @ 605000: reporter [AXI_SLAVE_DRIVER_BFM] Read address accepted: id=7, addr=0x00006436, len=9
UVM_INFO ../agent/slave_agent_bfm/axi4_slave_driver_bfm.sv(192) @ 605000: reporter [AXI_SLAVE_DRIVER_BFM] Read address accepted: id=7, addr=0x00006436, len=9
UVM_INFO ../agent/slave_agent_bfm/axi4_slave_driver_bfm.sv(192) @ 605000: reporter [AXI_SLAVE_DRIVER_BFM] Read address accepted: id=7, addr=0x00006436, len=9
UVM_INFO ../agent/slave_agent_bfm/axi4_slave_driver_bfm.sv(192) @ 605000: reporter [AXI_SLAVE_DRIVER_BFM] Read address accepted: id=7, addr=0x00006436, len=9
UVM_INFO ../agent/slave_agent_bfm/axi4_slave_driver_bfm.sv(192) @ 605000: reporter [AXI_SLAVE_DRIVER_BFM] Read address accepted: id=7, addr=0x00006436, len=9
UVM_INFO ../agent/slave_agent_bfm/axi4_slave_driver_bfm.sv(192) @ 605000: reporter [AXI_SLAVE_DRIVER_BFM] Read address accepted: id=7, addr=0x00006436, len=9
UVM_INFO ../agent/slave_agent_bfm/axi4_slave_driver_bfm.sv(192) @ 605000: reporter [AXI_SLAVE_DRIVER_BFM] Read address accepted: id=7, addr=0x00006436, len=9
UVM_INFO ../agent/slave_agent_bfm/axi4_slave_driver_bfm.sv(192) @ 605000: reporter [AXI_SLAVE_DRIVER_BFM] Read address accepted: id=7, addr=0x00006436, len=9
UVM_INFO ../agent/slave_agent_bfm/axi4_slave_driver_bfm.sv(192) @ 605000: reporter [AXI_SLAVE_DRIVER_BFM] Read address accepted: id=7, addr=0x00006436, len=9
UVM_INFO ../agent/slave_agent_bfm/axi4_slave_driver_bfm.sv(192) @ 605000: reporter [AXI_SLAVE_DRIVER_BFM] Read address accepted: id=7, addr=0x00006436, len=9
UVM_INFO ../agent/slave_agent_bfm/axi4_slave_driver_bfm.sv(192) @ 605000: reporter [AXI_SLAVE_DRIVER_BFM] Read address accepted: id=7, addr=0x00006436, len=9
UVM_INFO ../agent/slave_agent_bfm/axi4_slave_driver_bfm.sv(192) @ 605000: reporter [AXI_SLAVE_DRIVER_BFM] Read address accepted: id=7, addr=0x00006436, len=9
UVM_INFO ../agent/slave_agent_bfm/axi4_slave_driver_bfm.sv(192) @ 605000: reporter [AXI_SLAVE_DRIVER_BFM] Read address accepted: id=7, addr=0x00006436, len=9
UVM_INFO ../agent/slave_agent_bfm/axi4_slave_driver_bfm.sv(192) @ 605000: reporter [AXI_SLAVE_DRIVER_BFM] Read address accepted: id=7, addr=0x00006436, len=9
UVM_INFO ../agent/slave_agent_bfm/axi4_slave_driver_bfm.sv(192) @ 605000: reporter [AXI_SLAVE_DRIVER_BFM] Read address accepted: id=7, addr=0x00006436, len=9
UVM_INFO ../agent/slave_agent_bfm/axi4_slave_driver_bfm.sv(192) @ 605000: reporter [AXI_SLAVE_DRIVER_BFM] Read address accepted: id=7, addr=0x00006436, len=9
UVM_INFO ../agent/slave_agent_bfm/axi4_slave_driver_bfm.sv(192) @ 605000: reporter [AXI_SLAVE_DRIVER_BFM] Read address accepted: id=7, addr=0x00006436, len=9
UVM_INFO ../agent/slave_agent_bfm/axi4_slave_driver_bfm.sv(192) @ 605000: reporter [AXI_SLAVE_DRIVER_BFM] Read address accepted: id=7, addr=0x00006436, len=9
UVM_INFO ../agent/slave_agent_bfm/axi4_slave_driver_bfm.sv(192) @ 605000: reporter [AXI_SLAVE_DRIVER_BFM] Read address accepted: id=7, addr=0x00006436, len=9
UVM_INFO ../agent/slave_agent_bfm/axi4_slave_driver_bfm.sv(192) @ 605000: reporter [AXI_SLAVE_DRIVER_BFM] Read address accepted: id=7, addr=0x00006436, len=9
UVM_INFO ../agent/slave_agent_bfm/axi4_slave_driver_bfm.sv(192) @ 605000: reporter [AXI_SLAVE_DRIVER_BFM] Read address accepted: id=7, addr=0x00006436, len=9
UVM_INFO ../agent/slave_agent_bfm/axi4_slave_driver_bfm.sv(192) @ 605000: reporter [AXI_SLAVE_DRIVER_BFM] Read address accepted: id=7, addr=0x00006436, len=9
UVM_INFO ../agent/slave_agent_bfm/axi4_slave_driver_bfm.sv(192) @ 605000: reporter [AXI_SLAVE_DRIVER_BFM] Read address accepted: id=7, addr=0x00006436, len=9
UVM_INFO ../agent/slave_agent_bfm/axi4_slave_driver_bfm.sv(192) @ 605000: reporter [AXI_SLAVE_DRIVER_BFM] Read address accepted: id=7, addr=0x00006436, len=9
UVM_INFO ../agent/slave_agent_bfm/axi4_slave_driver_bfm.sv(192) @ 605000: reporter [AXI_SLAVE_DRIVER_BFM] Read address accepted: id=7, addr=0x00006436, len=9
UVM_INFO ../agent/slave_agent_bfm/axi4_slave_driver_bfm.sv(192) @ 605000: reporter [AXI_SLAVE_DRIVER_BFM] Read address accepted: id=7, addr=0x00006436, len=9
UVM_INFO ../agent/slave_agent_bfm/axi4_slave_driver_bfm.sv(192) @ 605000: reporter [AXI_SLAVE_DRIVER_BFM] Read address accepted: id=7, addr=0x00006436, len=9
UVM_INFO ../agent/slave_agent_bfm/axi4_slave_driver_bfm.sv(192) @ 605000: reporter [AXI_SLAVE_DRIVER_BFM] Read address accepted: id=7, addr=0x00006436, len=9
UVM_INFO ../agent/slave_agent_bfm/axi4_slave_driver_bfm.sv(192) @ 605000: reporter [AXI_SLAVE_DRIVER_BFM] Read address accepted: id=7, addr=0x00006436, len=9
UVM_INFO ../agent/slave_agent_bfm/axi4_slave_driver_bfm.sv(192) @ 605000: reporter [AXI_SLAVE_DRIVER_BFM] Read address accepted: id=7, addr=0x00006436, len=9
UVM_INFO ../agent/slave_agent_bfm/axi4_slave_driver_bfm.sv(192) @ 605000: reporter [AXI_SLAVE_DRIVER_BFM] Read address accepted: id=7, addr=0x00006436, len=9
UVM_INFO ../agent/slave_agent_bfm/axi4_slave_driver_bfm.sv(192) @ 605000: reporter [AXI_SLAVE_DRIVER_BFM] Read address accepted: id=7, addr=0x00006436, len=9
UVM_INFO ../agent/slave_agent_bfm/axi4_slave_driver_bfm.sv(192) @ 605000: reporter [AXI_SLAVE_DRIVER_BFM] Read address accepted: id=7, addr=0x00006436, len=9
UVM_INFO ../agent/slave_agent_bfm/axi4_slave_driver_bfm.sv(192) @ 605000: reporter [AXI_SLAVE_DRIVER_BFM] Read address accepted: id=7, addr=0x00006436, len=9
UVM_INFO ../agent/slave_agent_bfm/axi4_slave_driver_bfm.sv(192) @ 605000: reporter [AXI_SLAVE_DRIVER_BFM] Read address accepted: id=7, addr=0x00006436, len=9
UVM_INFO ../agent/slave_agent_bfm/axi4_slave_driver_bfm.sv(192) @ 605000: reporter [AXI_SLAVE_DRIVER_BFM] Read address accepted: id=7, addr=0x00006436, len=9
UVM_INFO ../agent/slave_agent_bfm/axi4_slave_driver_bfm.sv(192) @ 605000: reporter [AXI_SLAVE_DRIVER_BFM] Read address accepted: id=7, addr=0x00006436, len=9
UVM_INFO ../agent/slave_agent_bfm/axi4_slave_driver_bfm.sv(192) @ 605000: reporter [AXI_SLAVE_DRIVER_BFM] Read address accepted: id=7, addr=0x00006436, len=9
UVM_INFO ../agent/slave_agent_bfm/axi4_slave_driver_bfm.sv(192) @ 605000: reporter [AXI_SLAVE_DRIVER_BFM] Read address accepted: id=7, addr=0x00006436, len=9
UVM_INFO ../agent/slave_agent_bfm/axi4_slave_driver_bfm.sv(192) @ 615000: reporter [AXI_SLAVE_DRIVER_BFM] Read address accepted: id=7, addr=0x00006436, len=9
UVM_INFO ../agent/slave_agent_bfm/axi4_slave_driver_bfm.sv(192) @ 615000: reporter [AXI_SLAVE_DRIVER_BFM] Read address accepted: id=7, addr=0x00006436, len=9
UVM_INFO ../agent/slave_agent_bfm/axi4_slave_driver_bfm.sv(192) @ 615000: reporter [AXI_SLAVE_DRIVER_BFM] Read address accepted: id=7, addr=0x00006436, len=9
UVM_INFO ../agent/slave_agent_bfm/axi4_slave_driver_bfm.sv(192) @ 615000: reporter [AXI_SLAVE_DRIVER_BFM] Read address accepted: id=7, addr=0x00006436, len=9
UVM_INFO ../agent/slave_agent_bfm/axi4_slave_driver_bfm.sv(192) @ 615000: reporter [AXI_SLAVE_DRIVER_BFM] Read address accepted: id=7, addr=0x00006436, len=9
UVM_INFO ../agent/slave_agent_bfm/axi4_slave_driver_bfm.sv(192) @ 615000: reporter [AXI_SLAVE_DRIVER_BFM] Read address accepted: id=7, addr=0x00006436, len=9
UVM_INFO ../agent/slave_agent_bfm/axi4_slave_driver_bfm.sv(192) @ 615000: reporter [AXI_SLAVE_DRIVER_BFM] Read address accepted: id=7, addr=0x00006436, len=9
UVM_INFO ../agent/slave_agent_bfm/axi4_slave_driver_bfm.sv(192) @ 615000: reporter [AXI_SLAVE_DRIVER_BFM] Read address accepted: id=7, addr=0x00006436, len=9
UVM_INFO ../agent/slave_agent_bfm/axi4_slave_driver_bfm.sv(192) @ 615000: reporter [AXI_SLAVE_DRIVER_BFM] Read address accepted: id=7, addr=0x00006436, len=9
UVM_INFO ../agent/slave_agent_bfm/axi4_slave_driver_bfm.sv(192) @ 615000: reporter [AXI_SLAVE_DRIVER_BFM] Read address accepted: id=7, addr=0x00006436, len=9
UVM_INFO ../agent/slave_agent_bfm/axi4_slave_driver_bfm.sv(192) @ 615000: reporter [AXI_SLAVE_DRIVER_BFM] Read address accepted: id=7, addr=0x00006436, len=9
UVM_INFO ../agent/slave_agent_bfm/axi4_slave_driver_bfm.sv(192) @ 615000: reporter [AXI_SLAVE_DRIVER_BFM] Read address accepted: id=7, addr=0x00006436, len=9
UVM_INFO ../agent/slave_agent_bfm/axi4_slave_driver_bfm.sv(192) @ 615000: reporter [AXI_SLAVE_DRIVER_BFM] Read address accepted: id=7, addr=0x00006436, len=9
UVM_INFO ../agent/slave_agent_bfm/axi4_slave_driver_bfm.sv(192) @ 615000: reporter [AXI_SLAVE_DRIVER_BFM] Read address accepted: id=7, addr=0x00006436, len=9
UVM_INFO ../agent/slave_agent_bfm/axi4_slave_driver_bfm.sv(192) @ 615000: reporter [AXI_SLAVE_DRIVER_BFM] Read address accepted: id=7, addr=0x00006436, len=9
UVM_INFO ../agent/slave_agent_bfm/axi4_slave_driver_bfm.sv(192) @ 615000: reporter [AXI_SLAVE_DRIVER_BFM] Read address accepted: id=7, addr=0x00006436, len=9
UVM_INFO ../agent/slave_agent_bfm/axi4_slave_driver_bfm.sv(192) @ 615000: reporter [AXI_SLAVE_DRIVER_BFM] Read address accepted: id=7, addr=0x00006436, len=9
UVM_INFO ../agent/slave_agent_bfm/axi4_slave_driver_bfm.sv(192) @ 615000: reporter [AXI_SLAVE_DRIVER_BFM] Read address accepted: id=7, addr=0x00006436, len=9
UVM_INFO ../agent/slave_agent_bfm/axi4_slave_driver_bfm.sv(192) @ 615000: reporter [AXI_SLAVE_DRIVER_BFM] Read address accepted: id=7, addr=0x00006436, len=9
UVM_INFO ../agent/slave_agent_bfm/axi4_slave_driver_bfm.sv(192) @ 615000: reporter [AXI_SLAVE_DRIVER_BFM] Read address accepted: id=7, addr=0x00006436, len=9
UVM_INFO ../agent/slave_agent_bfm/axi4_slave_driver_bfm.sv(192) @ 615000: reporter [AXI_SLAVE_DRIVER_BFM] Read address accepted: id=7, addr=0x00006436, len=9
UVM_INFO ../agent/slave_agent_bfm/axi4_slave_driver_bfm.sv(192) @ 615000: reporter [AXI_SLAVE_DRIVER_BFM] Read address accepted: id=7, addr=0x00006436, len=9
UVM_INFO ../agent/slave_agent_bfm/axi4_slave_driver_bfm.sv(192) @ 615000: reporter [AXI_SLAVE_DRIVER_BFM] Read address accepted: id=7, addr=0x00006436, len=9
UVM_INFO ../agent/slave_agent_bfm/axi4_slave_driver_bfm.sv(192) @ 625000: reporter [AXI_SLAVE_DRIVER_BFM] Read address accepted: id=7, addr=0x00006436, len=9
UVM_INFO ../agent/slave_agent_bfm/axi4_slave_driver_bfm.sv(192) @ 625000: reporter [AXI_SLAVE_DRIVER_BFM] Read address accepted: id=7, addr=0x00006436, len=9
UVM_INFO ../agent/slave_agent_bfm/axi4_slave_driver_bfm.sv(192) @ 625000: reporter [AXI_SLAVE_DRIVER_BFM] Read address accepted: id=7, addr=0x00006436, len=9
UVM_INFO ../agent/slave_agent_bfm/axi4_slave_driver_bfm.sv(192) @ 625000: reporter [AXI_SLAVE_DRIVER_BFM] Read address accepted: id=7, addr=0x00006436, len=9
UVM_INFO ../agent/slave_agent_bfm/axi4_slave_driver_bfm.sv(192) @ 625000: reporter [AXI_SLAVE_DRIVER_BFM] Read address accepted: id=7, addr=0x00006436, len=9
UVM_INFO ../agent/slave_agent_bfm/axi4_slave_driver_bfm.sv(192) @ 625000: reporter [AXI_SLAVE_DRIVER_BFM] Read address accepted: id=7, addr=0x00006436, len=9
UVM_INFO ../agent/slave_agent_bfm/axi4_slave_driver_bfm.sv(192) @ 625000: reporter [AXI_SLAVE_DRIVER_BFM] Read address accepted: id=7, addr=0x00006436, len=9
UVM_INFO ../agent/slave_agent_bfm/axi4_slave_driver_bfm.sv(192) @ 625000: reporter [AXI_SLAVE_DRIVER_BFM] Read address accepted: id=7, addr=0x00006436, len=9
UVM_INFO ../agent/slave_agent_bfm/axi4_slave_driver_bfm.sv(192) @ 625000: reporter [AXI_SLAVE_DRIVER_BFM] Read address accepted: id=7, addr=0x00006436, len=9
UVM_INFO ../agent/slave_agent_bfm/axi4_slave_driver_bfm.sv(192) @ 625000: reporter [AXI_SLAVE_DRIVER_BFM] Read address accepted: id=7, addr=0x00006436, len=9
UVM_INFO ../agent/slave_agent_bfm/axi4_slave_driver_bfm.sv(192) @ 625000: reporter [AXI_SLAVE_DRIVER_BFM] Read address accepted: id=7, addr=0x00006436, len=9
UVM_INFO ../agent/slave_agent_bfm/axi4_slave_driver_bfm.sv(192) @ 625000: reporter [AXI_SLAVE_DRIVER_BFM] Read address accepted: id=7, addr=0x00006436, len=9
UVM_INFO ../agent/slave_agent_bfm/axi4_slave_driver_bfm.sv(192) @ 625000: reporter [AXI_SLAVE_DRIVER_BFM] Read address accepted: id=7, addr=0x00006436, len=9
UVM_INFO ../agent/slave_agent_bfm/axi4_slave_driver_bfm.sv(192) @ 625000: reporter [AXI_SLAVE_DRIVER_BFM] Read address accepted: id=7, addr=0x00006436, len=9
UVM_INFO ../agent/slave_agent_bfm/axi4_slave_driver_bfm.sv(192) @ 625000: reporter [AXI_SLAVE_DRIVER_BFM] Read address accepted: id=7, addr=0x00006436, len=9
UVM_INFO ../agent/slave_agent_bfm/axi4_slave_driver_bfm.sv(192) @ 625000: reporter [AXI_SLAVE_DRIVER_BFM] Read address accepted: id=7, addr=0x00006436, len=9
UVM_INFO ../master/axi4_master_pkg.sv(92) @ 700000: uvm_test_top.env.master_agent[0].driver [axi4_master_driver] Got READ transaction - addr=0x2f2d90bf, len=12, size=7, burst=3
UVM_INFO ../master/axi4_master_pkg.sv(92) @ 700000: uvm_test_top.env.master_agent[1].driver [axi4_master_driver] Got READ transaction - addr=0x5ec6b867, len=172, size=6, burst=3
UVM_INFO ../master/axi4_master_pkg.sv(92) @ 700000: uvm_test_top.env.master_agent[2].driver [axi4_master_driver] Got WRITE transaction - addr=0xbdb1b133, len=42, size=0, burst=0
UVM_INFO ../master/axi4_master_pkg.sv(92) @ 700000: uvm_test_top.env.master_agent[3].driver [axi4_master_driver] Got WRITE transaction - addr=0x1223e238, len=194, size=1, burst=1
UVM_INFO ../master/axi4_master_pkg.sv(92) @ 700000: uvm_test_top.env.master_agent[4].driver [axi4_master_driver] Got WRITE transaction - addr=0x66f2786f, len=37, size=7, burst=3
UVM_INFO ../master/axi4_master_pkg.sv(92) @ 700000: uvm_test_top.env.master_agent[5].driver [axi4_master_driver] Got WRITE transaction - addr=0xd695623d, len=55, size=5, burst=0
UVM_INFO ../master/axi4_master_pkg.sv(92) @ 700000: uvm_test_top.env.master_agent[6].driver [axi4_master_driver] Got WRITE transaction - addr=0x1b422c3d, len=21, size=4, burst=2
UVM_INFO ../master/axi4_master_pkg.sv(92) @ 700000: uvm_test_top.env.master_agent[7].driver [axi4_master_driver] Got READ transaction - addr=0xd7876b3a, len=37, size=2, burst=3
UVM_INFO ../master/axi4_master_pkg.sv(92) @ 700000: uvm_test_top.env.master_agent[8].driver [axi4_master_driver] Got WRITE transaction - addr=0x76286dc1, len=251, size=1, burst=1
UVM_INFO ../agent/slave_agent_bfm/axi4_slave_driver_bfm.sv(246) @ 745000: reporter [AXI_SLAVE_DRIVER_BFM] Read transaction complete for id=7
UVM_INFO ../agent/slave_agent_bfm/axi4_slave_driver_bfm.sv(246) @ 745000: reporter [AXI_SLAVE_DRIVER_BFM] Read transaction complete for id=7
UVM_INFO ../agent/slave_agent_bfm/axi4_slave_driver_bfm.sv(246) @ 755000: reporter [AXI_SLAVE_DRIVER_BFM] Read transaction complete for id=7
UVM_INFO ../agent/slave_agent_bfm/axi4_slave_driver_bfm.sv(246) @ 755000: reporter [AXI_SLAVE_DRIVER_BFM] Read transaction complete for id=7
UVM_INFO ../agent/slave_agent_bfm/axi4_slave_driver_bfm.sv(246) @ 755000: reporter [AXI_SLAVE_DRIVER_BFM] Read transaction complete for id=7
UVM_INFO ../agent/slave_agent_bfm/axi4_slave_driver_bfm.sv(246) @ 755000: reporter [AXI_SLAVE_DRIVER_BFM] Read transaction complete for id=7
UVM_INFO ../agent/slave_agent_bfm/axi4_slave_driver_bfm.sv(246) @ 765000: reporter [AXI_SLAVE_DRIVER_BFM] Read transaction complete for id=7
UVM_INFO ../agent/slave_agent_bfm/axi4_slave_driver_bfm.sv(246) @ 765000: reporter [AXI_SLAVE_DRIVER_BFM] Read transaction complete for id=7
UVM_INFO ../agent/slave_agent_bfm/axi4_slave_driver_bfm.sv(246) @ 765000: reporter [AXI_SLAVE_DRIVER_BFM] Read transaction complete for id=7
UVM_INFO ../agent/slave_agent_bfm/axi4_slave_driver_bfm.sv(246) @ 765000: reporter [AXI_SLAVE_DRIVER_BFM] Read transaction complete for id=7
UVM_INFO ../agent/slave_agent_bfm/axi4_slave_driver_bfm.sv(246) @ 765000: reporter [AXI_SLAVE_DRIVER_BFM] Read transaction complete for id=7
UVM_INFO ../agent/slave_agent_bfm/axi4_slave_driver_bfm.sv(246) @ 765000: reporter [AXI_SLAVE_DRIVER_BFM] Read transaction complete for id=7
UVM_INFO ../agent/slave_agent_bfm/axi4_slave_driver_bfm.sv(246) @ 765000: reporter [AXI_SLAVE_DRIVER_BFM] Read transaction complete for id=7
UVM_INFO ../agent/slave_agent_bfm/axi4_slave_driver_bfm.sv(246) @ 765000: reporter [AXI_SLAVE_DRIVER_BFM] Read transaction complete for id=7
UVM_INFO ../agent/slave_agent_bfm/axi4_slave_driver_bfm.sv(246) @ 765000: reporter [AXI_SLAVE_DRIVER_BFM] Read transaction complete for id=7
UVM_INFO ../agent/slave_agent_bfm/axi4_slave_driver_bfm.sv(246) @ 765000: reporter [AXI_SLAVE_DRIVER_BFM] Read transaction complete for id=7
UVM_INFO ../agent/slave_agent_bfm/axi4_slave_driver_bfm.sv(246) @ 765000: reporter [AXI_SLAVE_DRIVER_BFM] Read transaction complete for id=7
UVM_INFO ../agent/slave_agent_bfm/axi4_slave_driver_bfm.sv(246) @ 765000: reporter [AXI_SLAVE_DRIVER_BFM] Read transaction complete for id=7
UVM_INFO ../agent/slave_agent_bfm/axi4_slave_driver_bfm.sv(246) @ 775000: reporter [AXI_SLAVE_DRIVER_BFM] Read transaction complete for id=7
UVM_INFO ../agent/slave_agent_bfm/axi4_slave_driver_bfm.sv(246) @ 775000: reporter [AXI_SLAVE_DRIVER_BFM] Read transaction complete for id=7
UVM_INFO ../agent/slave_agent_bfm/axi4_slave_driver_bfm.sv(246) @ 775000: reporter [AXI_SLAVE_DRIVER_BFM] Read transaction complete for id=7
UVM_INFO ../agent/slave_agent_bfm/axi4_slave_driver_bfm.sv(246) @ 775000: reporter [AXI_SLAVE_DRIVER_BFM] Read transaction complete for id=7
UVM_INFO ../agent/slave_agent_bfm/axi4_slave_driver_bfm.sv(246) @ 775000: reporter [AXI_SLAVE_DRIVER_BFM] Read transaction complete for id=7
UVM_INFO ../agent/slave_agent_bfm/axi4_slave_driver_bfm.sv(246) @ 775000: reporter [AXI_SLAVE_DRIVER_BFM] Read transaction complete for id=7
UVM_INFO ../agent/slave_agent_bfm/axi4_slave_driver_bfm.sv(246) @ 775000: reporter [AXI_SLAVE_DRIVER_BFM] Read transaction complete for id=7
UVM_INFO ../agent/slave_agent_bfm/axi4_slave_driver_bfm.sv(246) @ 775000: reporter [AXI_SLAVE_DRIVER_BFM] Read transaction complete for id=7
UVM_INFO ../agent/slave_agent_bfm/axi4_slave_driver_bfm.sv(246) @ 775000: reporter [AXI_SLAVE_DRIVER_BFM] Read transaction complete for id=7
UVM_INFO ../agent/slave_agent_bfm/axi4_slave_driver_bfm.sv(246) @ 775000: reporter [AXI_SLAVE_DRIVER_BFM] Read transaction complete for id=7
UVM_INFO ../agent/slave_agent_bfm/axi4_slave_driver_bfm.sv(246) @ 775000: reporter [AXI_SLAVE_DRIVER_BFM] Read transaction complete for id=7
UVM_INFO ../agent/slave_agent_bfm/axi4_slave_driver_bfm.sv(246) @ 775000: reporter [AXI_SLAVE_DRIVER_BFM] Read transaction complete for id=7
UVM_INFO ../agent/slave_agent_bfm/axi4_slave_driver_bfm.sv(246) @ 785000: reporter [AXI_SLAVE_DRIVER_BFM] Read transaction complete for id=7
UVM_INFO ../agent/slave_agent_bfm/axi4_slave_driver_bfm.sv(246) @ 785000: reporter [AXI_SLAVE_DRIVER_BFM] Read transaction complete for id=7
UVM_INFO ../agent/slave_agent_bfm/axi4_slave_driver_bfm.sv(246) @ 785000: reporter [AXI_SLAVE_DRIVER_BFM] Read transaction complete for id=7
UVM_INFO ../agent/slave_agent_bfm/axi4_slave_driver_bfm.sv(246) @ 785000: reporter [AXI_SLAVE_DRIVER_BFM] Read transaction complete for id=7
UVM_INFO ../agent/slave_agent_bfm/axi4_slave_driver_bfm.sv(246) @ 785000: reporter [AXI_SLAVE_DRIVER_BFM] Read transaction complete for id=7
UVM_INFO ../agent/slave_agent_bfm/axi4_slave_driver_bfm.sv(246) @ 785000: reporter [AXI_SLAVE_DRIVER_BFM] Read transaction complete for id=7
UVM_INFO ../agent/slave_agent_bfm/axi4_slave_driver_bfm.sv(246) @ 785000: reporter [AXI_SLAVE_DRIVER_BFM] Read transaction complete for id=7
UVM_INFO ../agent/slave_agent_bfm/axi4_slave_driver_bfm.sv(246) @ 785000: reporter [AXI_SLAVE_DRIVER_BFM] Read transaction complete for id=7
UVM_INFO ../agent/slave_agent_bfm/axi4_slave_driver_bfm.sv(246) @ 785000: reporter [AXI_SLAVE_DRIVER_BFM] Read transaction complete for id=7
UVM_INFO ../agent/slave_agent_bfm/axi4_slave_driver_bfm.sv(246) @ 785000: reporter [AXI_SLAVE_DRIVER_BFM] Read transaction complete for id=7
UVM_INFO ../agent/slave_agent_bfm/axi4_slave_driver_bfm.sv(246) @ 785000: reporter [AXI_SLAVE_DRIVER_BFM] Read transaction complete for id=7
UVM_INFO ../agent/slave_agent_bfm/axi4_slave_driver_bfm.sv(246) @ 785000: reporter [AXI_SLAVE_DRIVER_BFM] Read transaction complete for id=7
UVM_INFO ../agent/slave_agent_bfm/axi4_slave_driver_bfm.sv(246) @ 795000: reporter [AXI_SLAVE_DRIVER_BFM] Read transaction complete for id=7
UVM_INFO ../agent/slave_agent_bfm/axi4_slave_driver_bfm.sv(246) @ 795000: reporter [AXI_SLAVE_DRIVER_BFM] Read transaction complete for id=7
UVM_INFO ../agent/slave_agent_bfm/axi4_slave_driver_bfm.sv(246) @ 795000: reporter [AXI_SLAVE_DRIVER_BFM] Read transaction complete for id=7
UVM_INFO ../agent/slave_agent_bfm/axi4_slave_driver_bfm.sv(246) @ 795000: reporter [AXI_SLAVE_DRIVER_BFM] Read transaction complete for id=7
UVM_INFO ../agent/slave_agent_bfm/axi4_slave_driver_bfm.sv(246) @ 795000: reporter [AXI_SLAVE_DRIVER_BFM] Read transaction complete for id=7
UVM_INFO ../agent/slave_agent_bfm/axi4_slave_driver_bfm.sv(246) @ 795000: reporter [AXI_SLAVE_DRIVER_BFM] Read transaction complete for id=7
UVM_INFO ../agent/slave_agent_bfm/axi4_slave_driver_bfm.sv(246) @ 795000: reporter [AXI_SLAVE_DRIVER_BFM] Read transaction complete for id=7
UVM_INFO ../agent/slave_agent_bfm/axi4_slave_driver_bfm.sv(246) @ 795000: reporter [AXI_SLAVE_DRIVER_BFM] Read transaction complete for id=7
UVM_INFO ../master/axi4_master_pkg.sv(92) @ 800000: uvm_test_top.env.master_agent[8].driver [axi4_master_driver] Got WRITE transaction - addr=0x58d41a25, len=204, size=0, burst=1
UVM_INFO ../master/axi4_master_pkg.sv(92) @ 800000: uvm_test_top.env.master_agent[7].driver [axi4_master_driver] Got READ transaction - addr=0x6e71d42e, len=40, size=0, burst=2
UVM_INFO ../master/axi4_master_pkg.sv(92) @ 800000: uvm_test_top.env.master_agent[6].driver [axi4_master_driver] Got WRITE transaction - addr=0x372974c1, len=248, size=3, burst=2
UVM_INFO ../master/axi4_master_pkg.sv(92) @ 800000: uvm_test_top.env.master_agent[5].driver [axi4_master_driver] Got READ transaction - addr=0x739f020f, len=0, size=1, burst=2
UVM_INFO ../master/axi4_master_pkg.sv(92) @ 800000: uvm_test_top.env.master_agent[4].driver [axi4_master_driver] Got WRITE transaction - addr=0xa2cdebf8, len=70, size=2, burst=1
UVM_INFO ../master/axi4_master_pkg.sv(92) @ 800000: uvm_test_top.env.master_agent[3].driver [axi4_master_driver] Got READ transaction - addr=0x95f8c8d, len=151, size=2, burst=0
UVM_INFO ../master/axi4_master_pkg.sv(92) @ 800000: uvm_test_top.env.master_agent[2].driver [axi4_master_driver] Got WRITE transaction - addr=0x726095c7, len=79, size=5, burst=2
UVM_INFO ../master/axi4_master_pkg.sv(92) @ 800000: uvm_test_top.env.master_agent[1].driver [axi4_master_driver] Got READ transaction - addr=0xe67edf47, len=64, size=1, burst=1
UVM_INFO ../master/axi4_master_pkg.sv(92) @ 800000: uvm_test_top.env.master_agent[0].driver [axi4_master_driver] Got READ transaction - addr=0x40b0b066, len=168, size=5, burst=1
UVM_INFO ../agent/slave_agent_bfm/axi4_slave_driver_bfm.sv(246) @ 805000: reporter [AXI_SLAVE_DRIVER_BFM] Read transaction complete for id=7
UVM_INFO ../agent/slave_agent_bfm/axi4_slave_driver_bfm.sv(246) @ 815000: reporter [AXI_SLAVE_DRIVER_BFM] Read transaction complete for id=7
UVM_INFO ../agent/slave_agent_bfm/axi4_slave_driver_bfm.sv(246) @ 815000: reporter [AXI_SLAVE_DRIVER_BFM] Read transaction complete for id=7
UVM_INFO ../agent/slave_agent_bfm/axi4_slave_driver_bfm.sv(246) @ 825000: reporter [AXI_SLAVE_DRIVER_BFM] Read transaction complete for id=7
UVM_INFO ../agent/slave_agent_bfm/axi4_slave_driver_bfm.sv(246) @ 825000: reporter [AXI_SLAVE_DRIVER_BFM] Read transaction complete for id=7
UVM_INFO ../agent/slave_agent_bfm/axi4_slave_driver_bfm.sv(246) @ 825000: reporter [AXI_SLAVE_DRIVER_BFM] Read transaction complete for id=7
UVM_INFO ../agent/slave_agent_bfm/axi4_slave_driver_bfm.sv(246) @ 855000: reporter [AXI_SLAVE_DRIVER_BFM] Read transaction complete for id=7
UVM_INFO ../agent/slave_agent_bfm/axi4_slave_driver_bfm.sv(246) @ 865000: reporter [AXI_SLAVE_DRIVER_BFM] Read transaction complete for id=7
UVM_INFO ../agent/slave_agent_bfm/axi4_slave_driver_bfm.sv(246) @ 875000: reporter [AXI_SLAVE_DRIVER_BFM] Read transaction complete for id=7
UVM_INFO ../agent/slave_agent_bfm/axi4_slave_driver_bfm.sv(246) @ 895000: reporter [AXI_SLAVE_DRIVER_BFM] Read transaction complete for id=7
UVM_INFO ../master/axi4_master_pkg.sv(92) @ 900000: uvm_test_top.env.master_agent[0].driver [axi4_master_driver] Got WRITE transaction - addr=0xa80941aa, len=144, size=4, burst=2
UVM_INFO ../master/axi4_master_pkg.sv(92) @ 900000: uvm_test_top.env.master_agent[1].driver [axi4_master_driver] Got WRITE transaction - addr=0xbc6fc35d, len=249, size=4, burst=3
UVM_INFO ../master/axi4_master_pkg.sv(92) @ 900000: uvm_test_top.env.master_agent[2].driver [axi4_master_driver] Got READ transaction - addr=0x405a7f9c, len=96, size=4, burst=2
UVM_INFO ../master/axi4_master_pkg.sv(92) @ 900000: uvm_test_top.env.master_agent[3].driver [axi4_master_driver] Got WRITE transaction - addr=0xfd0b8f0, len=164, size=6, burst=3
UVM_INFO ../master/axi4_master_pkg.sv(92) @ 900000: uvm_test_top.env.master_agent[4].driver [axi4_master_driver] Got READ transaction - addr=0x2cf2748a, len=73, size=3, burst=1
UVM_INFO ../master/axi4_master_pkg.sv(92) @ 900000: uvm_test_top.env.master_agent[5].driver [axi4_master_driver] Got READ transaction - addr=0x7ac8647c, len=172, size=0, burst=1
UVM_INFO ../master/axi4_master_pkg.sv(92) @ 900000: uvm_test_top.env.master_agent[6].driver [axi4_master_driver] Got READ transaction - addr=0xe078e9a5, len=220, size=3, burst=1
UVM_INFO ../master/axi4_master_pkg.sv(92) @ 900000: uvm_test_top.env.master_agent[7].driver [axi4_master_driver] Got READ transaction - addr=0x7ae2a107, len=183, size=6, burst=3
UVM_INFO ../master/axi4_master_pkg.sv(92) @ 900000: uvm_test_top.env.master_agent[8].driver [axi4_master_driver] Got WRITE transaction - addr=0x45708cd7, len=78, size=5, burst=0
UVM_FATAL /home/eda_tools/synopsys/vcs/W-2024.09-SP1//etc/uvm-1.2/base/uvm_phase.svh(1512) @ 1000000: reporter [PH_TIMEOUT] Explicit timeout of 1000000 hit, indicating a probable testbench issue
UVM_INFO /home/eda_tools/synopsys/vcs/W-2024.09-SP1//etc/uvm-1.2/base/uvm_report_catcher.svh(705) @ 1000000: reporter [UVM/REPORT/CATCHER] 
--- UVM Report catcher Summary ---


Number of demoted UVM_FATAL reports  :    0
Number of demoted UVM_ERROR reports  :    0
Number of demoted UVM_WARNING reports:    0
Number of caught UVM_FATAL reports   :    0
Number of caught UVM_ERROR reports   :    0
Number of caught UVM_WARNING reports :    0

UVM_INFO /home/eda_tools/synopsys/vcs/W-2024.09-SP1//etc/uvm-1.2/base/uvm_report_server.svh(904) @ 1000000: reporter [UVM/REPORT/SERVER] 
--- UVM Report Summary ---

** Report counts by severity
UVM_INFO :  417
UVM_WARNING :    0
UVM_ERROR :    0
UVM_FATAL :    1
** Report counts by id
[AXI_MASTER_DRIVER_BFM]    38
[AXI_SLAVE_DRIVER_BFM]   172
[PH_TIMEOUT]     1
[RNTST]     1
[TIMOUTSET]     1
[UVM/RELNOTES]     1
[UVM/REPORT/CATCHER]     1
[UVMTOP]     1
[axi4_master_agent]    27
[axi4_master_driver]    99
[axi4_master_monitor]    27
[axi4_protocol_coverage]     1
[axi4_slave_agent]    27
[axi4_slave_monitor]    18
[axi4_stress_test]     2
[axi4_virtual_stress_seq]     1

$finish called from file "/home/eda_tools/synopsys/vcs/W-2024.09-SP1//etc/uvm-1.2/base/uvm_root.svh", line 135.
$finish at simulation time              1000000
           V C S   S i m u l a t i o n   R e p o r t 
Time: 1000000 ps
CPU Time:      0.720 seconds;       Data structure size:   6.8Mb
Mon Aug  4 16:33:10 2025
