Command: /home/timtim01/eda_test/project/gen_amba_2025/9x9_vip/axi4_vip_env_rtl_integration/sim/./simv +UVM_TESTNAME=axi4_stress_test +UVM_VERBOSITY=UVM_MEDIUM +ntb_random_seed=1 +fsdb_file=./waves/axi4_stress_test_fixed.fsdb -l ./logs/axi4_stress_test_fixed.log
Chronologic VCS simulator copyright 1991-2024
Contains Synopsys proprietary information.
Compiler version W-2024.09-SP1_Full64; Runtime version W-2024.09-SP1_Full64;  Aug  4 12:16 2025
UVM_INFO /home/eda_tools/synopsys/vcs/W-2024.09-SP1//etc/uvm-1.2/base/uvm_root.svh(402) @ 0: reporter [UVM/RELNOTES] 
----------------------------------------------------------------
UVM-1.2.Synopsys
(C) 2007-2014 Mentor Graphics Corporation
(C) 2007-2014 Cadence Design Systems, Inc.
(C) 2006-2014 Synopsys, Inc.
(C) 2011-2013 Cypress Semiconductor Corp.
(C) 2013-2014 NVIDIA Corporation
----------------------------------------------------------------

  ***********       IMPORTANT RELEASE NOTES         ************

  You are using a version of the UVM library that has been compiled
  with `UVM_OBJECT_DO_NOT_NEED_CONSTRUCTOR undefined.
  See http://www.eda.org/svdb/view.php?id=3770 for more details.

      (Specify +UVM_NO_RELNOTES to turn off this notice)

UVM_INFO ../agent/master_agent_bfm/axi4_master_driver_bfm.sv(215) @ 0: reporter [AXI_MASTER_DRIVER_BFM] Master BFM signals initialized
UVM_INFO ../agent/master_agent_bfm/axi4_master_driver_bfm.sv(215) @ 0: reporter [AXI_MASTER_DRIVER_BFM] Master BFM signals initialized
UVM_INFO ../agent/master_agent_bfm/axi4_master_driver_bfm.sv(215) @ 0: reporter [AXI_MASTER_DRIVER_BFM] Master BFM signals initialized
UVM_INFO ../agent/master_agent_bfm/axi4_master_driver_bfm.sv(215) @ 0: reporter [AXI_MASTER_DRIVER_BFM] Master BFM signals initialized
UVM_INFO ../agent/master_agent_bfm/axi4_master_driver_bfm.sv(215) @ 0: reporter [AXI_MASTER_DRIVER_BFM] Master BFM signals initialized
UVM_INFO ../agent/master_agent_bfm/axi4_master_driver_bfm.sv(215) @ 0: reporter [AXI_MASTER_DRIVER_BFM] Master BFM signals initialized
UVM_INFO ../agent/master_agent_bfm/axi4_master_driver_bfm.sv(215) @ 0: reporter [AXI_MASTER_DRIVER_BFM] Master BFM signals initialized
UVM_INFO ../agent/master_agent_bfm/axi4_master_driver_bfm.sv(215) @ 0: reporter [AXI_MASTER_DRIVER_BFM] Master BFM signals initialized
UVM_INFO ../agent/master_agent_bfm/axi4_master_driver_bfm.sv(215) @ 0: reporter [AXI_MASTER_DRIVER_BFM] Master BFM signals initialized
UVM_INFO ../agent/slave_agent_bfm/axi4_slave_driver_bfm.sv(262) @ 0: reporter [AXI_SLAVE_DRIVER_BFM] Slave BFM signals initialized
UVM_INFO ../agent/slave_agent_bfm/axi4_slave_driver_bfm.sv(262) @ 0: reporter [AXI_SLAVE_DRIVER_BFM] Slave BFM signals initialized
UVM_INFO ../agent/slave_agent_bfm/axi4_slave_driver_bfm.sv(262) @ 0: reporter [AXI_SLAVE_DRIVER_BFM] Slave BFM signals initialized
UVM_INFO ../agent/slave_agent_bfm/axi4_slave_driver_bfm.sv(262) @ 0: reporter [AXI_SLAVE_DRIVER_BFM] Slave BFM signals initialized
UVM_INFO ../agent/slave_agent_bfm/axi4_slave_driver_bfm.sv(262) @ 0: reporter [AXI_SLAVE_DRIVER_BFM] Slave BFM signals initialized
UVM_INFO ../agent/slave_agent_bfm/axi4_slave_driver_bfm.sv(262) @ 0: reporter [AXI_SLAVE_DRIVER_BFM] Slave BFM signals initialized
UVM_INFO ../agent/slave_agent_bfm/axi4_slave_driver_bfm.sv(262) @ 0: reporter [AXI_SLAVE_DRIVER_BFM] Slave BFM signals initialized
UVM_INFO ../agent/slave_agent_bfm/axi4_slave_driver_bfm.sv(262) @ 0: reporter [AXI_SLAVE_DRIVER_BFM] Slave BFM signals initialized
UVM_INFO ../agent/slave_agent_bfm/axi4_slave_driver_bfm.sv(262) @ 0: reporter [AXI_SLAVE_DRIVER_BFM] Slave BFM signals initialized
[0] HDL Top: BFMs instantiated and connected
[0] HDL Top: 9 Master BFMs connected to axi_if interfaces
[0] HDL Top: 9 Slave BFMs connected to slave_if interfaces
[0] HDL Top: Signal driving is now handled by BFMs
UVM_INFO @ 0: reporter [RNTST] Running test axi4_stress_test...
UVM_INFO ../agent/master_agent_bfm/axi4_master_driver_bfm.sv(24) @ 0: reporter [AXI_MASTER_DRIVER_BFM] Starting AXI transaction generation for waveform visibility
UVM_INFO ../agent/master_agent_bfm/axi4_master_driver_bfm.sv(24) @ 0: reporter [AXI_MASTER_DRIVER_BFM] Starting AXI transaction generation for waveform visibility
UVM_INFO ../agent/master_agent_bfm/axi4_master_driver_bfm.sv(24) @ 0: reporter [AXI_MASTER_DRIVER_BFM] Starting AXI transaction generation for waveform visibility
UVM_INFO ../agent/master_agent_bfm/axi4_master_driver_bfm.sv(24) @ 0: reporter [AXI_MASTER_DRIVER_BFM] Starting AXI transaction generation for waveform visibility
UVM_INFO ../agent/master_agent_bfm/axi4_master_driver_bfm.sv(24) @ 0: reporter [AXI_MASTER_DRIVER_BFM] Starting AXI transaction generation for waveform visibility
UVM_INFO ../agent/master_agent_bfm/axi4_master_driver_bfm.sv(24) @ 0: reporter [AXI_MASTER_DRIVER_BFM] Starting AXI transaction generation for waveform visibility
UVM_INFO ../agent/master_agent_bfm/axi4_master_driver_bfm.sv(24) @ 0: reporter [AXI_MASTER_DRIVER_BFM] Starting AXI transaction generation for waveform visibility
UVM_INFO ../agent/master_agent_bfm/axi4_master_driver_bfm.sv(24) @ 0: reporter [AXI_MASTER_DRIVER_BFM] Starting AXI transaction generation for waveform visibility
UVM_INFO ../agent/master_agent_bfm/axi4_master_driver_bfm.sv(24) @ 0: reporter [AXI_MASTER_DRIVER_BFM] Starting AXI transaction generation for waveform visibility
UVM_INFO ../env/axi4_protocol_coverage.sv(19) @ 0: uvm_test_top.env.coverage [axi4_protocol_coverage] Protocol coverage build phase
UVM_INFO ../master/axi4_master_pkg.sv(158) @ 0: uvm_test_top.env.master_agent[0] [axi4_master_agent] Building master agent components
UVM_INFO ../master/axi4_master_pkg.sv(164) @ 0: uvm_test_top.env.master_agent[0] [axi4_master_agent] Master agent mode:  ACTIVE
UVM_INFO ../master/axi4_master_pkg.sv(158) @ 0: uvm_test_top.env.master_agent[1] [axi4_master_agent] Building master agent components
UVM_INFO ../master/axi4_master_pkg.sv(164) @ 0: uvm_test_top.env.master_agent[1] [axi4_master_agent] Master agent mode:  ACTIVE
UVM_INFO ../master/axi4_master_pkg.sv(158) @ 0: uvm_test_top.env.master_agent[2] [axi4_master_agent] Building master agent components
UVM_INFO ../master/axi4_master_pkg.sv(164) @ 0: uvm_test_top.env.master_agent[2] [axi4_master_agent] Master agent mode:  ACTIVE
UVM_INFO ../master/axi4_master_pkg.sv(158) @ 0: uvm_test_top.env.master_agent[3] [axi4_master_agent] Building master agent components
UVM_INFO ../master/axi4_master_pkg.sv(164) @ 0: uvm_test_top.env.master_agent[3] [axi4_master_agent] Master agent mode:  ACTIVE
UVM_INFO ../master/axi4_master_pkg.sv(158) @ 0: uvm_test_top.env.master_agent[4] [axi4_master_agent] Building master agent components
UVM_INFO ../master/axi4_master_pkg.sv(164) @ 0: uvm_test_top.env.master_agent[4] [axi4_master_agent] Master agent mode:  ACTIVE
UVM_INFO ../master/axi4_master_pkg.sv(158) @ 0: uvm_test_top.env.master_agent[5] [axi4_master_agent] Building master agent components
UVM_INFO ../master/axi4_master_pkg.sv(164) @ 0: uvm_test_top.env.master_agent[5] [axi4_master_agent] Master agent mode:  ACTIVE
UVM_INFO ../master/axi4_master_pkg.sv(158) @ 0: uvm_test_top.env.master_agent[6] [axi4_master_agent] Building master agent components
UVM_INFO ../master/axi4_master_pkg.sv(164) @ 0: uvm_test_top.env.master_agent[6] [axi4_master_agent] Master agent mode:  ACTIVE
UVM_INFO ../master/axi4_master_pkg.sv(158) @ 0: uvm_test_top.env.master_agent[7] [axi4_master_agent] Building master agent components
UVM_INFO ../master/axi4_master_pkg.sv(164) @ 0: uvm_test_top.env.master_agent[7] [axi4_master_agent] Master agent mode:  ACTIVE
UVM_INFO ../master/axi4_master_pkg.sv(158) @ 0: uvm_test_top.env.master_agent[8] [axi4_master_agent] Building master agent components
UVM_INFO ../master/axi4_master_pkg.sv(164) @ 0: uvm_test_top.env.master_agent[8] [axi4_master_agent] Master agent mode:  ACTIVE
UVM_INFO ../slave/axi4_slave_pkg.sv(108) @ 0: uvm_test_top.env.slave_agent[0] [axi4_slave_agent] Building slave agent components
UVM_INFO ../slave/axi4_slave_pkg.sv(114) @ 0: uvm_test_top.env.slave_agent[0] [axi4_slave_agent] Slave agent mode:  ACTIVE
UVM_INFO ../slave/axi4_slave_pkg.sv(108) @ 0: uvm_test_top.env.slave_agent[1] [axi4_slave_agent] Building slave agent components
UVM_INFO ../slave/axi4_slave_pkg.sv(114) @ 0: uvm_test_top.env.slave_agent[1] [axi4_slave_agent] Slave agent mode:  ACTIVE
UVM_INFO ../slave/axi4_slave_pkg.sv(108) @ 0: uvm_test_top.env.slave_agent[2] [axi4_slave_agent] Building slave agent components
UVM_INFO ../slave/axi4_slave_pkg.sv(114) @ 0: uvm_test_top.env.slave_agent[2] [axi4_slave_agent] Slave agent mode:  ACTIVE
UVM_INFO ../slave/axi4_slave_pkg.sv(108) @ 0: uvm_test_top.env.slave_agent[3] [axi4_slave_agent] Building slave agent components
UVM_INFO ../slave/axi4_slave_pkg.sv(114) @ 0: uvm_test_top.env.slave_agent[3] [axi4_slave_agent] Slave agent mode:  ACTIVE
UVM_INFO ../slave/axi4_slave_pkg.sv(108) @ 0: uvm_test_top.env.slave_agent[4] [axi4_slave_agent] Building slave agent components
UVM_INFO ../slave/axi4_slave_pkg.sv(114) @ 0: uvm_test_top.env.slave_agent[4] [axi4_slave_agent] Slave agent mode:  ACTIVE
UVM_INFO ../slave/axi4_slave_pkg.sv(108) @ 0: uvm_test_top.env.slave_agent[5] [axi4_slave_agent] Building slave agent components
UVM_INFO ../slave/axi4_slave_pkg.sv(114) @ 0: uvm_test_top.env.slave_agent[5] [axi4_slave_agent] Slave agent mode:  ACTIVE
UVM_INFO ../slave/axi4_slave_pkg.sv(108) @ 0: uvm_test_top.env.slave_agent[6] [axi4_slave_agent] Building slave agent components
UVM_INFO ../slave/axi4_slave_pkg.sv(114) @ 0: uvm_test_top.env.slave_agent[6] [axi4_slave_agent] Slave agent mode:  ACTIVE
UVM_INFO ../slave/axi4_slave_pkg.sv(108) @ 0: uvm_test_top.env.slave_agent[7] [axi4_slave_agent] Building slave agent components
UVM_INFO ../slave/axi4_slave_pkg.sv(114) @ 0: uvm_test_top.env.slave_agent[7] [axi4_slave_agent] Slave agent mode:  ACTIVE
UVM_INFO ../slave/axi4_slave_pkg.sv(108) @ 0: uvm_test_top.env.slave_agent[8] [axi4_slave_agent] Building slave agent components
UVM_INFO ../slave/axi4_slave_pkg.sv(114) @ 0: uvm_test_top.env.slave_agent[8] [axi4_slave_agent] Slave agent mode:  ACTIVE
UVM_INFO ../master/axi4_master_pkg.sv(178) @ 0: uvm_test_top.env.master_agent[0] [axi4_master_agent] Connecting master agent components
UVM_INFO ../master/axi4_master_pkg.sv(178) @ 0: uvm_test_top.env.master_agent[1] [axi4_master_agent] Connecting master agent components
UVM_INFO ../master/axi4_master_pkg.sv(178) @ 0: uvm_test_top.env.master_agent[2] [axi4_master_agent] Connecting master agent components
UVM_INFO ../master/axi4_master_pkg.sv(178) @ 0: uvm_test_top.env.master_agent[3] [axi4_master_agent] Connecting master agent components
UVM_INFO ../master/axi4_master_pkg.sv(178) @ 0: uvm_test_top.env.master_agent[4] [axi4_master_agent] Connecting master agent components
UVM_INFO ../master/axi4_master_pkg.sv(178) @ 0: uvm_test_top.env.master_agent[5] [axi4_master_agent] Connecting master agent components
UVM_INFO ../master/axi4_master_pkg.sv(178) @ 0: uvm_test_top.env.master_agent[6] [axi4_master_agent] Connecting master agent components
UVM_INFO ../master/axi4_master_pkg.sv(178) @ 0: uvm_test_top.env.master_agent[7] [axi4_master_agent] Connecting master agent components
UVM_INFO ../master/axi4_master_pkg.sv(178) @ 0: uvm_test_top.env.master_agent[8] [axi4_master_agent] Connecting master agent components
UVM_INFO ../slave/axi4_slave_pkg.sv(128) @ 0: uvm_test_top.env.slave_agent[0] [axi4_slave_agent] Connecting slave agent components
UVM_INFO ../slave/axi4_slave_pkg.sv(128) @ 0: uvm_test_top.env.slave_agent[1] [axi4_slave_agent] Connecting slave agent components
UVM_INFO ../slave/axi4_slave_pkg.sv(128) @ 0: uvm_test_top.env.slave_agent[2] [axi4_slave_agent] Connecting slave agent components
UVM_INFO ../slave/axi4_slave_pkg.sv(128) @ 0: uvm_test_top.env.slave_agent[3] [axi4_slave_agent] Connecting slave agent components
UVM_INFO ../slave/axi4_slave_pkg.sv(128) @ 0: uvm_test_top.env.slave_agent[4] [axi4_slave_agent] Connecting slave agent components
UVM_INFO ../slave/axi4_slave_pkg.sv(128) @ 0: uvm_test_top.env.slave_agent[5] [axi4_slave_agent] Connecting slave agent components
UVM_INFO ../slave/axi4_slave_pkg.sv(128) @ 0: uvm_test_top.env.slave_agent[6] [axi4_slave_agent] Connecting slave agent components
UVM_INFO ../slave/axi4_slave_pkg.sv(128) @ 0: uvm_test_top.env.slave_agent[7] [axi4_slave_agent] Connecting slave agent components
UVM_INFO ../slave/axi4_slave_pkg.sv(128) @ 0: uvm_test_top.env.slave_agent[8] [axi4_slave_agent] Connecting slave agent components
UVM_INFO /home/eda_tools/synopsys/vcs/W-2024.09-SP1//etc/uvm-1.2/base/uvm_root.svh(589) @ 0: reporter [UVMTOP] UVM testbench topology:
--------------------------------------------------------------------
Name                         Type                        Size  Value
--------------------------------------------------------------------
uvm_test_top                 axi4_stress_test            -     @376 
  env                        axi4_env                    -     @430 
    coverage                 axi4_protocol_coverage      -     @771 
    master_agent[0]          axi4_master_agent           -     @463 
      driver                 axi4_master_driver          -     @925 
        rsp_port             uvm_analysis_port           -     @944 
        seq_item_port        uvm_seq_item_pull_port      -     @934 
      monitor                axi4_master_monitor         -     @954 
        item_collected_port  uvm_analysis_port           -     @963 
      sequencer              axi4_master_sequencer       -     @788 
        rsp_export           uvm_analysis_export         -     @797 
        seq_item_export      uvm_seq_item_pull_imp       -     @915 
        arbitration_queue    array                       0     -    
        lock_queue           array                       0     -    
        num_last_reqs        integral                    32    'd1  
        num_last_rsps        integral                    32    'd1  
    master_agent[1]          axi4_master_agent           -     @472 
      driver                 axi4_master_driver          -     @1116
        rsp_port             uvm_analysis_port           -     @1135
        seq_item_port        uvm_seq_item_pull_port      -     @1125
      monitor                axi4_master_monitor         -     @1145
        item_collected_port  uvm_analysis_port           -     @1154
      sequencer              axi4_master_sequencer       -     @979 
        rsp_export           uvm_analysis_export         -     @988 
        seq_item_export      uvm_seq_item_pull_imp       -     @1106
        arbitration_queue    array                       0     -    
        lock_queue           array                       0     -    
        num_last_reqs        integral                    32    'd1  
        num_last_rsps        integral                    32    'd1  
    master_agent[2]          axi4_master_agent           -     @481 
      driver                 axi4_master_driver          -     @1307
        rsp_port             uvm_analysis_port           -     @1326
        seq_item_port        uvm_seq_item_pull_port      -     @1316
      monitor                axi4_master_monitor         -     @1336
        item_collected_port  uvm_analysis_port           -     @1345
      sequencer              axi4_master_sequencer       -     @1170
        rsp_export           uvm_analysis_export         -     @1179
        seq_item_export      uvm_seq_item_pull_imp       -     @1297
        arbitration_queue    array                       0     -    
        lock_queue           array                       0     -    
        num_last_reqs        integral                    32    'd1  
        num_last_rsps        integral                    32    'd1  
    master_agent[3]          axi4_master_agent           -     @490 
      driver                 axi4_master_driver          -     @1498
        rsp_port             uvm_analysis_port           -     @1517
        seq_item_port        uvm_seq_item_pull_port      -     @1507
      monitor                axi4_master_monitor         -     @1527
        item_collected_port  uvm_analysis_port           -     @1536
      sequencer              axi4_master_sequencer       -     @1361
        rsp_export           uvm_analysis_export         -     @1370
        seq_item_export      uvm_seq_item_pull_imp       -     @1488
        arbitration_queue    array                       0     -    
        lock_queue           array                       0     -    
        num_last_reqs        integral                    32    'd1  
        num_last_rsps        integral                    32    'd1  
    master_agent[4]          axi4_master_agent           -     @499 
      driver                 axi4_master_driver          -     @1689
        rsp_port             uvm_analysis_port           -     @1708
        seq_item_port        uvm_seq_item_pull_port      -     @1698
      monitor                axi4_master_monitor         -     @1718
        item_collected_port  uvm_analysis_port           -     @1727
      sequencer              axi4_master_sequencer       -     @1552
        rsp_export           uvm_analysis_export         -     @1561
        seq_item_export      uvm_seq_item_pull_imp       -     @1679
        arbitration_queue    array                       0     -    
        lock_queue           array                       0     -    
        num_last_reqs        integral                    32    'd1  
        num_last_rsps        integral                    32    'd1  
    master_agent[5]          axi4_master_agent           -     @508 
      driver                 axi4_master_driver          -     @1880
        rsp_port             uvm_analysis_port           -     @1899
        seq_item_port        uvm_seq_item_pull_port      -     @1889
      monitor                axi4_master_monitor         -     @1909
        item_collected_port  uvm_analysis_port           -     @1918
      sequencer              axi4_master_sequencer       -     @1743
        rsp_export           uvm_analysis_export         -     @1752
        seq_item_export      uvm_seq_item_pull_imp       -     @1870
        arbitration_queue    array                       0     -    
        lock_queue           array                       0     -    
        num_last_reqs        integral                    32    'd1  
        num_last_rsps        integral                    32    'd1  
    master_agent[6]          axi4_master_agent           -     @517 
      driver                 axi4_master_driver          -     @2071
        rsp_port             uvm_analysis_port           -     @2090
        seq_item_port        uvm_seq_item_pull_port      -     @2080
      monitor                axi4_master_monitor         -     @2100
        item_collected_port  uvm_analysis_port           -     @2109
      sequencer              axi4_master_sequencer       -     @1934
        rsp_export           uvm_analysis_export         -     @1943
        seq_item_export      uvm_seq_item_pull_imp       -     @2061
        arbitration_queue    array                       0     -    
        lock_queue           array                       0     -    
        num_last_reqs        integral                    32    'd1  
        num_last_rsps        integral                    32    'd1  
    master_agent[7]          axi4_master_agent           -     @526 
      driver                 axi4_master_driver          -     @2262
        rsp_port             uvm_analysis_port           -     @2281
        seq_item_port        uvm_seq_item_pull_port      -     @2271
      monitor                axi4_master_monitor         -     @2291
        item_collected_port  uvm_analysis_port           -     @2300
      sequencer              axi4_master_sequencer       -     @2125
        rsp_export           uvm_analysis_export         -     @2134
        seq_item_export      uvm_seq_item_pull_imp       -     @2252
        arbitration_queue    array                       0     -    
        lock_queue           array                       0     -    
        num_last_reqs        integral                    32    'd1  
        num_last_rsps        integral                    32    'd1  
    master_agent[8]          axi4_master_agent           -     @535 
      driver                 axi4_master_driver          -     @2453
        rsp_port             uvm_analysis_port           -     @2472
        seq_item_port        uvm_seq_item_pull_port      -     @2462
      monitor                axi4_master_monitor         -     @2482
        item_collected_port  uvm_analysis_port           -     @2491
      sequencer              axi4_master_sequencer       -     @2316
        rsp_export           uvm_analysis_export         -     @2325
        seq_item_export      uvm_seq_item_pull_imp       -     @2443
        arbitration_queue    array                       0     -    
        lock_queue           array                       0     -    
        num_last_reqs        integral                    32    'd1  
        num_last_rsps        integral                    32    'd1  
    scoreboard               axi4_scoreboard             -     @762 
      master_fifo[0]         uvm_tlm_analysis_fifo #(T)  -     @2501
        analysis_export      uvm_analysis_imp            -     @2550
        get_ap               uvm_analysis_port           -     @2540
        get_peek_export      uvm_get_peek_imp            -     @2520
        put_ap               uvm_analysis_port           -     @2530
        put_export           uvm_put_imp                 -     @2510
      master_fifo[1]         uvm_tlm_analysis_fifo #(T)  -     @2560
        analysis_export      uvm_analysis_imp            -     @2609
        get_ap               uvm_analysis_port           -     @2599
        get_peek_export      uvm_get_peek_imp            -     @2579
        put_ap               uvm_analysis_port           -     @2589
        put_export           uvm_put_imp                 -     @2569
      master_fifo[2]         uvm_tlm_analysis_fifo #(T)  -     @2619
        analysis_export      uvm_analysis_imp            -     @2668
        get_ap               uvm_analysis_port           -     @2658
        get_peek_export      uvm_get_peek_imp            -     @2638
        put_ap               uvm_analysis_port           -     @2648
        put_export           uvm_put_imp                 -     @2628
      master_fifo[3]         uvm_tlm_analysis_fifo #(T)  -     @2678
        analysis_export      uvm_analysis_imp            -     @2727
        get_ap               uvm_analysis_port           -     @2717
        get_peek_export      uvm_get_peek_imp            -     @2697
        put_ap               uvm_analysis_port           -     @2707
        put_export           uvm_put_imp                 -     @2687
      master_fifo[4]         uvm_tlm_analysis_fifo #(T)  -     @2737
        analysis_export      uvm_analysis_imp            -     @2786
        get_ap               uvm_analysis_port           -     @2776
        get_peek_export      uvm_get_peek_imp            -     @2756
        put_ap               uvm_analysis_port           -     @2766
        put_export           uvm_put_imp                 -     @2746
      master_fifo[5]         uvm_tlm_analysis_fifo #(T)  -     @2796
        analysis_export      uvm_analysis_imp            -     @2845
        get_ap               uvm_analysis_port           -     @2835
        get_peek_export      uvm_get_peek_imp            -     @2815
        put_ap               uvm_analysis_port           -     @2825
        put_export           uvm_put_imp                 -     @2805
      master_fifo[6]         uvm_tlm_analysis_fifo #(T)  -     @2855
        analysis_export      uvm_analysis_imp            -     @2904
        get_ap               uvm_analysis_port           -     @2894
        get_peek_export      uvm_get_peek_imp            -     @2874
        put_ap               uvm_analysis_port           -     @2884
        put_export           uvm_put_imp                 -     @2864
      master_fifo[7]         uvm_tlm_analysis_fifo #(T)  -     @2914
        analysis_export      uvm_analysis_imp            -     @2963
        get_ap               uvm_analysis_port           -     @2953
        get_peek_export      uvm_get_peek_imp            -     @2933
        put_ap               uvm_analysis_port           -     @2943
        put_export           uvm_put_imp                 -     @2923
      master_fifo[8]         uvm_tlm_analysis_fifo #(T)  -     @2973
        analysis_export      uvm_analysis_imp            -     @3022
        get_ap               uvm_analysis_port           -     @3012
        get_peek_export      uvm_get_peek_imp            -     @2992
        put_ap               uvm_analysis_port           -     @3002
        put_export           uvm_put_imp                 -     @2982
      slave_fifo[0]          uvm_tlm_analysis_fifo #(T)  -     @3032
        analysis_export      uvm_analysis_imp            -     @3081
        get_ap               uvm_analysis_port           -     @3071
        get_peek_export      uvm_get_peek_imp            -     @3051
        put_ap               uvm_analysis_port           -     @3061
        put_export           uvm_put_imp                 -     @3041
      slave_fifo[1]          uvm_tlm_analysis_fifo #(T)  -     @3091
        analysis_export      uvm_analysis_imp            -     @3140
        get_ap               uvm_analysis_port           -     @3130
        get_peek_export      uvm_get_peek_imp            -     @3110
        put_ap               uvm_analysis_port           -     @3120
        put_export           uvm_put_imp                 -     @3100
      slave_fifo[2]          uvm_tlm_analysis_fifo #(T)  -     @3150
        analysis_export      uvm_analysis_imp            -     @3199
        get_ap               uvm_analysis_port           -     @3189
        get_peek_export      uvm_get_peek_imp            -     @3169
        put_ap               uvm_analysis_port           -     @3179
        put_export           uvm_put_imp                 -     @3159
      slave_fifo[3]          uvm_tlm_analysis_fifo #(T)  -     @3209
        analysis_export      uvm_analysis_imp            -     @3258
        get_ap               uvm_analysis_port           -     @3248
        get_peek_export      uvm_get_peek_imp            -     @3228
        put_ap               uvm_analysis_port           -     @3238
        put_export           uvm_put_imp                 -     @3218
      slave_fifo[4]          uvm_tlm_analysis_fifo #(T)  -     @3268
        analysis_export      uvm_analysis_imp            -     @3317
        get_ap               uvm_analysis_port           -     @3307
        get_peek_export      uvm_get_peek_imp            -     @3287
        put_ap               uvm_analysis_port           -     @3297
        put_export           uvm_put_imp                 -     @3277
      slave_fifo[5]          uvm_tlm_analysis_fifo #(T)  -     @3327
        analysis_export      uvm_analysis_imp            -     @3376
        get_ap               uvm_analysis_port           -     @3366
        get_peek_export      uvm_get_peek_imp            -     @3346
        put_ap               uvm_analysis_port           -     @3356
        put_export           uvm_put_imp                 -     @3336
      slave_fifo[6]          uvm_tlm_analysis_fifo #(T)  -     @3386
        analysis_export      uvm_analysis_imp            -     @3435
        get_ap               uvm_analysis_port           -     @3425
        get_peek_export      uvm_get_peek_imp            -     @3405
        put_ap               uvm_analysis_port           -     @3415
        put_export           uvm_put_imp                 -     @3395
      slave_fifo[7]          uvm_tlm_analysis_fifo #(T)  -     @3445
        analysis_export      uvm_analysis_imp            -     @3494
        get_ap               uvm_analysis_port           -     @3484
        get_peek_export      uvm_get_peek_imp            -     @3464
        put_ap               uvm_analysis_port           -     @3474
        put_export           uvm_put_imp                 -     @3454
      slave_fifo[8]          uvm_tlm_analysis_fifo #(T)  -     @3504
        analysis_export      uvm_analysis_imp            -     @3553
        get_ap               uvm_analysis_port           -     @3543
        get_peek_export      uvm_get_peek_imp            -     @3523
        put_ap               uvm_analysis_port           -     @3533
        put_export           uvm_put_imp                 -     @3513
    slave_agent[0]           axi4_slave_agent            -     @544 
      driver                 axi4_slave_driver           -     @3706
        rsp_port             uvm_analysis_port           -     @3725
        seq_item_port        uvm_seq_item_pull_port      -     @3715
      monitor                axi4_slave_monitor          -     @3735
        item_collected_port  uvm_analysis_port           -     @3744
      sequencer              axi4_slave_sequencer        -     @3569
        rsp_export           uvm_analysis_export         -     @3578
        seq_item_export      uvm_seq_item_pull_imp       -     @3696
        arbitration_queue    array                       0     -    
        lock_queue           array                       0     -    
        num_last_reqs        integral                    32    'd1  
        num_last_rsps        integral                    32    'd1  
    slave_agent[1]           axi4_slave_agent            -     @553 
      driver                 axi4_slave_driver           -     @3897
        rsp_port             uvm_analysis_port           -     @3916
        seq_item_port        uvm_seq_item_pull_port      -     @3906
      monitor                axi4_slave_monitor          -     @3926
        item_collected_port  uvm_analysis_port           -     @3935
      sequencer              axi4_slave_sequencer        -     @3760
        rsp_export           uvm_analysis_export         -     @3769
        seq_item_export      uvm_seq_item_pull_imp       -     @3887
        arbitration_queue    array                       0     -    
        lock_queue           array                       0     -    
        num_last_reqs        integral                    32    'd1  
        num_last_rsps        integral                    32    'd1  
    slave_agent[2]           axi4_slave_agent            -     @562 
      driver                 axi4_slave_driver           -     @4088
        rsp_port             uvm_analysis_port           -     @4107
        seq_item_port        uvm_seq_item_pull_port      -     @4097
      monitor                axi4_slave_monitor          -     @4117
        item_collected_port  uvm_analysis_port           -     @4126
      sequencer              axi4_slave_sequencer        -     @3951
        rsp_export           uvm_analysis_export         -     @3960
        seq_item_export      uvm_seq_item_pull_imp       -     @4078
        arbitration_queue    array                       0     -    
        lock_queue           array                       0     -    
        num_last_reqs        integral                    32    'd1  
        num_last_rsps        integral                    32    'd1  
    slave_agent[3]           axi4_slave_agent            -     @571 
      driver                 axi4_slave_driver           -     @4279
        rsp_port             uvm_analysis_port           -     @4298
        seq_item_port        uvm_seq_item_pull_port      -     @4288
      monitor                axi4_slave_monitor          -     @4308
        item_collected_port  uvm_analysis_port           -     @4317
      sequencer              axi4_slave_sequencer        -     @4142
        rsp_export           uvm_analysis_export         -     @4151
        seq_item_export      uvm_seq_item_pull_imp       -     @4269
        arbitration_queue    array                       0     -    
        lock_queue           array                       0     -    
        num_last_reqs        integral                    32    'd1  
        num_last_rsps        integral                    32    'd1  
    slave_agent[4]           axi4_slave_agent            -     @580 
      driver                 axi4_slave_driver           -     @4470
        rsp_port             uvm_analysis_port           -     @4489
        seq_item_port        uvm_seq_item_pull_port      -     @4479
      monitor                axi4_slave_monitor          -     @4499
        item_collected_port  uvm_analysis_port           -     @4508
      sequencer              axi4_slave_sequencer        -     @4333
        rsp_export           uvm_analysis_export         -     @4342
        seq_item_export      uvm_seq_item_pull_imp       -     @4460
        arbitration_queue    array                       0     -    
        lock_queue           array                       0     -    
        num_last_reqs        integral                    32    'd1  
        num_last_rsps        integral                    32    'd1  
    slave_agent[5]           axi4_slave_agent            -     @589 
      driver                 axi4_slave_driver           -     @4661
        rsp_port             uvm_analysis_port           -     @4680
        seq_item_port        uvm_seq_item_pull_port      -     @4670
      monitor                axi4_slave_monitor          -     @4690
        item_collected_port  uvm_analysis_port           -     @4699
      sequencer              axi4_slave_sequencer        -     @4524
        rsp_export           uvm_analysis_export         -     @4533
        seq_item_export      uvm_seq_item_pull_imp       -     @4651
        arbitration_queue    array                       0     -    
        lock_queue           array                       0     -    
        num_last_reqs        integral                    32    'd1  
        num_last_rsps        integral                    32    'd1  
    slave_agent[6]           axi4_slave_agent            -     @598 
      driver                 axi4_slave_driver           -     @4852
        rsp_port             uvm_analysis_port           -     @4871
        seq_item_port        uvm_seq_item_pull_port      -     @4861
      monitor                axi4_slave_monitor          -     @4881
        item_collected_port  uvm_analysis_port           -     @4890
      sequencer              axi4_slave_sequencer        -     @4715
        rsp_export           uvm_analysis_export         -     @4724
        seq_item_export      uvm_seq_item_pull_imp       -     @4842
        arbitration_queue    array                       0     -    
        lock_queue           array                       0     -    
        num_last_reqs        integral                    32    'd1  
        num_last_rsps        integral                    32    'd1  
    slave_agent[7]           axi4_slave_agent            -     @607 
      driver                 axi4_slave_driver           -     @5043
        rsp_port             uvm_analysis_port           -     @5062
        seq_item_port        uvm_seq_item_pull_port      -     @5052
      monitor                axi4_slave_monitor          -     @5072
        item_collected_port  uvm_analysis_port           -     @5081
      sequencer              axi4_slave_sequencer        -     @4906
        rsp_export           uvm_analysis_export         -     @4915
        seq_item_export      uvm_seq_item_pull_imp       -     @5033
        arbitration_queue    array                       0     -    
        lock_queue           array                       0     -    
        num_last_reqs        integral                    32    'd1  
        num_last_rsps        integral                    32    'd1  
    slave_agent[8]           axi4_slave_agent            -     @616 
      driver                 axi4_slave_driver           -     @5234
        rsp_port             uvm_analysis_port           -     @5253
        seq_item_port        uvm_seq_item_pull_port      -     @5243
      monitor                axi4_slave_monitor          -     @5263
        item_collected_port  uvm_analysis_port           -     @5272
      sequencer              axi4_slave_sequencer        -     @5097
        rsp_export           uvm_analysis_export         -     @5106
        seq_item_export      uvm_seq_item_pull_imp       -     @5224
        arbitration_queue    array                       0     -    
        lock_queue           array                       0     -    
        num_last_reqs        integral                    32    'd1  
        num_last_rsps        integral                    32    'd1  
    v_seqr                   axi4_virtual_sequencer      -     @625 
      rsp_export             uvm_analysis_export         -     @634 
      seq_item_export        uvm_seq_item_pull_imp       -     @752 
      arbitration_queue      array                       0     -    
      lock_queue             array                       0     -    
      num_last_reqs          integral                    32    'd1  
      num_last_rsps          integral                    32    'd1  
--------------------------------------------------------------------

UVM_INFO ../master/axi4_master_pkg.sv(87) @ 0: uvm_test_top.env.master_agent[0].driver [axi4_master_driver] Starting master driver run_phase
UVM_INFO ../master/axi4_master_pkg.sv(132) @ 0: uvm_test_top.env.master_agent[0].monitor [axi4_master_monitor] Starting master monitor run_phase
UVM_INFO ../master/axi4_master_pkg.sv(133) @ 0: uvm_test_top.env.master_agent[0].monitor [axi4_master_monitor] Monitoring AXI4 master interface for transactions
UVM_INFO ../master/axi4_master_pkg.sv(87) @ 0: uvm_test_top.env.master_agent[1].driver [axi4_master_driver] Starting master driver run_phase
UVM_INFO ../master/axi4_master_pkg.sv(132) @ 0: uvm_test_top.env.master_agent[1].monitor [axi4_master_monitor] Starting master monitor run_phase
UVM_INFO ../master/axi4_master_pkg.sv(133) @ 0: uvm_test_top.env.master_agent[1].monitor [axi4_master_monitor] Monitoring AXI4 master interface for transactions
UVM_INFO ../master/axi4_master_pkg.sv(87) @ 0: uvm_test_top.env.master_agent[2].driver [axi4_master_driver] Starting master driver run_phase
UVM_INFO ../master/axi4_master_pkg.sv(132) @ 0: uvm_test_top.env.master_agent[2].monitor [axi4_master_monitor] Starting master monitor run_phase
UVM_INFO ../master/axi4_master_pkg.sv(133) @ 0: uvm_test_top.env.master_agent[2].monitor [axi4_master_monitor] Monitoring AXI4 master interface for transactions
UVM_INFO ../master/axi4_master_pkg.sv(87) @ 0: uvm_test_top.env.master_agent[3].driver [axi4_master_driver] Starting master driver run_phase
UVM_INFO ../master/axi4_master_pkg.sv(132) @ 0: uvm_test_top.env.master_agent[3].monitor [axi4_master_monitor] Starting master monitor run_phase
UVM_INFO ../master/axi4_master_pkg.sv(133) @ 0: uvm_test_top.env.master_agent[3].monitor [axi4_master_monitor] Monitoring AXI4 master interface for transactions
UVM_INFO ../master/axi4_master_pkg.sv(87) @ 0: uvm_test_top.env.master_agent[4].driver [axi4_master_driver] Starting master driver run_phase
UVM_INFO ../master/axi4_master_pkg.sv(132) @ 0: uvm_test_top.env.master_agent[4].monitor [axi4_master_monitor] Starting master monitor run_phase
UVM_INFO ../master/axi4_master_pkg.sv(133) @ 0: uvm_test_top.env.master_agent[4].monitor [axi4_master_monitor] Monitoring AXI4 master interface for transactions
UVM_INFO ../master/axi4_master_pkg.sv(87) @ 0: uvm_test_top.env.master_agent[5].driver [axi4_master_driver] Starting master driver run_phase
UVM_INFO ../master/axi4_master_pkg.sv(132) @ 0: uvm_test_top.env.master_agent[5].monitor [axi4_master_monitor] Starting master monitor run_phase
UVM_INFO ../master/axi4_master_pkg.sv(133) @ 0: uvm_test_top.env.master_agent[5].monitor [axi4_master_monitor] Monitoring AXI4 master interface for transactions
UVM_INFO ../master/axi4_master_pkg.sv(87) @ 0: uvm_test_top.env.master_agent[6].driver [axi4_master_driver] Starting master driver run_phase
UVM_INFO ../master/axi4_master_pkg.sv(132) @ 0: uvm_test_top.env.master_agent[6].monitor [axi4_master_monitor] Starting master monitor run_phase
UVM_INFO ../master/axi4_master_pkg.sv(133) @ 0: uvm_test_top.env.master_agent[6].monitor [axi4_master_monitor] Monitoring AXI4 master interface for transactions
UVM_INFO ../master/axi4_master_pkg.sv(87) @ 0: uvm_test_top.env.master_agent[7].driver [axi4_master_driver] Starting master driver run_phase
UVM_INFO ../master/axi4_master_pkg.sv(132) @ 0: uvm_test_top.env.master_agent[7].monitor [axi4_master_monitor] Starting master monitor run_phase
UVM_INFO ../master/axi4_master_pkg.sv(133) @ 0: uvm_test_top.env.master_agent[7].monitor [axi4_master_monitor] Monitoring AXI4 master interface for transactions
UVM_INFO ../master/axi4_master_pkg.sv(87) @ 0: uvm_test_top.env.master_agent[8].driver [axi4_master_driver] Starting master driver run_phase
UVM_INFO ../master/axi4_master_pkg.sv(132) @ 0: uvm_test_top.env.master_agent[8].monitor [axi4_master_monitor] Starting master monitor run_phase
UVM_INFO ../master/axi4_master_pkg.sv(133) @ 0: uvm_test_top.env.master_agent[8].monitor [axi4_master_monitor] Monitoring AXI4 master interface for transactions
UVM_INFO ../slave/axi4_slave_pkg.sv(82) @ 0: uvm_test_top.env.slave_agent[0].monitor [axi4_slave_monitor] Starting slave monitor run_phase
UVM_INFO ../slave/axi4_slave_pkg.sv(83) @ 0: uvm_test_top.env.slave_agent[0].monitor [axi4_slave_monitor] Monitoring AXI4 slave interface for transactions
UVM_INFO ../slave/axi4_slave_pkg.sv(82) @ 0: uvm_test_top.env.slave_agent[1].monitor [axi4_slave_monitor] Starting slave monitor run_phase
UVM_INFO ../slave/axi4_slave_pkg.sv(83) @ 0: uvm_test_top.env.slave_agent[1].monitor [axi4_slave_monitor] Monitoring AXI4 slave interface for transactions
UVM_INFO ../slave/axi4_slave_pkg.sv(82) @ 0: uvm_test_top.env.slave_agent[2].monitor [axi4_slave_monitor] Starting slave monitor run_phase
UVM_INFO ../slave/axi4_slave_pkg.sv(83) @ 0: uvm_test_top.env.slave_agent[2].monitor [axi4_slave_monitor] Monitoring AXI4 slave interface for transactions
UVM_INFO ../slave/axi4_slave_pkg.sv(82) @ 0: uvm_test_top.env.slave_agent[3].monitor [axi4_slave_monitor] Starting slave monitor run_phase
UVM_INFO ../slave/axi4_slave_pkg.sv(83) @ 0: uvm_test_top.env.slave_agent[3].monitor [axi4_slave_monitor] Monitoring AXI4 slave interface for transactions
UVM_INFO ../slave/axi4_slave_pkg.sv(82) @ 0: uvm_test_top.env.slave_agent[4].monitor [axi4_slave_monitor] Starting slave monitor run_phase
UVM_INFO ../slave/axi4_slave_pkg.sv(83) @ 0: uvm_test_top.env.slave_agent[4].monitor [axi4_slave_monitor] Monitoring AXI4 slave interface for transactions
UVM_INFO ../slave/axi4_slave_pkg.sv(82) @ 0: uvm_test_top.env.slave_agent[5].monitor [axi4_slave_monitor] Starting slave monitor run_phase
UVM_INFO ../slave/axi4_slave_pkg.sv(83) @ 0: uvm_test_top.env.slave_agent[5].monitor [axi4_slave_monitor] Monitoring AXI4 slave interface for transactions
UVM_INFO ../slave/axi4_slave_pkg.sv(82) @ 0: uvm_test_top.env.slave_agent[6].monitor [axi4_slave_monitor] Starting slave monitor run_phase
UVM_INFO ../slave/axi4_slave_pkg.sv(83) @ 0: uvm_test_top.env.slave_agent[6].monitor [axi4_slave_monitor] Monitoring AXI4 slave interface for transactions
UVM_INFO ../slave/axi4_slave_pkg.sv(82) @ 0: uvm_test_top.env.slave_agent[7].monitor [axi4_slave_monitor] Starting slave monitor run_phase
UVM_INFO ../slave/axi4_slave_pkg.sv(83) @ 0: uvm_test_top.env.slave_agent[7].monitor [axi4_slave_monitor] Monitoring AXI4 slave interface for transactions
UVM_INFO ../slave/axi4_slave_pkg.sv(82) @ 0: uvm_test_top.env.slave_agent[8].monitor [axi4_slave_monitor] Starting slave monitor run_phase
UVM_INFO ../slave/axi4_slave_pkg.sv(83) @ 0: uvm_test_top.env.slave_agent[8].monitor [axi4_slave_monitor] Monitoring AXI4 slave interface for transactions
UVM_INFO ../test/axi4_stress_test.sv(22) @ 0: uvm_test_top [axi4_stress_test] Starting stress test
UVM_INFO ../virtual_seq/axi4_virtual_stress_seq.sv(24) @ 0: uvm_test_top.env.v_seqr@@stress_seq [axi4_virtual_stress_seq] Starting virtual stress sequence
UVM_INFO ../master/axi4_master_pkg.sv(92) @ 0: uvm_test_top.env.master_agent[8].driver [axi4_master_driver] Got WRITE transaction - addr=0xdabeab6a, len=239, size=7, burst=2
UVM_INFO ../master/axi4_master_pkg.sv(92) @ 0: uvm_test_top.env.master_agent[7].driver [axi4_master_driver] Got READ transaction - addr=0xb0c9ded9, len=227, size=1, burst=3
UVM_INFO ../master/axi4_master_pkg.sv(92) @ 0: uvm_test_top.env.master_agent[6].driver [axi4_master_driver] Got READ transaction - addr=0x76f1ec4e, len=73, size=4, burst=3
UVM_INFO ../master/axi4_master_pkg.sv(92) @ 0: uvm_test_top.env.master_agent[5].driver [axi4_master_driver] Got READ transaction - addr=0x259d3794, len=96, size=0, burst=3
UVM_INFO ../master/axi4_master_pkg.sv(92) @ 0: uvm_test_top.env.master_agent[4].driver [axi4_master_driver] Got WRITE transaction - addr=0xdbdfe509, len=4, size=4, burst=1
UVM_INFO ../master/axi4_master_pkg.sv(92) @ 0: uvm_test_top.env.master_agent[3].driver [axi4_master_driver] Got READ transaction - addr=0xe87544a6, len=162, size=4, burst=1
UVM_INFO ../master/axi4_master_pkg.sv(92) @ 0: uvm_test_top.env.master_agent[2].driver [axi4_master_driver] Got WRITE transaction - addr=0x1113c2b7, len=179, size=5, burst=2
UVM_INFO ../master/axi4_master_pkg.sv(92) @ 0: uvm_test_top.env.master_agent[1].driver [axi4_master_driver] Got READ transaction - addr=0x86e1e756, len=39, size=3, burst=3
UVM_INFO ../master/axi4_master_pkg.sv(92) @ 0: uvm_test_top.env.master_agent[0].driver [axi4_master_driver] Got READ transaction - addr=0x201216dd, len=53, size=0, burst=3
UVM_INFO ../master/axi4_master_pkg.sv(92) @ 100000: uvm_test_top.env.master_agent[0].driver [axi4_master_driver] Got READ transaction - addr=0xb2ad560e, len=150, size=3, burst=3
UVM_INFO ../master/axi4_master_pkg.sv(92) @ 100000: uvm_test_top.env.master_agent[1].driver [axi4_master_driver] Got READ transaction - addr=0x77da7e66, len=148, size=3, burst=2
UVM_INFO ../master/axi4_master_pkg.sv(92) @ 100000: uvm_test_top.env.master_agent[2].driver [axi4_master_driver] Got READ transaction - addr=0x90d67c96, len=28, size=4, burst=3
UVM_INFO ../master/axi4_master_pkg.sv(92) @ 100000: uvm_test_top.env.master_agent[3].driver [axi4_master_driver] Got WRITE transaction - addr=0xa22aee96, len=69, size=4, burst=2
UVM_INFO ../master/axi4_master_pkg.sv(92) @ 100000: uvm_test_top.env.master_agent[4].driver [axi4_master_driver] Got WRITE transaction - addr=0x94b6a20c, len=46, size=1, burst=2
UVM_INFO ../master/axi4_master_pkg.sv(92) @ 100000: uvm_test_top.env.master_agent[5].driver [axi4_master_driver] Got WRITE transaction - addr=0xbfba6ce2, len=246, size=4, burst=0
UVM_INFO ../master/axi4_master_pkg.sv(92) @ 100000: uvm_test_top.env.master_agent[6].driver [axi4_master_driver] Got WRITE transaction - addr=0xd14a64ca, len=76, size=4, burst=2
UVM_INFO ../master/axi4_master_pkg.sv(92) @ 100000: uvm_test_top.env.master_agent[7].driver [axi4_master_driver] Got WRITE transaction - addr=0xe83ea380, len=219, size=3, burst=3
UVM_INFO ../master/axi4_master_pkg.sv(92) @ 100000: uvm_test_top.env.master_agent[8].driver [axi4_master_driver] Got READ transaction - addr=0xe34b100e, len=112, size=5, burst=0
UVM_INFO ../agent/slave_agent_bfm/axi4_slave_driver_bfm.sv(32) @ 145000: reporter [AXI_SLAVE_DRIVER_BFM] Starting write transaction handling
UVM_INFO ../agent/slave_agent_bfm/axi4_slave_driver_bfm.sv(45) @ 145000: reporter [AXI_SLAVE_DRIVER_BFM] Starting read transaction handling
UVM_INFO ../agent/slave_agent_bfm/axi4_slave_driver_bfm.sv(32) @ 145000: reporter [AXI_SLAVE_DRIVER_BFM] Starting write transaction handling
UVM_INFO ../agent/slave_agent_bfm/axi4_slave_driver_bfm.sv(45) @ 145000: reporter [AXI_SLAVE_DRIVER_BFM] Starting read transaction handling
UVM_INFO ../agent/slave_agent_bfm/axi4_slave_driver_bfm.sv(32) @ 145000: reporter [AXI_SLAVE_DRIVER_BFM] Starting write transaction handling
UVM_INFO ../agent/slave_agent_bfm/axi4_slave_driver_bfm.sv(45) @ 145000: reporter [AXI_SLAVE_DRIVER_BFM] Starting read transaction handling
UVM_INFO ../agent/slave_agent_bfm/axi4_slave_driver_bfm.sv(32) @ 145000: reporter [AXI_SLAVE_DRIVER_BFM] Starting write transaction handling
UVM_INFO ../agent/slave_agent_bfm/axi4_slave_driver_bfm.sv(45) @ 145000: reporter [AXI_SLAVE_DRIVER_BFM] Starting read transaction handling
UVM_INFO ../agent/slave_agent_bfm/axi4_slave_driver_bfm.sv(32) @ 145000: reporter [AXI_SLAVE_DRIVER_BFM] Starting write transaction handling
UVM_INFO ../agent/slave_agent_bfm/axi4_slave_driver_bfm.sv(45) @ 145000: reporter [AXI_SLAVE_DRIVER_BFM] Starting read transaction handling
UVM_INFO ../agent/slave_agent_bfm/axi4_slave_driver_bfm.sv(32) @ 145000: reporter [AXI_SLAVE_DRIVER_BFM] Starting write transaction handling
UVM_INFO ../agent/slave_agent_bfm/axi4_slave_driver_bfm.sv(45) @ 145000: reporter [AXI_SLAVE_DRIVER_BFM] Starting read transaction handling
UVM_INFO ../agent/slave_agent_bfm/axi4_slave_driver_bfm.sv(32) @ 145000: reporter [AXI_SLAVE_DRIVER_BFM] Starting write transaction handling
UVM_INFO ../agent/slave_agent_bfm/axi4_slave_driver_bfm.sv(45) @ 145000: reporter [AXI_SLAVE_DRIVER_BFM] Starting read transaction handling
UVM_INFO ../agent/slave_agent_bfm/axi4_slave_driver_bfm.sv(32) @ 145000: reporter [AXI_SLAVE_DRIVER_BFM] Starting write transaction handling
UVM_INFO ../agent/slave_agent_bfm/axi4_slave_driver_bfm.sv(45) @ 145000: reporter [AXI_SLAVE_DRIVER_BFM] Starting read transaction handling
UVM_INFO ../agent/slave_agent_bfm/axi4_slave_driver_bfm.sv(32) @ 145000: reporter [AXI_SLAVE_DRIVER_BFM] Starting write transaction handling
UVM_INFO ../agent/slave_agent_bfm/axi4_slave_driver_bfm.sv(45) @ 145000: reporter [AXI_SLAVE_DRIVER_BFM] Starting read transaction handling
UVM_INFO ../master/axi4_master_pkg.sv(92) @ 200000: uvm_test_top.env.master_agent[8].driver [axi4_master_driver] Got WRITE transaction - addr=0xb2b7045f, len=177, size=0, burst=1
UVM_INFO ../master/axi4_master_pkg.sv(92) @ 200000: uvm_test_top.env.master_agent[7].driver [axi4_master_driver] Got WRITE transaction - addr=0x5ac624ac, len=95, size=1, burst=2
UVM_INFO ../master/axi4_master_pkg.sv(92) @ 200000: uvm_test_top.env.master_agent[6].driver [axi4_master_driver] Got WRITE transaction - addr=0xe28c4aaf, len=234, size=7, burst=3
UVM_INFO ../master/axi4_master_pkg.sv(92) @ 200000: uvm_test_top.env.master_agent[5].driver [axi4_master_driver] Got WRITE transaction - addr=0x7ffb20b7, len=235, size=1, burst=3
UVM_INFO ../master/axi4_master_pkg.sv(92) @ 200000: uvm_test_top.env.master_agent[4].driver [axi4_master_driver] Got READ transaction - addr=0xa4de62dd, len=147, size=0, burst=3
UVM_INFO ../master/axi4_master_pkg.sv(92) @ 200000: uvm_test_top.env.master_agent[3].driver [axi4_master_driver] Got READ transaction - addr=0x56b1c11b, len=209, size=5, burst=3
UVM_INFO ../master/axi4_master_pkg.sv(92) @ 200000: uvm_test_top.env.master_agent[2].driver [axi4_master_driver] Got WRITE transaction - addr=0x87f330fc, len=94, size=2, burst=3
UVM_INFO ../master/axi4_master_pkg.sv(92) @ 200000: uvm_test_top.env.master_agent[1].driver [axi4_master_driver] Got READ transaction - addr=0x5c2262ef, len=75, size=7, burst=2
UVM_INFO ../master/axi4_master_pkg.sv(92) @ 200000: uvm_test_top.env.master_agent[0].driver [axi4_master_driver] Got READ transaction - addr=0xa41b2e17, len=206, size=7, burst=3
UVM_INFO ../master/axi4_master_pkg.sv(92) @ 300000: uvm_test_top.env.master_agent[0].driver [axi4_master_driver] Got READ transaction - addr=0xd33f202f, len=240, size=4, burst=1
UVM_INFO ../master/axi4_master_pkg.sv(92) @ 300000: uvm_test_top.env.master_agent[1].driver [axi4_master_driver] Got WRITE transaction - addr=0x7fdf070f, len=241, size=4, burst=2
UVM_INFO ../master/axi4_master_pkg.sv(92) @ 300000: uvm_test_top.env.master_agent[2].driver [axi4_master_driver] Got READ transaction - addr=0x4828466f, len=218, size=4, burst=2
UVM_INFO ../master/axi4_master_pkg.sv(92) @ 300000: uvm_test_top.env.master_agent[3].driver [axi4_master_driver] Got READ transaction - addr=0x4193e0a6, len=42, size=7, burst=0
UVM_INFO ../master/axi4_master_pkg.sv(92) @ 300000: uvm_test_top.env.master_agent[4].driver [axi4_master_driver] Got READ transaction - addr=0x9359da95, len=26, size=0, burst=0
UVM_INFO ../master/axi4_master_pkg.sv(92) @ 300000: uvm_test_top.env.master_agent[5].driver [axi4_master_driver] Got WRITE transaction - addr=0x11515e51, len=90, size=5, burst=2
UVM_INFO ../master/axi4_master_pkg.sv(92) @ 300000: uvm_test_top.env.master_agent[6].driver [axi4_master_driver] Got WRITE transaction - addr=0x7e83132b, len=142, size=1, burst=0
UVM_INFO ../master/axi4_master_pkg.sv(92) @ 300000: uvm_test_top.env.master_agent[7].driver [axi4_master_driver] Got WRITE transaction - addr=0x1b2a7469, len=158, size=7, burst=3
UVM_INFO ../master/axi4_master_pkg.sv(92) @ 300000: uvm_test_top.env.master_agent[8].driver [axi4_master_driver] Got WRITE transaction - addr=0x9389cc27, len=14, size=1, burst=3
UVM_INFO ../agent/master_agent_bfm/axi4_master_driver_bfm.sv(65) @ 335000: reporter [AXI_MASTER_DRIVER_BFM] Write Transaction 1: addr=0xa1098c6c, len=7, size=3, burst=0, id=4
UVM_INFO ../agent/master_agent_bfm/axi4_master_driver_bfm.sv(65) @ 335000: reporter [AXI_MASTER_DRIVER_BFM] Write Transaction 1: addr=0xa1098c6c, len=7, size=3, burst=0, id=4
UVM_INFO ../agent/master_agent_bfm/axi4_master_driver_bfm.sv(65) @ 335000: reporter [AXI_MASTER_DRIVER_BFM] Write Transaction 1: addr=0xa1098c6c, len=7, size=3, burst=0, id=4
UVM_INFO ../agent/master_agent_bfm/axi4_master_driver_bfm.sv(65) @ 335000: reporter [AXI_MASTER_DRIVER_BFM] Write Transaction 1: addr=0xa1098c6c, len=7, size=3, burst=0, id=4
UVM_INFO ../agent/master_agent_bfm/axi4_master_driver_bfm.sv(65) @ 335000: reporter [AXI_MASTER_DRIVER_BFM] Write Transaction 1: addr=0xa1098c6c, len=7, size=3, burst=0, id=4
UVM_INFO ../agent/master_agent_bfm/axi4_master_driver_bfm.sv(65) @ 335000: reporter [AXI_MASTER_DRIVER_BFM] Write Transaction 1: addr=0xa1098c6c, len=7, size=3, burst=0, id=4
UVM_INFO ../agent/master_agent_bfm/axi4_master_driver_bfm.sv(65) @ 335000: reporter [AXI_MASTER_DRIVER_BFM] Write Transaction 1: addr=0xa1098c6c, len=7, size=3, burst=0, id=4
UVM_INFO ../agent/master_agent_bfm/axi4_master_driver_bfm.sv(65) @ 335000: reporter [AXI_MASTER_DRIVER_BFM] Write Transaction 1: addr=0xa1098c6c, len=7, size=3, burst=0, id=4
UVM_INFO ../agent/master_agent_bfm/axi4_master_driver_bfm.sv(65) @ 335000: reporter [AXI_MASTER_DRIVER_BFM] Write Transaction 1: addr=0xa1098c6c, len=7, size=3, burst=0, id=4
UVM_INFO ../master/axi4_master_pkg.sv(92) @ 400000: uvm_test_top.env.master_agent[8].driver [axi4_master_driver] Got WRITE transaction - addr=0x3ef60577, len=46, size=0, burst=2
UVM_INFO ../master/axi4_master_pkg.sv(92) @ 400000: uvm_test_top.env.master_agent[7].driver [axi4_master_driver] Got READ transaction - addr=0xd5b3a9d2, len=102, size=2, burst=1
UVM_INFO ../master/axi4_master_pkg.sv(92) @ 400000: uvm_test_top.env.master_agent[6].driver [axi4_master_driver] Got WRITE transaction - addr=0x5801edd1, len=155, size=2, burst=3
UVM_INFO ../master/axi4_master_pkg.sv(92) @ 400000: uvm_test_top.env.master_agent[5].driver [axi4_master_driver] Got WRITE transaction - addr=0x42a13fd2, len=232, size=0, burst=2
UVM_INFO ../master/axi4_master_pkg.sv(92) @ 400000: uvm_test_top.env.master_agent[4].driver [axi4_master_driver] Got READ transaction - addr=0xa97779c3, len=239, size=0, burst=1
UVM_INFO ../master/axi4_master_pkg.sv(92) @ 400000: uvm_test_top.env.master_agent[3].driver [axi4_master_driver] Got READ transaction - addr=0x69eea544, len=190, size=1, burst=3
UVM_INFO ../master/axi4_master_pkg.sv(92) @ 400000: uvm_test_top.env.master_agent[2].driver [axi4_master_driver] Got READ transaction - addr=0x85cfe082, len=223, size=0, burst=0
UVM_INFO ../master/axi4_master_pkg.sv(92) @ 400000: uvm_test_top.env.master_agent[1].driver [axi4_master_driver] Got WRITE transaction - addr=0xe3bb8932, len=201, size=6, burst=1
UVM_INFO ../master/axi4_master_pkg.sv(92) @ 400000: uvm_test_top.env.master_agent[0].driver [axi4_master_driver] Got WRITE transaction - addr=0x44f8cd10, len=122, size=2, burst=3
UVM_INFO ../agent/master_agent_bfm/axi4_master_driver_bfm.sv(111) @ 475000: reporter [AXI_MASTER_DRIVER_BFM] Write response received for transaction 1, bresp=3
UVM_INFO ../master/axi4_master_pkg.sv(92) @ 500000: uvm_test_top.env.master_agent[0].driver [axi4_master_driver] Got WRITE transaction - addr=0x7405fe7b, len=7, size=2, burst=3
UVM_INFO ../master/axi4_master_pkg.sv(92) @ 500000: uvm_test_top.env.master_agent[1].driver [axi4_master_driver] Got READ transaction - addr=0x46f25427, len=116, size=1, burst=0
UVM_INFO ../master/axi4_master_pkg.sv(92) @ 500000: uvm_test_top.env.master_agent[2].driver [axi4_master_driver] Got READ transaction - addr=0xe974cd24, len=130, size=7, burst=1
UVM_INFO ../master/axi4_master_pkg.sv(92) @ 500000: uvm_test_top.env.master_agent[3].driver [axi4_master_driver] Got WRITE transaction - addr=0x70aed162, len=99, size=5, burst=2
UVM_INFO ../master/axi4_master_pkg.sv(92) @ 500000: uvm_test_top.env.master_agent[4].driver [axi4_master_driver] Got READ transaction - addr=0x1ea245d, len=79, size=0, burst=2
UVM_INFO ../master/axi4_master_pkg.sv(92) @ 500000: uvm_test_top.env.master_agent[5].driver [axi4_master_driver] Got READ transaction - addr=0x72c755e8, len=245, size=0, burst=1
UVM_INFO ../master/axi4_master_pkg.sv(92) @ 500000: uvm_test_top.env.master_agent[6].driver [axi4_master_driver] Got WRITE transaction - addr=0x92ee50ae, len=71, size=0, burst=0
UVM_INFO ../master/axi4_master_pkg.sv(92) @ 500000: uvm_test_top.env.master_agent[7].driver [axi4_master_driver] Got READ transaction - addr=0xfd75fc0c, len=204, size=4, burst=0
UVM_INFO ../master/axi4_master_pkg.sv(92) @ 500000: uvm_test_top.env.master_agent[8].driver [axi4_master_driver] Got WRITE transaction - addr=0x7bb98c93, len=234, size=6, burst=0
UVM_INFO ../agent/master_agent_bfm/axi4_master_driver_bfm.sv(134) @ 575000: reporter [AXI_MASTER_DRIVER_BFM] Read Transaction 1: addr=0xff93608a, len=9, size=3, burst=0, id=1
UVM_INFO ../master/axi4_master_pkg.sv(92) @ 600000: uvm_test_top.env.master_agent[8].driver [axi4_master_driver] Got READ transaction - addr=0x6113c3e9, len=194, size=2, burst=3
UVM_INFO ../master/axi4_master_pkg.sv(92) @ 600000: uvm_test_top.env.master_agent[7].driver [axi4_master_driver] Got WRITE transaction - addr=0x49e8a3ee, len=209, size=0, burst=3
UVM_INFO ../master/axi4_master_pkg.sv(92) @ 600000: uvm_test_top.env.master_agent[6].driver [axi4_master_driver] Got READ transaction - addr=0x61596bc, len=99, size=0, burst=2
UVM_INFO ../master/axi4_master_pkg.sv(92) @ 600000: uvm_test_top.env.master_agent[5].driver [axi4_master_driver] Got READ transaction - addr=0xc4dd5fbd, len=35, size=6, burst=3
UVM_INFO ../master/axi4_master_pkg.sv(92) @ 600000: uvm_test_top.env.master_agent[4].driver [axi4_master_driver] Got READ transaction - addr=0x1dbbcfe3, len=56, size=5, burst=3
UVM_INFO ../master/axi4_master_pkg.sv(92) @ 600000: uvm_test_top.env.master_agent[3].driver [axi4_master_driver] Got READ transaction - addr=0x8fb12387, len=102, size=7, burst=1
UVM_INFO ../master/axi4_master_pkg.sv(92) @ 600000: uvm_test_top.env.master_agent[2].driver [axi4_master_driver] Got WRITE transaction - addr=0xb48f635e, len=39, size=1, burst=3
UVM_INFO ../master/axi4_master_pkg.sv(92) @ 600000: uvm_test_top.env.master_agent[1].driver [axi4_master_driver] Got WRITE transaction - addr=0x9ea8f15b, len=225, size=3, burst=0
UVM_INFO ../master/axi4_master_pkg.sv(92) @ 600000: uvm_test_top.env.master_agent[0].driver [axi4_master_driver] Got READ transaction - addr=0x61e4991b, len=125, size=2, burst=0
UVM_INFO ../master/axi4_master_pkg.sv(92) @ 700000: uvm_test_top.env.master_agent[0].driver [axi4_master_driver] Got READ transaction - addr=0x2f2d90bf, len=12, size=7, burst=3
UVM_INFO ../master/axi4_master_pkg.sv(92) @ 700000: uvm_test_top.env.master_agent[1].driver [axi4_master_driver] Got READ transaction - addr=0x5ec6b867, len=172, size=6, burst=3
UVM_INFO ../master/axi4_master_pkg.sv(92) @ 700000: uvm_test_top.env.master_agent[2].driver [axi4_master_driver] Got WRITE transaction - addr=0xbdb1b133, len=42, size=0, burst=0
UVM_INFO ../master/axi4_master_pkg.sv(92) @ 700000: uvm_test_top.env.master_agent[3].driver [axi4_master_driver] Got WRITE transaction - addr=0x1223e238, len=194, size=1, burst=1
UVM_INFO ../master/axi4_master_pkg.sv(92) @ 700000: uvm_test_top.env.master_agent[4].driver [axi4_master_driver] Got WRITE transaction - addr=0x66f2786f, len=37, size=7, burst=3
UVM_INFO ../master/axi4_master_pkg.sv(92) @ 700000: uvm_test_top.env.master_agent[5].driver [axi4_master_driver] Got WRITE transaction - addr=0xd695623d, len=55, size=5, burst=0
UVM_INFO ../master/axi4_master_pkg.sv(92) @ 700000: uvm_test_top.env.master_agent[6].driver [axi4_master_driver] Got WRITE transaction - addr=0x1b422c3d, len=21, size=4, burst=2
UVM_INFO ../master/axi4_master_pkg.sv(92) @ 700000: uvm_test_top.env.master_agent[7].driver [axi4_master_driver] Got READ transaction - addr=0xd7876b3a, len=37, size=2, burst=3
UVM_INFO ../master/axi4_master_pkg.sv(92) @ 700000: uvm_test_top.env.master_agent[8].driver [axi4_master_driver] Got WRITE transaction - addr=0x76286dc1, len=251, size=1, burst=1
UVM_INFO ../agent/master_agent_bfm/axi4_master_driver_bfm.sv(176) @ 715000: reporter [AXI_MASTER_DRIVER_BFM] Read transaction 1 completed
UVM_INFO ../master/axi4_master_pkg.sv(92) @ 800000: uvm_test_top.env.master_agent[8].driver [axi4_master_driver] Got WRITE transaction - addr=0x58d41a25, len=204, size=0, burst=1
UVM_INFO ../master/axi4_master_pkg.sv(92) @ 800000: uvm_test_top.env.master_agent[7].driver [axi4_master_driver] Got READ transaction - addr=0x6e71d42e, len=40, size=0, burst=2
UVM_INFO ../master/axi4_master_pkg.sv(92) @ 800000: uvm_test_top.env.master_agent[6].driver [axi4_master_driver] Got WRITE transaction - addr=0x372974c1, len=248, size=3, burst=2
UVM_INFO ../master/axi4_master_pkg.sv(92) @ 800000: uvm_test_top.env.master_agent[5].driver [axi4_master_driver] Got READ transaction - addr=0x739f020f, len=0, size=1, burst=2
UVM_INFO ../master/axi4_master_pkg.sv(92) @ 800000: uvm_test_top.env.master_agent[4].driver [axi4_master_driver] Got WRITE transaction - addr=0xa2cdebf8, len=70, size=2, burst=1
UVM_INFO ../master/axi4_master_pkg.sv(92) @ 800000: uvm_test_top.env.master_agent[3].driver [axi4_master_driver] Got READ transaction - addr=0x95f8c8d, len=151, size=2, burst=0
UVM_INFO ../master/axi4_master_pkg.sv(92) @ 800000: uvm_test_top.env.master_agent[2].driver [axi4_master_driver] Got WRITE transaction - addr=0x726095c7, len=79, size=5, burst=2
UVM_INFO ../master/axi4_master_pkg.sv(92) @ 800000: uvm_test_top.env.master_agent[1].driver [axi4_master_driver] Got READ transaction - addr=0xe67edf47, len=64, size=1, burst=1
UVM_INFO ../master/axi4_master_pkg.sv(92) @ 800000: uvm_test_top.env.master_agent[0].driver [axi4_master_driver] Got READ transaction - addr=0x40b0b066, len=168, size=5, burst=1
UVM_INFO ../master/axi4_master_pkg.sv(92) @ 900000: uvm_test_top.env.master_agent[0].driver [axi4_master_driver] Got WRITE transaction - addr=0xa80941aa, len=144, size=4, burst=2
UVM_INFO ../master/axi4_master_pkg.sv(92) @ 900000: uvm_test_top.env.master_agent[1].driver [axi4_master_driver] Got WRITE transaction - addr=0xbc6fc35d, len=249, size=4, burst=3
UVM_INFO ../master/axi4_master_pkg.sv(92) @ 900000: uvm_test_top.env.master_agent[2].driver [axi4_master_driver] Got READ transaction - addr=0x405a7f9c, len=96, size=4, burst=2
UVM_INFO ../master/axi4_master_pkg.sv(92) @ 900000: uvm_test_top.env.master_agent[3].driver [axi4_master_driver] Got WRITE transaction - addr=0xfd0b8f0, len=164, size=6, burst=3
UVM_INFO ../master/axi4_master_pkg.sv(92) @ 900000: uvm_test_top.env.master_agent[4].driver [axi4_master_driver] Got READ transaction - addr=0x2cf2748a, len=73, size=3, burst=1
UVM_INFO ../master/axi4_master_pkg.sv(92) @ 900000: uvm_test_top.env.master_agent[5].driver [axi4_master_driver] Got READ transaction - addr=0x7ac8647c, len=172, size=0, burst=1
UVM_INFO ../master/axi4_master_pkg.sv(92) @ 900000: uvm_test_top.env.master_agent[6].driver [axi4_master_driver] Got READ transaction - addr=0xe078e9a5, len=220, size=3, burst=1
UVM_INFO ../master/axi4_master_pkg.sv(92) @ 900000: uvm_test_top.env.master_agent[7].driver [axi4_master_driver] Got READ transaction - addr=0x7ae2a107, len=183, size=6, burst=3
UVM_INFO ../master/axi4_master_pkg.sv(92) @ 900000: uvm_test_top.env.master_agent[8].driver [axi4_master_driver] Got WRITE transaction - addr=0x45708cd7, len=78, size=5, burst=0
UVM_INFO ../master/axi4_master_pkg.sv(92) @ 1000000: uvm_test_top.env.master_agent[8].driver [axi4_master_driver] Got READ transaction - addr=0x3ac43bc9, len=254, size=2, burst=0
UVM_INFO ../master/axi4_master_pkg.sv(92) @ 1000000: uvm_test_top.env.master_agent[7].driver [axi4_master_driver] Got WRITE transaction - addr=0xd9e6cca0, len=182, size=2, burst=1
UVM_INFO ../master/axi4_master_pkg.sv(92) @ 1000000: uvm_test_top.env.master_agent[6].driver [axi4_master_driver] Got WRITE transaction - addr=0xc225d0ba, len=38, size=0, burst=2
UVM_INFO ../master/axi4_master_pkg.sv(92) @ 1000000: uvm_test_top.env.master_agent[5].driver [axi4_master_driver] Got READ transaction - addr=0xdaedb714, len=225, size=5, burst=2
UVM_INFO ../master/axi4_master_pkg.sv(92) @ 1000000: uvm_test_top.env.master_agent[4].driver [axi4_master_driver] Got READ transaction - addr=0x693f74ed, len=17, size=7, burst=1
UVM_INFO ../master/axi4_master_pkg.sv(92) @ 1000000: uvm_test_top.env.master_agent[3].driver [axi4_master_driver] Got WRITE transaction - addr=0xb74452f9, len=6, size=0, burst=2
UVM_INFO ../master/axi4_master_pkg.sv(92) @ 1000000: uvm_test_top.env.master_agent[2].driver [axi4_master_driver] Got WRITE transaction - addr=0x10b0d5a9, len=125, size=6, burst=2
UVM_INFO ../master/axi4_master_pkg.sv(92) @ 1000000: uvm_test_top.env.master_agent[1].driver [axi4_master_driver] Got READ transaction - addr=0x6ff08c88, len=224, size=4, burst=1
UVM_INFO ../master/axi4_master_pkg.sv(92) @ 1000000: uvm_test_top.env.master_agent[0].driver [axi4_master_driver] Got WRITE transaction - addr=0xc4e75d64, len=158, size=4, burst=2
UVM_INFO ../agent/master_agent_bfm/axi4_master_driver_bfm.sv(65) @ 1015000: reporter [AXI_MASTER_DRIVER_BFM] Write Transaction 2: addr=0xe36f04f8, len=10, size=0, burst=1, id=3
UVM_INFO ../master/axi4_master_pkg.sv(92) @ 1100000: uvm_test_top.env.master_agent[0].driver [axi4_master_driver] Got READ transaction - addr=0x1e950d09, len=193, size=6, burst=2
UVM_INFO ../master/axi4_master_pkg.sv(92) @ 1100000: uvm_test_top.env.master_agent[1].driver [axi4_master_driver] Got READ transaction - addr=0x1ee839d, len=85, size=5, burst=3
UVM_INFO ../master/axi4_master_pkg.sv(92) @ 1100000: uvm_test_top.env.master_agent[2].driver [axi4_master_driver] Got WRITE transaction - addr=0x319729d0, len=160, size=6, burst=1
UVM_INFO ../master/axi4_master_pkg.sv(92) @ 1100000: uvm_test_top.env.master_agent[3].driver [axi4_master_driver] Got READ transaction - addr=0xefcf4c54, len=66, size=4, burst=2
UVM_INFO ../master/axi4_master_pkg.sv(92) @ 1100000: uvm_test_top.env.master_agent[4].driver [axi4_master_driver] Got READ transaction - addr=0xec3bfe7, len=51, size=5, burst=1
UVM_INFO ../master/axi4_master_pkg.sv(92) @ 1100000: uvm_test_top.env.master_agent[5].driver [axi4_master_driver] Got READ transaction - addr=0x7dfdf4f0, len=88, size=6, burst=1
UVM_INFO ../master/axi4_master_pkg.sv(92) @ 1100000: uvm_test_top.env.master_agent[6].driver [axi4_master_driver] Got WRITE transaction - addr=0x9dceb5db, len=158, size=7, burst=3
UVM_INFO ../master/axi4_master_pkg.sv(92) @ 1100000: uvm_test_top.env.master_agent[7].driver [axi4_master_driver] Got READ transaction - addr=0xfe6d4bdb, len=91, size=4, burst=1
UVM_INFO ../master/axi4_master_pkg.sv(92) @ 1100000: uvm_test_top.env.master_agent[8].driver [axi4_master_driver] Got READ transaction - addr=0x46c43a4c, len=50, size=5, burst=0
UVM_INFO ../agent/master_agent_bfm/axi4_master_driver_bfm.sv(111) @ 1185000: reporter [AXI_MASTER_DRIVER_BFM] Write response received for transaction 2, bresp=3
UVM_INFO ../master/axi4_master_pkg.sv(92) @ 1200000: uvm_test_top.env.master_agent[8].driver [axi4_master_driver] Got READ transaction - addr=0x4792ef8f, len=191, size=0, burst=3
UVM_INFO ../master/axi4_master_pkg.sv(92) @ 1200000: uvm_test_top.env.master_agent[7].driver [axi4_master_driver] Got READ transaction - addr=0xbaf3185e, len=55, size=1, burst=1
UVM_INFO ../master/axi4_master_pkg.sv(92) @ 1200000: uvm_test_top.env.master_agent[6].driver [axi4_master_driver] Got WRITE transaction - addr=0xe36ba85f, len=88, size=3, burst=0
UVM_INFO ../master/axi4_master_pkg.sv(92) @ 1200000: uvm_test_top.env.master_agent[5].driver [axi4_master_driver] Got READ transaction - addr=0x3f25f1e1, len=156, size=0, burst=1
UVM_INFO ../master/axi4_master_pkg.sv(92) @ 1200000: uvm_test_top.env.master_agent[4].driver [axi4_master_driver] Got WRITE transaction - addr=0x79c3762d, len=206, size=5, burst=3
UVM_INFO ../master/axi4_master_pkg.sv(92) @ 1200000: uvm_test_top.env.master_agent[3].driver [axi4_master_driver] Got WRITE transaction - addr=0x4794e7fe, len=4, size=0, burst=0
UVM_INFO ../master/axi4_master_pkg.sv(92) @ 1200000: uvm_test_top.env.master_agent[2].driver [axi4_master_driver] Got READ transaction - addr=0xbe4fa3b6, len=21, size=3, burst=3
UVM_INFO ../master/axi4_master_pkg.sv(92) @ 1200000: uvm_test_top.env.master_agent[1].driver [axi4_master_driver] Got WRITE transaction - addr=0xc04df79d, len=70, size=5, burst=0
UVM_INFO ../master/axi4_master_pkg.sv(92) @ 1200000: uvm_test_top.env.master_agent[0].driver [axi4_master_driver] Got READ transaction - addr=0x3093b0e6, len=64, size=7, burst=2
UVM_INFO ../master/axi4_master_pkg.sv(92) @ 1300000: uvm_test_top.env.master_agent[0].driver [axi4_master_driver] Got READ transaction - addr=0xe23bbff9, len=187, size=5, burst=3
UVM_INFO ../master/axi4_master_pkg.sv(92) @ 1300000: uvm_test_top.env.master_agent[1].driver [axi4_master_driver] Got WRITE transaction - addr=0x5b3248c1, len=252, size=5, burst=0
UVM_INFO ../master/axi4_master_pkg.sv(92) @ 1300000: uvm_test_top.env.master_agent[2].driver [axi4_master_driver] Got READ transaction - addr=0x5bef4573, len=75, size=5, burst=2
UVM_INFO ../master/axi4_master_pkg.sv(92) @ 1300000: uvm_test_top.env.master_agent[3].driver [axi4_master_driver] Got READ transaction - addr=0xabf97442, len=242, size=7, burst=0
UVM_INFO ../master/axi4_master_pkg.sv(92) @ 1300000: uvm_test_top.env.master_agent[4].driver [axi4_master_driver] Got READ transaction - addr=0x3c5b0d2e, len=40, size=1, burst=3
UVM_INFO ../master/axi4_master_pkg.sv(92) @ 1300000: uvm_test_top.env.master_agent[5].driver [axi4_master_driver] Got READ transaction - addr=0xdcb70e9a, len=79, size=6, burst=0
UVM_INFO ../master/axi4_master_pkg.sv(92) @ 1300000: uvm_test_top.env.master_agent[6].driver [axi4_master_driver] Got WRITE transaction - addr=0x2aef38e1, len=2, size=0, burst=0
UVM_INFO ../master/axi4_master_pkg.sv(92) @ 1300000: uvm_test_top.env.master_agent[7].driver [axi4_master_driver] Got WRITE transaction - addr=0x415c06dd, len=98, size=4, burst=3
UVM_INFO ../master/axi4_master_pkg.sv(92) @ 1300000: uvm_test_top.env.master_agent[8].driver [axi4_master_driver] Got WRITE transaction - addr=0x716226c4, len=169, size=7, burst=2
UVM_INFO ../agent/master_agent_bfm/axi4_master_driver_bfm.sv(134) @ 1315000: reporter [AXI_MASTER_DRIVER_BFM] Read Transaction 2: addr=0xe23e7da4, len=12, size=3, burst=1, id=3
UVM_INFO ../master/axi4_master_pkg.sv(92) @ 1400000: uvm_test_top.env.master_agent[8].driver [axi4_master_driver] Got WRITE transaction - addr=0x131f181f, len=254, size=0, burst=1
UVM_INFO ../master/axi4_master_pkg.sv(92) @ 1400000: uvm_test_top.env.master_agent[7].driver [axi4_master_driver] Got WRITE transaction - addr=0xda93d822, len=217, size=0, burst=1
UVM_INFO ../master/axi4_master_pkg.sv(92) @ 1400000: uvm_test_top.env.master_agent[6].driver [axi4_master_driver] Got READ transaction - addr=0x7d59e6b4, len=97, size=3, burst=0
UVM_INFO ../master/axi4_master_pkg.sv(92) @ 1400000: uvm_test_top.env.master_agent[5].driver [axi4_master_driver] Got READ transaction - addr=0xbc571447, len=15, size=6, burst=0
UVM_INFO ../master/axi4_master_pkg.sv(92) @ 1400000: uvm_test_top.env.master_agent[4].driver [axi4_master_driver] Got READ transaction - addr=0x9f87bad6, len=214, size=1, burst=2
UVM_INFO ../master/axi4_master_pkg.sv(92) @ 1400000: uvm_test_top.env.master_agent[3].driver [axi4_master_driver] Got READ transaction - addr=0x59797c5d, len=79, size=0, burst=1
UVM_INFO ../master/axi4_master_pkg.sv(92) @ 1400000: uvm_test_top.env.master_agent[2].driver [axi4_master_driver] Got READ transaction - addr=0x3c4b112b, len=173, size=3, burst=1
UVM_INFO ../master/axi4_master_pkg.sv(92) @ 1400000: uvm_test_top.env.master_agent[1].driver [axi4_master_driver] Got WRITE transaction - addr=0x9245cb45, len=215, size=0, burst=3
UVM_INFO ../master/axi4_master_pkg.sv(92) @ 1400000: uvm_test_top.env.master_agent[0].driver [axi4_master_driver] Got READ transaction - addr=0x161beb71, len=116, size=2, burst=1
UVM_INFO ../agent/master_agent_bfm/axi4_master_driver_bfm.sv(176) @ 1485000: reporter [AXI_MASTER_DRIVER_BFM] Read transaction 2 completed
UVM_INFO ../master/axi4_master_pkg.sv(92) @ 1500000: uvm_test_top.env.master_agent[0].driver [axi4_master_driver] Got READ transaction - addr=0x96a4a04c, len=204, size=0, burst=1
UVM_INFO ../master/axi4_master_pkg.sv(92) @ 1500000: uvm_test_top.env.master_agent[1].driver [axi4_master_driver] Got WRITE transaction - addr=0x957e7e35, len=229, size=2, burst=1
UVM_INFO ../master/axi4_master_pkg.sv(92) @ 1500000: uvm_test_top.env.master_agent[2].driver [axi4_master_driver] Got WRITE transaction - addr=0x47e7a43d, len=202, size=7, burst=1
UVM_INFO ../master/axi4_master_pkg.sv(92) @ 1500000: uvm_test_top.env.master_agent[3].driver [axi4_master_driver] Got READ transaction - addr=0xe3ce0535, len=9, size=4, burst=3
UVM_INFO ../master/axi4_master_pkg.sv(92) @ 1500000: uvm_test_top.env.master_agent[4].driver [axi4_master_driver] Got WRITE transaction - addr=0x7eba19b8, len=161, size=4, burst=0
UVM_INFO ../master/axi4_master_pkg.sv(92) @ 1500000: uvm_test_top.env.master_agent[5].driver [axi4_master_driver] Got WRITE transaction - addr=0x6ef9544d, len=68, size=0, burst=2
UVM_INFO ../master/axi4_master_pkg.sv(92) @ 1500000: uvm_test_top.env.master_agent[6].driver [axi4_master_driver] Got WRITE transaction - addr=0x5b43f6ee, len=8, size=6, burst=0
UVM_INFO ../master/axi4_master_pkg.sv(92) @ 1500000: uvm_test_top.env.master_agent[7].driver [axi4_master_driver] Got WRITE transaction - addr=0x89590783, len=142, size=2, burst=1
UVM_INFO ../master/axi4_master_pkg.sv(92) @ 1500000: uvm_test_top.env.master_agent[8].driver [axi4_master_driver] Got READ transaction - addr=0xdf001818, len=163, size=1, burst=0
UVM_INFO ../master/axi4_master_pkg.sv(92) @ 1600000: uvm_test_top.env.master_agent[8].driver [axi4_master_driver] Got WRITE transaction - addr=0xd85b620e, len=251, size=0, burst=3
UVM_INFO ../master/axi4_master_pkg.sv(92) @ 1600000: uvm_test_top.env.master_agent[7].driver [axi4_master_driver] Got WRITE transaction - addr=0xaf9df2cc, len=219, size=4, burst=2
UVM_INFO ../master/axi4_master_pkg.sv(92) @ 1600000: uvm_test_top.env.master_agent[6].driver [axi4_master_driver] Got READ transaction - addr=0x57653616, len=158, size=5, burst=1
UVM_INFO ../master/axi4_master_pkg.sv(92) @ 1600000: uvm_test_top.env.master_agent[5].driver [axi4_master_driver] Got WRITE transaction - addr=0xd5570717, len=202, size=6, burst=2
UVM_INFO ../master/axi4_master_pkg.sv(92) @ 1600000: uvm_test_top.env.master_agent[4].driver [axi4_master_driver] Got READ transaction - addr=0xfe0e8296, len=137, size=5, burst=3
UVM_INFO ../master/axi4_master_pkg.sv(92) @ 1600000: uvm_test_top.env.master_agent[3].driver [axi4_master_driver] Got WRITE transaction - addr=0x6f1d7a53, len=149, size=7, burst=2
UVM_INFO ../master/axi4_master_pkg.sv(92) @ 1600000: uvm_test_top.env.master_agent[2].driver [axi4_master_driver] Got WRITE transaction - addr=0x61b01a29, len=78, size=0, burst=0
UVM_INFO ../master/axi4_master_pkg.sv(92) @ 1600000: uvm_test_top.env.master_agent[1].driver [axi4_master_driver] Got READ transaction - addr=0x754b4079, len=166, size=0, burst=1
UVM_INFO ../master/axi4_master_pkg.sv(92) @ 1600000: uvm_test_top.env.master_agent[0].driver [axi4_master_driver] Got WRITE transaction - addr=0xd766f51d, len=207, size=3, burst=0
UVM_INFO ../master/axi4_master_pkg.sv(92) @ 1700000: uvm_test_top.env.master_agent[0].driver [axi4_master_driver] Got WRITE transaction - addr=0x5b23fb46, len=13, size=4, burst=0
UVM_INFO ../master/axi4_master_pkg.sv(92) @ 1700000: uvm_test_top.env.master_agent[1].driver [axi4_master_driver] Got READ transaction - addr=0x8bc4f1af, len=120, size=3, burst=2
UVM_INFO ../master/axi4_master_pkg.sv(92) @ 1700000: uvm_test_top.env.master_agent[2].driver [axi4_master_driver] Got WRITE transaction - addr=0xa9068bf5, len=154, size=3, burst=0
UVM_INFO ../master/axi4_master_pkg.sv(92) @ 1700000: uvm_test_top.env.master_agent[3].driver [axi4_master_driver] Got READ transaction - addr=0x3ae56b1b, len=106, size=2, burst=0
UVM_INFO ../master/axi4_master_pkg.sv(92) @ 1700000: uvm_test_top.env.master_agent[4].driver [axi4_master_driver] Got WRITE transaction - addr=0xd3d3dd08, len=34, size=4, burst=0
UVM_INFO ../master/axi4_master_pkg.sv(92) @ 1700000: uvm_test_top.env.master_agent[5].driver [axi4_master_driver] Got WRITE transaction - addr=0x7ae5b4e7, len=228, size=6, burst=3
UVM_INFO ../master/axi4_master_pkg.sv(92) @ 1700000: uvm_test_top.env.master_agent[6].driver [axi4_master_driver] Got READ transaction - addr=0xeb7f3e8e, len=245, size=1, burst=1
UVM_INFO ../master/axi4_master_pkg.sv(92) @ 1700000: uvm_test_top.env.master_agent[7].driver [axi4_master_driver] Got WRITE transaction - addr=0x255fc31f, len=216, size=3, burst=2
UVM_INFO ../master/axi4_master_pkg.sv(92) @ 1700000: uvm_test_top.env.master_agent[8].driver [axi4_master_driver] Got READ transaction - addr=0xd6658241, len=191, size=5, burst=0
UVM_INFO ../master/axi4_master_pkg.sv(92) @ 1800000: uvm_test_top.env.master_agent[8].driver [axi4_master_driver] Got READ transaction - addr=0x72e32be9, len=39, size=7, burst=1
UVM_INFO ../master/axi4_master_pkg.sv(92) @ 1800000: uvm_test_top.env.master_agent[7].driver [axi4_master_driver] Got READ transaction - addr=0x2a71246f, len=189, size=1, burst=0
UVM_INFO ../master/axi4_master_pkg.sv(92) @ 1800000: uvm_test_top.env.master_agent[6].driver [axi4_master_driver] Got WRITE transaction - addr=0xa842355b, len=6, size=7, burst=0
UVM_INFO ../master/axi4_master_pkg.sv(92) @ 1800000: uvm_test_top.env.master_agent[5].driver [axi4_master_driver] Got READ transaction - addr=0x8a8a6d6b, len=131, size=1, burst=1
UVM_INFO ../master/axi4_master_pkg.sv(92) @ 1800000: uvm_test_top.env.master_agent[4].driver [axi4_master_driver] Got WRITE transaction - addr=0x5832f305, len=237, size=3, burst=0
UVM_INFO ../master/axi4_master_pkg.sv(92) @ 1800000: uvm_test_top.env.master_agent[3].driver [axi4_master_driver] Got READ transaction - addr=0xa7c9cc40, len=151, size=3, burst=3
UVM_INFO ../master/axi4_master_pkg.sv(92) @ 1800000: uvm_test_top.env.master_agent[2].driver [axi4_master_driver] Got READ transaction - addr=0x938da7c8, len=107, size=6, burst=1
UVM_INFO ../master/axi4_master_pkg.sv(92) @ 1800000: uvm_test_top.env.master_agent[1].driver [axi4_master_driver] Got READ transaction - addr=0xb6f9321a, len=110, size=7, burst=3
UVM_INFO ../master/axi4_master_pkg.sv(92) @ 1800000: uvm_test_top.env.master_agent[0].driver [axi4_master_driver] Got READ transaction - addr=0xfb8812e6, len=83, size=0, burst=2
UVM_INFO ../master/axi4_master_pkg.sv(92) @ 1900000: uvm_test_top.env.master_agent[0].driver [axi4_master_driver] Got READ transaction - addr=0xbda9901e, len=0, size=3, burst=1
UVM_INFO ../master/axi4_master_pkg.sv(92) @ 1900000: uvm_test_top.env.master_agent[1].driver [axi4_master_driver] Got WRITE transaction - addr=0xa0f9a7eb, len=57, size=5, burst=3
UVM_INFO ../master/axi4_master_pkg.sv(92) @ 1900000: uvm_test_top.env.master_agent[2].driver [axi4_master_driver] Got READ transaction - addr=0xf55e824a, len=65, size=0, burst=2
UVM_INFO ../master/axi4_master_pkg.sv(92) @ 1900000: uvm_test_top.env.master_agent[3].driver [axi4_master_driver] Got WRITE transaction - addr=0xa3ce3ea1, len=54, size=5, burst=0
UVM_INFO ../master/axi4_master_pkg.sv(92) @ 1900000: uvm_test_top.env.master_agent[4].driver [axi4_master_driver] Got WRITE transaction - addr=0xc9f65b40, len=60, size=1, burst=2
UVM_INFO ../master/axi4_master_pkg.sv(92) @ 1900000: uvm_test_top.env.master_agent[5].driver [axi4_master_driver] Got READ transaction - addr=0x7a9e4406, len=149, size=3, burst=2
UVM_INFO ../master/axi4_master_pkg.sv(92) @ 1900000: uvm_test_top.env.master_agent[6].driver [axi4_master_driver] Got WRITE transaction - addr=0x6314670e, len=128, size=6, burst=3
UVM_INFO ../master/axi4_master_pkg.sv(92) @ 1900000: uvm_test_top.env.master_agent[7].driver [axi4_master_driver] Got READ transaction - addr=0x49b025, len=90, size=1, burst=3
UVM_INFO ../master/axi4_master_pkg.sv(92) @ 1900000: uvm_test_top.env.master_agent[8].driver [axi4_master_driver] Got READ transaction - addr=0x9e548fde, len=162, size=2, burst=3
UVM_INFO ../agent/master_agent_bfm/axi4_master_driver_bfm.sv(65) @ 1995000: reporter [AXI_MASTER_DRIVER_BFM] Write Transaction 3: addr=0x2044868e, len=9, size=1, burst=2, id=0
UVM_INFO ../master/axi4_master_pkg.sv(92) @ 2000000: uvm_test_top.env.master_agent[8].driver [axi4_master_driver] Got WRITE transaction - addr=0x4899a064, len=65, size=3, burst=1
UVM_INFO ../master/axi4_master_pkg.sv(92) @ 2000000: uvm_test_top.env.master_agent[7].driver [axi4_master_driver] Got WRITE transaction - addr=0xe496ef41, len=199, size=5, burst=3
UVM_INFO ../master/axi4_master_pkg.sv(92) @ 2000000: uvm_test_top.env.master_agent[6].driver [axi4_master_driver] Got READ transaction - addr=0xea4b87e8, len=1, size=4, burst=1
UVM_INFO ../master/axi4_master_pkg.sv(92) @ 2000000: uvm_test_top.env.master_agent[5].driver [axi4_master_driver] Got WRITE transaction - addr=0xa65b16cd, len=52, size=1, burst=3
UVM_INFO ../master/axi4_master_pkg.sv(92) @ 2000000: uvm_test_top.env.master_agent[4].driver [axi4_master_driver] Got WRITE transaction - addr=0x95257ca6, len=245, size=4, burst=3
UVM_INFO ../master/axi4_master_pkg.sv(92) @ 2000000: uvm_test_top.env.master_agent[3].driver [axi4_master_driver] Got READ transaction - addr=0x54d40696, len=9, size=3, burst=2
UVM_INFO ../master/axi4_master_pkg.sv(92) @ 2000000: uvm_test_top.env.master_agent[2].driver [axi4_master_driver] Got WRITE transaction - addr=0x89554e31, len=90, size=1, burst=0
UVM_INFO ../master/axi4_master_pkg.sv(92) @ 2000000: uvm_test_top.env.master_agent[1].driver [axi4_master_driver] Got WRITE transaction - addr=0x17b8fdeb, len=126, size=7, burst=2
UVM_INFO ../master/axi4_master_pkg.sv(92) @ 2000000: uvm_test_top.env.master_agent[0].driver [axi4_master_driver] Got READ transaction - addr=0x6bb0acc, len=147, size=1, burst=3
UVM_INFO ../master/axi4_master_pkg.sv(92) @ 2100000: uvm_test_top.env.master_agent[0].driver [axi4_master_driver] Got WRITE transaction - addr=0xb5422e77, len=105, size=7, burst=0
UVM_INFO ../master/axi4_master_pkg.sv(92) @ 2100000: uvm_test_top.env.master_agent[1].driver [axi4_master_driver] Got READ transaction - addr=0x388a9474, len=251, size=5, burst=2
UVM_INFO ../master/axi4_master_pkg.sv(92) @ 2100000: uvm_test_top.env.master_agent[2].driver [axi4_master_driver] Got READ transaction - addr=0xbb71af51, len=91, size=6, burst=2
UVM_INFO ../master/axi4_master_pkg.sv(92) @ 2100000: uvm_test_top.env.master_agent[3].driver [axi4_master_driver] Got READ transaction - addr=0xa1a56350, len=36, size=2, burst=2
UVM_INFO ../master/axi4_master_pkg.sv(92) @ 2100000: uvm_test_top.env.master_agent[4].driver [axi4_master_driver] Got READ transaction - addr=0x411721cf, len=59, size=3, burst=3
UVM_INFO ../master/axi4_master_pkg.sv(92) @ 2100000: uvm_test_top.env.master_agent[5].driver [axi4_master_driver] Got WRITE transaction - addr=0x49c93f8, len=161, size=0, burst=3
UVM_INFO ../master/axi4_master_pkg.sv(92) @ 2100000: uvm_test_top.env.master_agent[6].driver [axi4_master_driver] Got WRITE transaction - addr=0x5f7f53c9, len=189, size=1, burst=3
UVM_INFO ../master/axi4_master_pkg.sv(92) @ 2100000: uvm_test_top.env.master_agent[7].driver [axi4_master_driver] Got READ transaction - addr=0x173507d7, len=192, size=0, burst=0
UVM_INFO ../master/axi4_master_pkg.sv(92) @ 2100000: uvm_test_top.env.master_agent[8].driver [axi4_master_driver] Got READ transaction - addr=0xd1bfdbcd, len=236, size=0, burst=1
UVM_INFO ../agent/master_agent_bfm/axi4_master_driver_bfm.sv(111) @ 2155000: reporter [AXI_MASTER_DRIVER_BFM] Write response received for transaction 3, bresp=3
UVM_INFO ../master/axi4_master_pkg.sv(92) @ 2200000: uvm_test_top.env.master_agent[8].driver [axi4_master_driver] Got WRITE transaction - addr=0x4283755f, len=228, size=7, burst=0
UVM_INFO ../master/axi4_master_pkg.sv(92) @ 2200000: uvm_test_top.env.master_agent[7].driver [axi4_master_driver] Got WRITE transaction - addr=0x15b5de07, len=167, size=0, burst=3
UVM_INFO ../master/axi4_master_pkg.sv(92) @ 2200000: uvm_test_top.env.master_agent[6].driver [axi4_master_driver] Got READ transaction - addr=0x146844f8, len=106, size=2, burst=3
UVM_INFO ../master/axi4_master_pkg.sv(92) @ 2200000: uvm_test_top.env.master_agent[5].driver [axi4_master_driver] Got READ transaction - addr=0x9bde9189, len=6, size=7, burst=1
UVM_INFO ../master/axi4_master_pkg.sv(92) @ 2200000: uvm_test_top.env.master_agent[4].driver [axi4_master_driver] Got WRITE transaction - addr=0xbbb82da8, len=131, size=7, burst=2
UVM_INFO ../master/axi4_master_pkg.sv(92) @ 2200000: uvm_test_top.env.master_agent[3].driver [axi4_master_driver] Got READ transaction - addr=0xc948c9be, len=178, size=6, burst=1
UVM_INFO ../master/axi4_master_pkg.sv(92) @ 2200000: uvm_test_top.env.master_agent[2].driver [axi4_master_driver] Got WRITE transaction - addr=0xda4ddd73, len=126, size=1, burst=1
UVM_INFO ../master/axi4_master_pkg.sv(92) @ 2200000: uvm_test_top.env.master_agent[1].driver [axi4_master_driver] Got READ transaction - addr=0x7046cddf, len=180, size=1, burst=3
UVM_INFO ../master/axi4_master_pkg.sv(92) @ 2200000: uvm_test_top.env.master_agent[0].driver [axi4_master_driver] Got WRITE transaction - addr=0xd10b6e8a, len=100, size=6, burst=3
UVM_INFO ../master/axi4_master_pkg.sv(92) @ 2300000: uvm_test_top.env.master_agent[0].driver [axi4_master_driver] Got READ transaction - addr=0xebe41afb, len=198, size=7, burst=0
UVM_INFO ../master/axi4_master_pkg.sv(92) @ 2300000: uvm_test_top.env.master_agent[1].driver [axi4_master_driver] Got READ transaction - addr=0xafbd636e, len=112, size=2, burst=2
UVM_INFO ../master/axi4_master_pkg.sv(92) @ 2300000: uvm_test_top.env.master_agent[2].driver [axi4_master_driver] Got WRITE transaction - addr=0x33dfaab3, len=156, size=6, burst=3
UVM_INFO ../master/axi4_master_pkg.sv(92) @ 2300000: uvm_test_top.env.master_agent[3].driver [axi4_master_driver] Got WRITE transaction - addr=0xeb37fedf, len=109, size=6, burst=1
UVM_INFO ../master/axi4_master_pkg.sv(92) @ 2300000: uvm_test_top.env.master_agent[4].driver [axi4_master_driver] Got READ transaction - addr=0x2bc731d3, len=77, size=4, burst=3
UVM_INFO ../master/axi4_master_pkg.sv(92) @ 2300000: uvm_test_top.env.master_agent[5].driver [axi4_master_driver] Got WRITE transaction - addr=0x36ed70a8, len=108, size=2, burst=0
UVM_INFO ../master/axi4_master_pkg.sv(92) @ 2300000: uvm_test_top.env.master_agent[6].driver [axi4_master_driver] Got WRITE transaction - addr=0x3e5e0d6d, len=224, size=3, burst=2
UVM_INFO ../master/axi4_master_pkg.sv(92) @ 2300000: uvm_test_top.env.master_agent[7].driver [axi4_master_driver] Got READ transaction - addr=0x99dbc1a1, len=18, size=2, burst=0
UVM_INFO ../master/axi4_master_pkg.sv(92) @ 2300000: uvm_test_top.env.master_agent[8].driver [axi4_master_driver] Got WRITE transaction - addr=0x270081ef, len=215, size=2, burst=2
UVM_INFO ../agent/master_agent_bfm/axi4_master_driver_bfm.sv(134) @ 2305000: reporter [AXI_MASTER_DRIVER_BFM] Read Transaction 3: addr=0xfb6f9fc6, len=11, size=2, burst=0, id=13
UVM_INFO ../master/axi4_master_pkg.sv(92) @ 2400000: uvm_test_top.env.master_agent[8].driver [axi4_master_driver] Got WRITE transaction - addr=0xc93644e9, len=12, size=5, burst=2
UVM_INFO ../master/axi4_master_pkg.sv(92) @ 2400000: uvm_test_top.env.master_agent[7].driver [axi4_master_driver] Got WRITE transaction - addr=0x8747a460, len=173, size=1, burst=0
UVM_INFO ../master/axi4_master_pkg.sv(92) @ 2400000: uvm_test_top.env.master_agent[6].driver [axi4_master_driver] Got READ transaction - addr=0xb88dbb06, len=208, size=5, burst=1
UVM_INFO ../master/axi4_master_pkg.sv(92) @ 2400000: uvm_test_top.env.master_agent[5].driver [axi4_master_driver] Got WRITE transaction - addr=0x7faebe2b, len=173, size=3, burst=2
UVM_INFO ../master/axi4_master_pkg.sv(92) @ 2400000: uvm_test_top.env.master_agent[4].driver [axi4_master_driver] Got WRITE transaction - addr=0xac2cc1db, len=148, size=4, burst=1
UVM_INFO ../master/axi4_master_pkg.sv(92) @ 2400000: uvm_test_top.env.master_agent[3].driver [axi4_master_driver] Got WRITE transaction - addr=0xf71f0ff4, len=29, size=2, burst=0
UVM_INFO ../master/axi4_master_pkg.sv(92) @ 2400000: uvm_test_top.env.master_agent[2].driver [axi4_master_driver] Got WRITE transaction - addr=0x1b312d01, len=136, size=6, burst=0
UVM_INFO ../master/axi4_master_pkg.sv(92) @ 2400000: uvm_test_top.env.master_agent[1].driver [axi4_master_driver] Got WRITE transaction - addr=0x3dfc712f, len=102, size=5, burst=2
UVM_INFO ../master/axi4_master_pkg.sv(92) @ 2400000: uvm_test_top.env.master_agent[0].driver [axi4_master_driver] Got WRITE transaction - addr=0xb206a431, len=234, size=0, burst=2
UVM_INFO ../agent/master_agent_bfm/axi4_master_driver_bfm.sv(176) @ 2465000: reporter [AXI_MASTER_DRIVER_BFM] Read transaction 3 completed
UVM_INFO ../master/axi4_master_pkg.sv(92) @ 2500000: uvm_test_top.env.master_agent[0].driver [axi4_master_driver] Got READ transaction - addr=0x53b70247, len=125, size=4, burst=3
UVM_INFO ../master/axi4_master_pkg.sv(92) @ 2500000: uvm_test_top.env.master_agent[1].driver [axi4_master_driver] Got WRITE transaction - addr=0xc11fb307, len=231, size=3, burst=0
UVM_INFO ../master/axi4_master_pkg.sv(92) @ 2500000: uvm_test_top.env.master_agent[2].driver [axi4_master_driver] Got WRITE transaction - addr=0xb34ac66c, len=140, size=2, burst=1
UVM_INFO ../master/axi4_master_pkg.sv(92) @ 2500000: uvm_test_top.env.master_agent[3].driver [axi4_master_driver] Got WRITE transaction - addr=0x73bf1115, len=215, size=7, burst=3
UVM_INFO ../master/axi4_master_pkg.sv(92) @ 2500000: uvm_test_top.env.master_agent[4].driver [axi4_master_driver] Got READ transaction - addr=0x399fc320, len=173, size=0, burst=1
UVM_INFO ../master/axi4_master_pkg.sv(92) @ 2500000: uvm_test_top.env.master_agent[5].driver [axi4_master_driver] Got WRITE transaction - addr=0xe00ac51e, len=253, size=0, burst=3
UVM_INFO ../master/axi4_master_pkg.sv(92) @ 2500000: uvm_test_top.env.master_agent[6].driver [axi4_master_driver] Got READ transaction - addr=0xa797fe53, len=161, size=5, burst=2
UVM_INFO ../master/axi4_master_pkg.sv(92) @ 2500000: uvm_test_top.env.master_agent[7].driver [axi4_master_driver] Got READ transaction - addr=0x77548424, len=24, size=4, burst=3
UVM_INFO ../master/axi4_master_pkg.sv(92) @ 2500000: uvm_test_top.env.master_agent[8].driver [axi4_master_driver] Got WRITE transaction - addr=0xa0425693, len=187, size=1, burst=3
UVM_INFO ../master/axi4_master_pkg.sv(92) @ 2600000: uvm_test_top.env.master_agent[8].driver [axi4_master_driver] Got WRITE transaction - addr=0xcb32827c, len=248, size=5, burst=2
UVM_INFO ../master/axi4_master_pkg.sv(92) @ 2600000: uvm_test_top.env.master_agent[7].driver [axi4_master_driver] Got WRITE transaction - addr=0x6cce61c1, len=150, size=1, burst=0
UVM_INFO ../master/axi4_master_pkg.sv(92) @ 2600000: uvm_test_top.env.master_agent[6].driver [axi4_master_driver] Got READ transaction - addr=0xeefba777, len=115, size=7, burst=3
UVM_INFO ../master/axi4_master_pkg.sv(92) @ 2600000: uvm_test_top.env.master_agent[5].driver [axi4_master_driver] Got READ transaction - addr=0x878b5e89, len=116, size=0, burst=3
UVM_INFO ../master/axi4_master_pkg.sv(92) @ 2600000: uvm_test_top.env.master_agent[4].driver [axi4_master_driver] Got READ transaction - addr=0xc7b943c1, len=63, size=1, burst=3
UVM_INFO ../master/axi4_master_pkg.sv(92) @ 2600000: uvm_test_top.env.master_agent[3].driver [axi4_master_driver] Got WRITE transaction - addr=0x692d1ac1, len=233, size=0, burst=0
UVM_INFO ../master/axi4_master_pkg.sv(92) @ 2600000: uvm_test_top.env.master_agent[2].driver [axi4_master_driver] Got READ transaction - addr=0x8874689, len=130, size=3, burst=2
UVM_INFO ../master/axi4_master_pkg.sv(92) @ 2600000: uvm_test_top.env.master_agent[1].driver [axi4_master_driver] Got READ transaction - addr=0x16b4d62, len=120, size=2, burst=3
UVM_INFO ../master/axi4_master_pkg.sv(92) @ 2600000: uvm_test_top.env.master_agent[0].driver [axi4_master_driver] Got WRITE transaction - addr=0x82dfcb51, len=6, size=7, burst=2
UVM_INFO ../master/axi4_master_pkg.sv(92) @ 2700000: uvm_test_top.env.master_agent[0].driver [axi4_master_driver] Got READ transaction - addr=0xdb69977a, len=41, size=4, burst=0
UVM_INFO ../master/axi4_master_pkg.sv(92) @ 2700000: uvm_test_top.env.master_agent[1].driver [axi4_master_driver] Got WRITE transaction - addr=0xd9ea9507, len=89, size=7, burst=0
UVM_INFO ../master/axi4_master_pkg.sv(92) @ 2700000: uvm_test_top.env.master_agent[2].driver [axi4_master_driver] Got WRITE transaction - addr=0x4f1a59cf, len=51, size=1, burst=1
UVM_INFO ../master/axi4_master_pkg.sv(92) @ 2700000: uvm_test_top.env.master_agent[3].driver [axi4_master_driver] Got READ transaction - addr=0xf2d8e8b4, len=20, size=1, burst=1
UVM_INFO ../master/axi4_master_pkg.sv(92) @ 2700000: uvm_test_top.env.master_agent[4].driver [axi4_master_driver] Got WRITE transaction - addr=0xc1b43508, len=250, size=1, burst=0
UVM_INFO ../master/axi4_master_pkg.sv(92) @ 2700000: uvm_test_top.env.master_agent[5].driver [axi4_master_driver] Got WRITE transaction - addr=0x940cc8e, len=205, size=2, burst=2
UVM_INFO ../master/axi4_master_pkg.sv(92) @ 2700000: uvm_test_top.env.master_agent[6].driver [axi4_master_driver] Got READ transaction - addr=0x57c570da, len=11, size=2, burst=1
UVM_INFO ../master/axi4_master_pkg.sv(92) @ 2700000: uvm_test_top.env.master_agent[7].driver [axi4_master_driver] Got READ transaction - addr=0x3da8e307, len=252, size=3, burst=1
UVM_INFO ../master/axi4_master_pkg.sv(92) @ 2700000: uvm_test_top.env.master_agent[8].driver [axi4_master_driver] Got WRITE transaction - addr=0xc23f6846, len=221, size=6, burst=0
UVM_INFO ../master/axi4_master_pkg.sv(92) @ 2800000: uvm_test_top.env.master_agent[8].driver [axi4_master_driver] Got READ transaction - addr=0x579e3dbd, len=172, size=4, burst=3
UVM_INFO ../master/axi4_master_pkg.sv(92) @ 2800000: uvm_test_top.env.master_agent[7].driver [axi4_master_driver] Got WRITE transaction - addr=0x48a05234, len=4, size=2, burst=3
UVM_INFO ../master/axi4_master_pkg.sv(92) @ 2800000: uvm_test_top.env.master_agent[6].driver [axi4_master_driver] Got WRITE transaction - addr=0x52274d85, len=124, size=1, burst=3
UVM_INFO ../master/axi4_master_pkg.sv(92) @ 2800000: uvm_test_top.env.master_agent[5].driver [axi4_master_driver] Got READ transaction - addr=0x2069e37c, len=201, size=5, burst=3
UVM_INFO ../master/axi4_master_pkg.sv(92) @ 2800000: uvm_test_top.env.master_agent[4].driver [axi4_master_driver] Got WRITE transaction - addr=0xaf36e2b4, len=79, size=7, burst=0
UVM_INFO ../master/axi4_master_pkg.sv(92) @ 2800000: uvm_test_top.env.master_agent[3].driver [axi4_master_driver] Got WRITE transaction - addr=0x1817d48c, len=0, size=7, burst=0
UVM_INFO ../master/axi4_master_pkg.sv(92) @ 2800000: uvm_test_top.env.master_agent[2].driver [axi4_master_driver] Got WRITE transaction - addr=0x4ff2c9ec, len=243, size=1, burst=1
UVM_INFO ../master/axi4_master_pkg.sv(92) @ 2800000: uvm_test_top.env.master_agent[1].driver [axi4_master_driver] Got READ transaction - addr=0x515e2a2b, len=101, size=7, burst=3
UVM_INFO ../master/axi4_master_pkg.sv(92) @ 2800000: uvm_test_top.env.master_agent[0].driver [axi4_master_driver] Got WRITE transaction - addr=0x6b85d4a8, len=24, size=1, burst=2
UVM_INFO ../master/axi4_master_pkg.sv(92) @ 2900000: uvm_test_top.env.master_agent[0].driver [axi4_master_driver] Got READ transaction - addr=0xaebdc85b, len=143, size=0, burst=3
UVM_INFO ../master/axi4_master_pkg.sv(92) @ 2900000: uvm_test_top.env.master_agent[1].driver [axi4_master_driver] Got WRITE transaction - addr=0x2154857b, len=182, size=0, burst=1
UVM_INFO ../master/axi4_master_pkg.sv(92) @ 2900000: uvm_test_top.env.master_agent[2].driver [axi4_master_driver] Got READ transaction - addr=0x5c2a5317, len=102, size=6, burst=1
UVM_INFO ../master/axi4_master_pkg.sv(92) @ 2900000: uvm_test_top.env.master_agent[3].driver [axi4_master_driver] Got READ transaction - addr=0xfb422341, len=134, size=5, burst=3
UVM_INFO ../master/axi4_master_pkg.sv(92) @ 2900000: uvm_test_top.env.master_agent[4].driver [axi4_master_driver] Got WRITE transaction - addr=0xef4004b4, len=206, size=3, burst=1
UVM_INFO ../master/axi4_master_pkg.sv(92) @ 2900000: uvm_test_top.env.master_agent[5].driver [axi4_master_driver] Got WRITE transaction - addr=0xd18f6d68, len=98, size=7, burst=3
UVM_INFO ../master/axi4_master_pkg.sv(92) @ 2900000: uvm_test_top.env.master_agent[6].driver [axi4_master_driver] Got WRITE transaction - addr=0xacd27450, len=225, size=3, burst=1
UVM_INFO ../master/axi4_master_pkg.sv(92) @ 2900000: uvm_test_top.env.master_agent[7].driver [axi4_master_driver] Got READ transaction - addr=0xb5404302, len=86, size=3, burst=3
UVM_INFO ../master/axi4_master_pkg.sv(92) @ 2900000: uvm_test_top.env.master_agent[8].driver [axi4_master_driver] Got WRITE transaction - addr=0x88e6815c, len=185, size=7, burst=1
UVM_INFO ../agent/master_agent_bfm/axi4_master_driver_bfm.sv(65) @ 2985000: reporter [AXI_MASTER_DRIVER_BFM] Write Transaction 4: addr=0x1d9afee8, len=14, size=1, burst=2, id=5
UVM_INFO ../master/axi4_master_pkg.sv(92) @ 3000000: uvm_test_top.env.master_agent[8].driver [axi4_master_driver] Got WRITE transaction - addr=0xf1089cb2, len=28, size=3, burst=3
UVM_INFO ../master/axi4_master_pkg.sv(92) @ 3000000: uvm_test_top.env.master_agent[7].driver [axi4_master_driver] Got READ transaction - addr=0xe8eca2f4, len=99, size=0, burst=2
UVM_INFO ../master/axi4_master_pkg.sv(92) @ 3000000: uvm_test_top.env.master_agent[6].driver [axi4_master_driver] Got READ transaction - addr=0x5089db25, len=126, size=7, burst=2
UVM_INFO ../master/axi4_master_pkg.sv(92) @ 3000000: uvm_test_top.env.master_agent[5].driver [axi4_master_driver] Got WRITE transaction - addr=0xd4646b3c, len=220, size=4, burst=1
UVM_INFO ../master/axi4_master_pkg.sv(92) @ 3000000: uvm_test_top.env.master_agent[4].driver [axi4_master_driver] Got READ transaction - addr=0x31f21777, len=251, size=6, burst=3
UVM_INFO ../master/axi4_master_pkg.sv(92) @ 3000000: uvm_test_top.env.master_agent[3].driver [axi4_master_driver] Got WRITE transaction - addr=0x5c127cd5, len=117, size=7, burst=0
UVM_INFO ../master/axi4_master_pkg.sv(92) @ 3000000: uvm_test_top.env.master_agent[2].driver [axi4_master_driver] Got READ transaction - addr=0x7ee25b3b, len=248, size=5, burst=2
UVM_INFO ../master/axi4_master_pkg.sv(92) @ 3000000: uvm_test_top.env.master_agent[1].driver [axi4_master_driver] Got READ transaction - addr=0x2cd89984, len=223, size=4, burst=3
