Command: /home/timtim01/eda_test/project/gen_amba_2025/9x9_vip/axi4_vip_env_rtl_integration/sim/./simv +UVM_TESTNAME=axi4_stress_test +UVM_VERBOSITY=UVM_MEDIUM +ntb_random_seed=1 +fsdb_file=./waves/axi4_stress_test_1.fsdb -l ./logs/axi4_stress_test_1.log
Chronologic VCS simulator copyright 1991-2024
Contains Synopsys proprietary information.
Compiler version W-2024.09-SP1_Full64; Runtime version W-2024.09-SP1_Full64;  Aug  4 15:28 2025
UVM_INFO /home/eda_tools/synopsys/vcs/W-2024.09-SP1//etc/uvm-1.2/base/uvm_root.svh(402) @ 0: reporter [UVM/RELNOTES] 
----------------------------------------------------------------
UVM-1.2.Synopsys
(C) 2007-2014 Mentor Graphics Corporation
(C) 2007-2014 Cadence Design Systems, Inc.
(C) 2006-2014 Synopsys, Inc.
(C) 2011-2013 Cypress Semiconductor Corp.
(C) 2013-2014 NVIDIA Corporation
----------------------------------------------------------------

  ***********       IMPORTANT RELEASE NOTES         ************

  You are using a version of the UVM library that has been compiled
  with `UVM_OBJECT_DO_NOT_NEED_CONSTRUCTOR undefined.
  See http://www.eda.org/svdb/view.php?id=3770 for more details.

      (Specify +UVM_NO_RELNOTES to turn off this notice)

UVM_INFO ../agent/master_agent_bfm/axi4_master_driver_bfm.sv(229) @ 0: reporter [AXI_MASTER_DRIVER_BFM] Master BFM signals initialized
UVM_INFO ../agent/master_agent_bfm/axi4_master_driver_bfm.sv(239) @ 0: reporter [AXI_MASTER_DRIVER_BFM] Enabling BFM driving for signal visibility
UVM_INFO ../agent/master_agent_bfm/axi4_master_driver_bfm.sv(229) @ 0: reporter [AXI_MASTER_DRIVER_BFM] Master BFM signals initialized
UVM_INFO ../agent/master_agent_bfm/axi4_master_driver_bfm.sv(239) @ 0: reporter [AXI_MASTER_DRIVER_BFM] Enabling BFM driving for signal visibility
UVM_INFO ../agent/master_agent_bfm/axi4_master_driver_bfm.sv(229) @ 0: reporter [AXI_MASTER_DRIVER_BFM] Master BFM signals initialized
UVM_INFO ../agent/master_agent_bfm/axi4_master_driver_bfm.sv(239) @ 0: reporter [AXI_MASTER_DRIVER_BFM] Enabling BFM driving for signal visibility
UVM_INFO ../agent/master_agent_bfm/axi4_master_driver_bfm.sv(229) @ 0: reporter [AXI_MASTER_DRIVER_BFM] Master BFM signals initialized
UVM_INFO ../agent/master_agent_bfm/axi4_master_driver_bfm.sv(239) @ 0: reporter [AXI_MASTER_DRIVER_BFM] Enabling BFM driving for signal visibility
UVM_INFO ../agent/master_agent_bfm/axi4_master_driver_bfm.sv(229) @ 0: reporter [AXI_MASTER_DRIVER_BFM] Master BFM signals initialized
UVM_INFO ../agent/master_agent_bfm/axi4_master_driver_bfm.sv(239) @ 0: reporter [AXI_MASTER_DRIVER_BFM] Enabling BFM driving for signal visibility
UVM_INFO ../agent/master_agent_bfm/axi4_master_driver_bfm.sv(229) @ 0: reporter [AXI_MASTER_DRIVER_BFM] Master BFM signals initialized
UVM_INFO ../agent/master_agent_bfm/axi4_master_driver_bfm.sv(239) @ 0: reporter [AXI_MASTER_DRIVER_BFM] Enabling BFM driving for signal visibility
UVM_INFO ../agent/master_agent_bfm/axi4_master_driver_bfm.sv(229) @ 0: reporter [AXI_MASTER_DRIVER_BFM] Master BFM signals initialized
UVM_INFO ../agent/master_agent_bfm/axi4_master_driver_bfm.sv(239) @ 0: reporter [AXI_MASTER_DRIVER_BFM] Enabling BFM driving for signal visibility
UVM_INFO ../agent/master_agent_bfm/axi4_master_driver_bfm.sv(229) @ 0: reporter [AXI_MASTER_DRIVER_BFM] Master BFM signals initialized
UVM_INFO ../agent/master_agent_bfm/axi4_master_driver_bfm.sv(239) @ 0: reporter [AXI_MASTER_DRIVER_BFM] Enabling BFM driving for signal visibility
UVM_INFO ../agent/master_agent_bfm/axi4_master_driver_bfm.sv(229) @ 0: reporter [AXI_MASTER_DRIVER_BFM] Master BFM signals initialized
UVM_INFO ../agent/master_agent_bfm/axi4_master_driver_bfm.sv(239) @ 0: reporter [AXI_MASTER_DRIVER_BFM] Enabling BFM driving for signal visibility
UVM_INFO ../agent/slave_agent_bfm/axi4_slave_driver_bfm.sv(265) @ 0: reporter [AXI_SLAVE_DRIVER_BFM] Slave BFM signals initialized
UVM_INFO ../agent/slave_agent_bfm/axi4_slave_driver_bfm.sv(265) @ 0: reporter [AXI_SLAVE_DRIVER_BFM] Slave BFM signals initialized
UVM_INFO ../agent/slave_agent_bfm/axi4_slave_driver_bfm.sv(265) @ 0: reporter [AXI_SLAVE_DRIVER_BFM] Slave BFM signals initialized
UVM_INFO ../agent/slave_agent_bfm/axi4_slave_driver_bfm.sv(265) @ 0: reporter [AXI_SLAVE_DRIVER_BFM] Slave BFM signals initialized
UVM_INFO ../agent/slave_agent_bfm/axi4_slave_driver_bfm.sv(265) @ 0: reporter [AXI_SLAVE_DRIVER_BFM] Slave BFM signals initialized
UVM_INFO ../agent/slave_agent_bfm/axi4_slave_driver_bfm.sv(265) @ 0: reporter [AXI_SLAVE_DRIVER_BFM] Slave BFM signals initialized
UVM_INFO ../agent/slave_agent_bfm/axi4_slave_driver_bfm.sv(265) @ 0: reporter [AXI_SLAVE_DRIVER_BFM] Slave BFM signals initialized
UVM_INFO ../agent/slave_agent_bfm/axi4_slave_driver_bfm.sv(265) @ 0: reporter [AXI_SLAVE_DRIVER_BFM] Slave BFM signals initialized
UVM_INFO ../agent/slave_agent_bfm/axi4_slave_driver_bfm.sv(265) @ 0: reporter [AXI_SLAVE_DRIVER_BFM] Slave BFM signals initialized
[0] HDL Top: BFMs instantiated and connected
[0] HDL Top: 9 Master BFMs connected to axi_if interfaces
[0] HDL Top: 9 Slave BFMs connected to slave_if interfaces
[0] HDL Top: Signal driving is now handled by BFMs
[0] Using custom FSDB file: ./waves/axi4_stress_test_1.fsdb
[0] Starting FSDB dump
*Verdi* Loading libsscore_vcs202409.so
FSDB Dumper for VCS, Release Verdi_W-2024.09-SP1, Linux x86_64/64bit, 11/30/2024
(C) 1996 - 2024 by Synopsys, Inc.
*Verdi* FSDB WARNING: The FSDB file already exists. Overwriting the FSDB file may crash the programs that are using this file.
*Verdi* : Create FSDB file './waves/axi4_stress_test_1.fsdb'
*Verdi* : Begin traversing the scope (hdl_top), layer (0).
*Verdi* : Enable +all dumping.
*Verdi* : End of traversing.
*Verdi* : Begin traversing the SVA assertions, layer (0).
*Verdi* : End of traversing the SVA assertions.
*Verdi* : Begin traversing the MDAs, layer (0).
*Verdi* : Enable +mda and +packedmda dumping.
*Verdi* : End of traversing the MDAs.
*Verdi* : fsdbDumpon - All FSDB files at 0 ps.
UVM_INFO @ 0: reporter [RNTST] Running test axi4_stress_test...
UVM_INFO ../agent/master_agent_bfm/axi4_master_driver_bfm.sv(29) @ 0: reporter [AXI_MASTER_DRIVER_BFM] Starting AXI transaction generation for waveform visibility
UVM_INFO ../agent/master_agent_bfm/axi4_master_driver_bfm.sv(29) @ 0: reporter [AXI_MASTER_DRIVER_BFM] Starting AXI transaction generation for waveform visibility
UVM_INFO ../agent/master_agent_bfm/axi4_master_driver_bfm.sv(29) @ 0: reporter [AXI_MASTER_DRIVER_BFM] Starting AXI transaction generation for waveform visibility
UVM_INFO ../agent/master_agent_bfm/axi4_master_driver_bfm.sv(29) @ 0: reporter [AXI_MASTER_DRIVER_BFM] Starting AXI transaction generation for waveform visibility
UVM_INFO ../agent/master_agent_bfm/axi4_master_driver_bfm.sv(29) @ 0: reporter [AXI_MASTER_DRIVER_BFM] Starting AXI transaction generation for waveform visibility
UVM_INFO ../agent/master_agent_bfm/axi4_master_driver_bfm.sv(29) @ 0: reporter [AXI_MASTER_DRIVER_BFM] Starting AXI transaction generation for waveform visibility
UVM_INFO ../agent/master_agent_bfm/axi4_master_driver_bfm.sv(29) @ 0: reporter [AXI_MASTER_DRIVER_BFM] Starting AXI transaction generation for waveform visibility
UVM_INFO ../agent/master_agent_bfm/axi4_master_driver_bfm.sv(29) @ 0: reporter [AXI_MASTER_DRIVER_BFM] Starting AXI transaction generation for waveform visibility
UVM_INFO ../agent/master_agent_bfm/axi4_master_driver_bfm.sv(29) @ 0: reporter [AXI_MASTER_DRIVER_BFM] Starting AXI transaction generation for waveform visibility
UVM_INFO ../env/axi4_protocol_coverage.sv(19) @ 0: uvm_test_top.env.coverage [axi4_protocol_coverage] Protocol coverage build phase
UVM_INFO ../master/axi4_master_pkg.sv(158) @ 0: uvm_test_top.env.master_agent[0] [axi4_master_agent] Building master agent components
UVM_INFO ../master/axi4_master_pkg.sv(164) @ 0: uvm_test_top.env.master_agent[0] [axi4_master_agent] Master agent mode:  ACTIVE
UVM_INFO ../master/axi4_master_pkg.sv(158) @ 0: uvm_test_top.env.master_agent[1] [axi4_master_agent] Building master agent components
UVM_INFO ../master/axi4_master_pkg.sv(164) @ 0: uvm_test_top.env.master_agent[1] [axi4_master_agent] Master agent mode:  ACTIVE
UVM_INFO ../master/axi4_master_pkg.sv(158) @ 0: uvm_test_top.env.master_agent[2] [axi4_master_agent] Building master agent components
UVM_INFO ../master/axi4_master_pkg.sv(164) @ 0: uvm_test_top.env.master_agent[2] [axi4_master_agent] Master agent mode:  ACTIVE
UVM_INFO ../master/axi4_master_pkg.sv(158) @ 0: uvm_test_top.env.master_agent[3] [axi4_master_agent] Building master agent components
UVM_INFO ../master/axi4_master_pkg.sv(164) @ 0: uvm_test_top.env.master_agent[3] [axi4_master_agent] Master agent mode:  ACTIVE
UVM_INFO ../master/axi4_master_pkg.sv(158) @ 0: uvm_test_top.env.master_agent[4] [axi4_master_agent] Building master agent components
UVM_INFO ../master/axi4_master_pkg.sv(164) @ 0: uvm_test_top.env.master_agent[4] [axi4_master_agent] Master agent mode:  ACTIVE
UVM_INFO ../master/axi4_master_pkg.sv(158) @ 0: uvm_test_top.env.master_agent[5] [axi4_master_agent] Building master agent components
UVM_INFO ../master/axi4_master_pkg.sv(164) @ 0: uvm_test_top.env.master_agent[5] [axi4_master_agent] Master agent mode:  ACTIVE
UVM_INFO ../master/axi4_master_pkg.sv(158) @ 0: uvm_test_top.env.master_agent[6] [axi4_master_agent] Building master agent components
UVM_INFO ../master/axi4_master_pkg.sv(164) @ 0: uvm_test_top.env.master_agent[6] [axi4_master_agent] Master agent mode:  ACTIVE
UVM_INFO ../master/axi4_master_pkg.sv(158) @ 0: uvm_test_top.env.master_agent[7] [axi4_master_agent] Building master agent components
UVM_INFO ../master/axi4_master_pkg.sv(164) @ 0: uvm_test_top.env.master_agent[7] [axi4_master_agent] Master agent mode:  ACTIVE
UVM_INFO ../master/axi4_master_pkg.sv(158) @ 0: uvm_test_top.env.master_agent[8] [axi4_master_agent] Building master agent components
UVM_INFO ../master/axi4_master_pkg.sv(164) @ 0: uvm_test_top.env.master_agent[8] [axi4_master_agent] Master agent mode:  ACTIVE
UVM_INFO ../slave/axi4_slave_pkg.sv(108) @ 0: uvm_test_top.env.slave_agent[0] [axi4_slave_agent] Building slave agent components
UVM_INFO ../slave/axi4_slave_pkg.sv(114) @ 0: uvm_test_top.env.slave_agent[0] [axi4_slave_agent] Slave agent mode:  ACTIVE
UVM_INFO ../slave/axi4_slave_pkg.sv(108) @ 0: uvm_test_top.env.slave_agent[1] [axi4_slave_agent] Building slave agent components
UVM_INFO ../slave/axi4_slave_pkg.sv(114) @ 0: uvm_test_top.env.slave_agent[1] [axi4_slave_agent] Slave agent mode:  ACTIVE
UVM_INFO ../slave/axi4_slave_pkg.sv(108) @ 0: uvm_test_top.env.slave_agent[2] [axi4_slave_agent] Building slave agent components
UVM_INFO ../slave/axi4_slave_pkg.sv(114) @ 0: uvm_test_top.env.slave_agent[2] [axi4_slave_agent] Slave agent mode:  ACTIVE
UVM_INFO ../slave/axi4_slave_pkg.sv(108) @ 0: uvm_test_top.env.slave_agent[3] [axi4_slave_agent] Building slave agent components
UVM_INFO ../slave/axi4_slave_pkg.sv(114) @ 0: uvm_test_top.env.slave_agent[3] [axi4_slave_agent] Slave agent mode:  ACTIVE
UVM_INFO ../slave/axi4_slave_pkg.sv(108) @ 0: uvm_test_top.env.slave_agent[4] [axi4_slave_agent] Building slave agent components
UVM_INFO ../slave/axi4_slave_pkg.sv(114) @ 0: uvm_test_top.env.slave_agent[4] [axi4_slave_agent] Slave agent mode:  ACTIVE
UVM_INFO ../slave/axi4_slave_pkg.sv(108) @ 0: uvm_test_top.env.slave_agent[5] [axi4_slave_agent] Building slave agent components
UVM_INFO ../slave/axi4_slave_pkg.sv(114) @ 0: uvm_test_top.env.slave_agent[5] [axi4_slave_agent] Slave agent mode:  ACTIVE
UVM_INFO ../slave/axi4_slave_pkg.sv(108) @ 0: uvm_test_top.env.slave_agent[6] [axi4_slave_agent] Building slave agent components
UVM_INFO ../slave/axi4_slave_pkg.sv(114) @ 0: uvm_test_top.env.slave_agent[6] [axi4_slave_agent] Slave agent mode:  ACTIVE
UVM_INFO ../slave/axi4_slave_pkg.sv(108) @ 0: uvm_test_top.env.slave_agent[7] [axi4_slave_agent] Building slave agent components
UVM_INFO ../slave/axi4_slave_pkg.sv(114) @ 0: uvm_test_top.env.slave_agent[7] [axi4_slave_agent] Slave agent mode:  ACTIVE
UVM_INFO ../slave/axi4_slave_pkg.sv(108) @ 0: uvm_test_top.env.slave_agent[8] [axi4_slave_agent] Building slave agent components
UVM_INFO ../slave/axi4_slave_pkg.sv(114) @ 0: uvm_test_top.env.slave_agent[8] [axi4_slave_agent] Slave agent mode:  ACTIVE
UVM_INFO ../master/axi4_master_pkg.sv(178) @ 0: uvm_test_top.env.master_agent[0] [axi4_master_agent] Connecting master agent components
UVM_INFO ../master/axi4_master_pkg.sv(178) @ 0: uvm_test_top.env.master_agent[1] [axi4_master_agent] Connecting master agent components
UVM_INFO ../master/axi4_master_pkg.sv(178) @ 0: uvm_test_top.env.master_agent[2] [axi4_master_agent] Connecting master agent components
UVM_INFO ../master/axi4_master_pkg.sv(178) @ 0: uvm_test_top.env.master_agent[3] [axi4_master_agent] Connecting master agent components
UVM_INFO ../master/axi4_master_pkg.sv(178) @ 0: uvm_test_top.env.master_agent[4] [axi4_master_agent] Connecting master agent components
UVM_INFO ../master/axi4_master_pkg.sv(178) @ 0: uvm_test_top.env.master_agent[5] [axi4_master_agent] Connecting master agent components
UVM_INFO ../master/axi4_master_pkg.sv(178) @ 0: uvm_test_top.env.master_agent[6] [axi4_master_agent] Connecting master agent components
UVM_INFO ../master/axi4_master_pkg.sv(178) @ 0: uvm_test_top.env.master_agent[7] [axi4_master_agent] Connecting master agent components
UVM_INFO ../master/axi4_master_pkg.sv(178) @ 0: uvm_test_top.env.master_agent[8] [axi4_master_agent] Connecting master agent components
UVM_INFO ../slave/axi4_slave_pkg.sv(128) @ 0: uvm_test_top.env.slave_agent[0] [axi4_slave_agent] Connecting slave agent components
UVM_INFO ../slave/axi4_slave_pkg.sv(128) @ 0: uvm_test_top.env.slave_agent[1] [axi4_slave_agent] Connecting slave agent components
UVM_INFO ../slave/axi4_slave_pkg.sv(128) @ 0: uvm_test_top.env.slave_agent[2] [axi4_slave_agent] Connecting slave agent components
UVM_INFO ../slave/axi4_slave_pkg.sv(128) @ 0: uvm_test_top.env.slave_agent[3] [axi4_slave_agent] Connecting slave agent components
UVM_INFO ../slave/axi4_slave_pkg.sv(128) @ 0: uvm_test_top.env.slave_agent[4] [axi4_slave_agent] Connecting slave agent components
UVM_INFO ../slave/axi4_slave_pkg.sv(128) @ 0: uvm_test_top.env.slave_agent[5] [axi4_slave_agent] Connecting slave agent components
UVM_INFO ../slave/axi4_slave_pkg.sv(128) @ 0: uvm_test_top.env.slave_agent[6] [axi4_slave_agent] Connecting slave agent components
UVM_INFO ../slave/axi4_slave_pkg.sv(128) @ 0: uvm_test_top.env.slave_agent[7] [axi4_slave_agent] Connecting slave agent components
UVM_INFO ../slave/axi4_slave_pkg.sv(128) @ 0: uvm_test_top.env.slave_agent[8] [axi4_slave_agent] Connecting slave agent components
UVM_INFO /home/eda_tools/synopsys/vcs/W-2024.09-SP1//etc/uvm-1.2/base/uvm_root.svh(589) @ 0: reporter [UVMTOP] UVM testbench topology:
--------------------------------------------------------------------
Name                         Type                        Size  Value
--------------------------------------------------------------------
uvm_test_top                 axi4_stress_test            -     @394 
  env                        axi4_env                    -     @448 
    coverage                 axi4_protocol_coverage      -     @789 
    master_agent[0]          axi4_master_agent           -     @481 
      driver                 axi4_master_driver          -     @943 
        rsp_port             uvm_analysis_port           -     @962 
        seq_item_port        uvm_seq_item_pull_port      -     @952 
      monitor                axi4_master_monitor         -     @972 
        item_collected_port  uvm_analysis_port           -     @981 
      sequencer              axi4_master_sequencer       -     @806 
        rsp_export           uvm_analysis_export         -     @815 
        seq_item_export      uvm_seq_item_pull_imp       -     @933 
        arbitration_queue    array                       0     -    
        lock_queue           array                       0     -    
        num_last_reqs        integral                    32    'd1  
        num_last_rsps        integral                    32    'd1  
    master_agent[1]          axi4_master_agent           -     @490 
      driver                 axi4_master_driver          -     @1134
        rsp_port             uvm_analysis_port           -     @1153
        seq_item_port        uvm_seq_item_pull_port      -     @1143
      monitor                axi4_master_monitor         -     @1163
        item_collected_port  uvm_analysis_port           -     @1172
      sequencer              axi4_master_sequencer       -     @997 
        rsp_export           uvm_analysis_export         -     @1006
        seq_item_export      uvm_seq_item_pull_imp       -     @1124
        arbitration_queue    array                       0     -    
        lock_queue           array                       0     -    
        num_last_reqs        integral                    32    'd1  
        num_last_rsps        integral                    32    'd1  
    master_agent[2]          axi4_master_agent           -     @499 
      driver                 axi4_master_driver          -     @1325
        rsp_port             uvm_analysis_port           -     @1344
        seq_item_port        uvm_seq_item_pull_port      -     @1334
      monitor                axi4_master_monitor         -     @1354
        item_collected_port  uvm_analysis_port           -     @1363
      sequencer              axi4_master_sequencer       -     @1188
        rsp_export           uvm_analysis_export         -     @1197
        seq_item_export      uvm_seq_item_pull_imp       -     @1315
        arbitration_queue    array                       0     -    
        lock_queue           array                       0     -    
        num_last_reqs        integral                    32    'd1  
        num_last_rsps        integral                    32    'd1  
    master_agent[3]          axi4_master_agent           -     @508 
      driver                 axi4_master_driver          -     @1516
        rsp_port             uvm_analysis_port           -     @1535
        seq_item_port        uvm_seq_item_pull_port      -     @1525
      monitor                axi4_master_monitor         -     @1545
        item_collected_port  uvm_analysis_port           -     @1554
      sequencer              axi4_master_sequencer       -     @1379
        rsp_export           uvm_analysis_export         -     @1388
        seq_item_export      uvm_seq_item_pull_imp       -     @1506
        arbitration_queue    array                       0     -    
        lock_queue           array                       0     -    
        num_last_reqs        integral                    32    'd1  
        num_last_rsps        integral                    32    'd1  
    master_agent[4]          axi4_master_agent           -     @517 
      driver                 axi4_master_driver          -     @1707
        rsp_port             uvm_analysis_port           -     @1726
        seq_item_port        uvm_seq_item_pull_port      -     @1716
      monitor                axi4_master_monitor         -     @1736
        item_collected_port  uvm_analysis_port           -     @1745
      sequencer              axi4_master_sequencer       -     @1570
        rsp_export           uvm_analysis_export         -     @1579
        seq_item_export      uvm_seq_item_pull_imp       -     @1697
        arbitration_queue    array                       0     -    
        lock_queue           array                       0     -    
        num_last_reqs        integral                    32    'd1  
        num_last_rsps        integral                    32    'd1  
    master_agent[5]          axi4_master_agent           -     @526 
      driver                 axi4_master_driver          -     @1898
        rsp_port             uvm_analysis_port           -     @1917
        seq_item_port        uvm_seq_item_pull_port      -     @1907
      monitor                axi4_master_monitor         -     @1927
        item_collected_port  uvm_analysis_port           -     @1936
      sequencer              axi4_master_sequencer       -     @1761
        rsp_export           uvm_analysis_export         -     @1770
        seq_item_export      uvm_seq_item_pull_imp       -     @1888
        arbitration_queue    array                       0     -    
        lock_queue           array                       0     -    
        num_last_reqs        integral                    32    'd1  
        num_last_rsps        integral                    32    'd1  
    master_agent[6]          axi4_master_agent           -     @535 
      driver                 axi4_master_driver          -     @2089
        rsp_port             uvm_analysis_port           -     @2108
        seq_item_port        uvm_seq_item_pull_port      -     @2098
      monitor                axi4_master_monitor         -     @2118
        item_collected_port  uvm_analysis_port           -     @2127
      sequencer              axi4_master_sequencer       -     @1952
        rsp_export           uvm_analysis_export         -     @1961
        seq_item_export      uvm_seq_item_pull_imp       -     @2079
        arbitration_queue    array                       0     -    
        lock_queue           array                       0     -    
        num_last_reqs        integral                    32    'd1  
        num_last_rsps        integral                    32    'd1  
    master_agent[7]          axi4_master_agent           -     @544 
      driver                 axi4_master_driver          -     @2280
        rsp_port             uvm_analysis_port           -     @2299
        seq_item_port        uvm_seq_item_pull_port      -     @2289
      monitor                axi4_master_monitor         -     @2309
        item_collected_port  uvm_analysis_port           -     @2318
      sequencer              axi4_master_sequencer       -     @2143
        rsp_export           uvm_analysis_export         -     @2152
        seq_item_export      uvm_seq_item_pull_imp       -     @2270
        arbitration_queue    array                       0     -    
        lock_queue           array                       0     -    
        num_last_reqs        integral                    32    'd1  
        num_last_rsps        integral                    32    'd1  
    master_agent[8]          axi4_master_agent           -     @553 
      driver                 axi4_master_driver          -     @2471
        rsp_port             uvm_analysis_port           -     @2490
        seq_item_port        uvm_seq_item_pull_port      -     @2480
      monitor                axi4_master_monitor         -     @2500
        item_collected_port  uvm_analysis_port           -     @2509
      sequencer              axi4_master_sequencer       -     @2334
        rsp_export           uvm_analysis_export         -     @2343
        seq_item_export      uvm_seq_item_pull_imp       -     @2461
        arbitration_queue    array                       0     -    
        lock_queue           array                       0     -    
        num_last_reqs        integral                    32    'd1  
        num_last_rsps        integral                    32    'd1  
    scoreboard               axi4_scoreboard             -     @780 
      master_fifo[0]         uvm_tlm_analysis_fifo #(T)  -     @2519
        analysis_export      uvm_analysis_imp            -     @2568
        get_ap               uvm_analysis_port           -     @2558
        get_peek_export      uvm_get_peek_imp            -     @2538
        put_ap               uvm_analysis_port           -     @2548
        put_export           uvm_put_imp                 -     @2528
      master_fifo[1]         uvm_tlm_analysis_fifo #(T)  -     @2578
        analysis_export      uvm_analysis_imp            -     @2627
        get_ap               uvm_analysis_port           -     @2617
        get_peek_export      uvm_get_peek_imp            -     @2597
        put_ap               uvm_analysis_port           -     @2607
        put_export           uvm_put_imp                 -     @2587
      master_fifo[2]         uvm_tlm_analysis_fifo #(T)  -     @2637
        analysis_export      uvm_analysis_imp            -     @2686
        get_ap               uvm_analysis_port           -     @2676
        get_peek_export      uvm_get_peek_imp            -     @2656
        put_ap               uvm_analysis_port           -     @2666
        put_export           uvm_put_imp                 -     @2646
      master_fifo[3]         uvm_tlm_analysis_fifo #(T)  -     @2696
        analysis_export      uvm_analysis_imp            -     @2745
        get_ap               uvm_analysis_port           -     @2735
        get_peek_export      uvm_get_peek_imp            -     @2715
        put_ap               uvm_analysis_port           -     @2725
        put_export           uvm_put_imp                 -     @2705
      master_fifo[4]         uvm_tlm_analysis_fifo #(T)  -     @2755
        analysis_export      uvm_analysis_imp            -     @2804
        get_ap               uvm_analysis_port           -     @2794
        get_peek_export      uvm_get_peek_imp            -     @2774
        put_ap               uvm_analysis_port           -     @2784
        put_export           uvm_put_imp                 -     @2764
      master_fifo[5]         uvm_tlm_analysis_fifo #(T)  -     @2814
        analysis_export      uvm_analysis_imp            -     @2863
        get_ap               uvm_analysis_port           -     @2853
        get_peek_export      uvm_get_peek_imp            -     @2833
        put_ap               uvm_analysis_port           -     @2843
        put_export           uvm_put_imp                 -     @2823
      master_fifo[6]         uvm_tlm_analysis_fifo #(T)  -     @2873
        analysis_export      uvm_analysis_imp            -     @2922
        get_ap               uvm_analysis_port           -     @2912
        get_peek_export      uvm_get_peek_imp            -     @2892
        put_ap               uvm_analysis_port           -     @2902
        put_export           uvm_put_imp                 -     @2882
      master_fifo[7]         uvm_tlm_analysis_fifo #(T)  -     @2932
        analysis_export      uvm_analysis_imp            -     @2981
        get_ap               uvm_analysis_port           -     @2971
        get_peek_export      uvm_get_peek_imp            -     @2951
        put_ap               uvm_analysis_port           -     @2961
        put_export           uvm_put_imp                 -     @2941
      master_fifo[8]         uvm_tlm_analysis_fifo #(T)  -     @2991
        analysis_export      uvm_analysis_imp            -     @3040
        get_ap               uvm_analysis_port           -     @3030
        get_peek_export      uvm_get_peek_imp            -     @3010
        put_ap               uvm_analysis_port           -     @3020
        put_export           uvm_put_imp                 -     @3000
      slave_fifo[0]          uvm_tlm_analysis_fifo #(T)  -     @3050
        analysis_export      uvm_analysis_imp            -     @3099
        get_ap               uvm_analysis_port           -     @3089
        get_peek_export      uvm_get_peek_imp            -     @3069
        put_ap               uvm_analysis_port           -     @3079
        put_export           uvm_put_imp                 -     @3059
      slave_fifo[1]          uvm_tlm_analysis_fifo #(T)  -     @3109
        analysis_export      uvm_analysis_imp            -     @3158
        get_ap               uvm_analysis_port           -     @3148
        get_peek_export      uvm_get_peek_imp            -     @3128
        put_ap               uvm_analysis_port           -     @3138
        put_export           uvm_put_imp                 -     @3118
      slave_fifo[2]          uvm_tlm_analysis_fifo #(T)  -     @3168
        analysis_export      uvm_analysis_imp            -     @3217
        get_ap               uvm_analysis_port           -     @3207
        get_peek_export      uvm_get_peek_imp            -     @3187
        put_ap               uvm_analysis_port           -     @3197
        put_export           uvm_put_imp                 -     @3177
      slave_fifo[3]          uvm_tlm_analysis_fifo #(T)  -     @3227
        analysis_export      uvm_analysis_imp            -     @3276
        get_ap               uvm_analysis_port           -     @3266
        get_peek_export      uvm_get_peek_imp            -     @3246
        put_ap               uvm_analysis_port           -     @3256
        put_export           uvm_put_imp                 -     @3236
      slave_fifo[4]          uvm_tlm_analysis_fifo #(T)  -     @3286
        analysis_export      uvm_analysis_imp            -     @3335
        get_ap               uvm_analysis_port           -     @3325
        get_peek_export      uvm_get_peek_imp            -     @3305
        put_ap               uvm_analysis_port           -     @3315
        put_export           uvm_put_imp                 -     @3295
      slave_fifo[5]          uvm_tlm_analysis_fifo #(T)  -     @3345
        analysis_export      uvm_analysis_imp            -     @3394
        get_ap               uvm_analysis_port           -     @3384
        get_peek_export      uvm_get_peek_imp            -     @3364
        put_ap               uvm_analysis_port           -     @3374
        put_export           uvm_put_imp                 -     @3354
      slave_fifo[6]          uvm_tlm_analysis_fifo #(T)  -     @3404
        analysis_export      uvm_analysis_imp            -     @3453
        get_ap               uvm_analysis_port           -     @3443
        get_peek_export      uvm_get_peek_imp            -     @3423
        put_ap               uvm_analysis_port           -     @3433
        put_export           uvm_put_imp                 -     @3413
      slave_fifo[7]          uvm_tlm_analysis_fifo #(T)  -     @3463
        analysis_export      uvm_analysis_imp            -     @3512
        get_ap               uvm_analysis_port           -     @3502
        get_peek_export      uvm_get_peek_imp            -     @3482
        put_ap               uvm_analysis_port           -     @3492
        put_export           uvm_put_imp                 -     @3472
      slave_fifo[8]          uvm_tlm_analysis_fifo #(T)  -     @3522
        analysis_export      uvm_analysis_imp            -     @3571
        get_ap               uvm_analysis_port           -     @3561
        get_peek_export      uvm_get_peek_imp            -     @3541
        put_ap               uvm_analysis_port           -     @3551
        put_export           uvm_put_imp                 -     @3531
    slave_agent[0]           axi4_slave_agent            -     @562 
      driver                 axi4_slave_driver           -     @3724
        rsp_port             uvm_analysis_port           -     @3743
        seq_item_port        uvm_seq_item_pull_port      -     @3733
      monitor                axi4_slave_monitor          -     @3753
        item_collected_port  uvm_analysis_port           -     @3762
      sequencer              axi4_slave_sequencer        -     @3587
        rsp_export           uvm_analysis_export         -     @3596
        seq_item_export      uvm_seq_item_pull_imp       -     @3714
        arbitration_queue    array                       0     -    
        lock_queue           array                       0     -    
        num_last_reqs        integral                    32    'd1  
        num_last_rsps        integral                    32    'd1  
    slave_agent[1]           axi4_slave_agent            -     @571 
      driver                 axi4_slave_driver           -     @3915
        rsp_port             uvm_analysis_port           -     @3934
        seq_item_port        uvm_seq_item_pull_port      -     @3924
      monitor                axi4_slave_monitor          -     @3944
        item_collected_port  uvm_analysis_port           -     @3953
      sequencer              axi4_slave_sequencer        -     @3778
        rsp_export           uvm_analysis_export         -     @3787
        seq_item_export      uvm_seq_item_pull_imp       -     @3905
        arbitration_queue    array                       0     -    
        lock_queue           array                       0     -    
        num_last_reqs        integral                    32    'd1  
        num_last_rsps        integral                    32    'd1  
    slave_agent[2]           axi4_slave_agent            -     @580 
      driver                 axi4_slave_driver           -     @4106
        rsp_port             uvm_analysis_port           -     @4125
        seq_item_port        uvm_seq_item_pull_port      -     @4115
      monitor                axi4_slave_monitor          -     @4135
        item_collected_port  uvm_analysis_port           -     @4144
      sequencer              axi4_slave_sequencer        -     @3969
        rsp_export           uvm_analysis_export         -     @3978
        seq_item_export      uvm_seq_item_pull_imp       -     @4096
        arbitration_queue    array                       0     -    
        lock_queue           array                       0     -    
        num_last_reqs        integral                    32    'd1  
        num_last_rsps        integral                    32    'd1  
    slave_agent[3]           axi4_slave_agent            -     @589 
      driver                 axi4_slave_driver           -     @4297
        rsp_port             uvm_analysis_port           -     @4316
        seq_item_port        uvm_seq_item_pull_port      -     @4306
      monitor                axi4_slave_monitor          -     @4326
        item_collected_port  uvm_analysis_port           -     @4335
      sequencer              axi4_slave_sequencer        -     @4160
        rsp_export           uvm_analysis_export         -     @4169
        seq_item_export      uvm_seq_item_pull_imp       -     @4287
        arbitration_queue    array                       0     -    
        lock_queue           array                       0     -    
        num_last_reqs        integral                    32    'd1  
        num_last_rsps        integral                    32    'd1  
    slave_agent[4]           axi4_slave_agent            -     @598 
      driver                 axi4_slave_driver           -     @4488
        rsp_port             uvm_analysis_port           -     @4507
        seq_item_port        uvm_seq_item_pull_port      -     @4497
      monitor                axi4_slave_monitor          -     @4517
        item_collected_port  uvm_analysis_port           -     @4526
      sequencer              axi4_slave_sequencer        -     @4351
        rsp_export           uvm_analysis_export         -     @4360
        seq_item_export      uvm_seq_item_pull_imp       -     @4478
        arbitration_queue    array                       0     -    
        lock_queue           array                       0     -    
        num_last_reqs        integral                    32    'd1  
        num_last_rsps        integral                    32    'd1  
    slave_agent[5]           axi4_slave_agent            -     @607 
      driver                 axi4_slave_driver           -     @4679
        rsp_port             uvm_analysis_port           -     @4698
        seq_item_port        uvm_seq_item_pull_port      -     @4688
      monitor                axi4_slave_monitor          -     @4708
        item_collected_port  uvm_analysis_port           -     @4717
      sequencer              axi4_slave_sequencer        -     @4542
        rsp_export           uvm_analysis_export         -     @4551
        seq_item_export      uvm_seq_item_pull_imp       -     @4669
        arbitration_queue    array                       0     -    
        lock_queue           array                       0     -    
        num_last_reqs        integral                    32    'd1  
        num_last_rsps        integral                    32    'd1  
    slave_agent[6]           axi4_slave_agent            -     @616 
      driver                 axi4_slave_driver           -     @4870
        rsp_port             uvm_analysis_port           -     @4889
        seq_item_port        uvm_seq_item_pull_port      -     @4879
      monitor                axi4_slave_monitor          -     @4899
        item_collected_port  uvm_analysis_port           -     @4908
      sequencer              axi4_slave_sequencer        -     @4733
        rsp_export           uvm_analysis_export         -     @4742
        seq_item_export      uvm_seq_item_pull_imp       -     @4860
        arbitration_queue    array                       0     -    
        lock_queue           array                       0     -    
        num_last_reqs        integral                    32    'd1  
        num_last_rsps        integral                    32    'd1  
    slave_agent[7]           axi4_slave_agent            -     @625 
      driver                 axi4_slave_driver           -     @5061
        rsp_port             uvm_analysis_port           -     @5080
        seq_item_port        uvm_seq_item_pull_port      -     @5070
      monitor                axi4_slave_monitor          -     @5090
        item_collected_port  uvm_analysis_port           -     @5099
      sequencer              axi4_slave_sequencer        -     @4924
        rsp_export           uvm_analysis_export         -     @4933
        seq_item_export      uvm_seq_item_pull_imp       -     @5051
        arbitration_queue    array                       0     -    
        lock_queue           array                       0     -    
        num_last_reqs        integral                    32    'd1  
        num_last_rsps        integral                    32    'd1  
    slave_agent[8]           axi4_slave_agent            -     @634 
      driver                 axi4_slave_driver           -     @5252
        rsp_port             uvm_analysis_port           -     @5271
        seq_item_port        uvm_seq_item_pull_port      -     @5261
      monitor                axi4_slave_monitor          -     @5281
        item_collected_port  uvm_analysis_port           -     @5290
      sequencer              axi4_slave_sequencer        -     @5115
        rsp_export           uvm_analysis_export         -     @5124
        seq_item_export      uvm_seq_item_pull_imp       -     @5242
        arbitration_queue    array                       0     -    
        lock_queue           array                       0     -    
        num_last_reqs        integral                    32    'd1  
        num_last_rsps        integral                    32    'd1  
    v_seqr                   axi4_virtual_sequencer      -     @643 
      rsp_export             uvm_analysis_export         -     @652 
      seq_item_export        uvm_seq_item_pull_imp       -     @770 
      arbitration_queue      array                       0     -    
      lock_queue             array                       0     -    
      num_last_reqs          integral                    32    'd1  
      num_last_rsps          integral                    32    'd1  
--------------------------------------------------------------------

UVM_INFO ../master/axi4_master_pkg.sv(87) @ 0: uvm_test_top.env.master_agent[0].driver [axi4_master_driver] Starting master driver run_phase
UVM_INFO ../master/axi4_master_pkg.sv(132) @ 0: uvm_test_top.env.master_agent[0].monitor [axi4_master_monitor] Starting master monitor run_phase
UVM_INFO ../master/axi4_master_pkg.sv(133) @ 0: uvm_test_top.env.master_agent[0].monitor [axi4_master_monitor] Monitoring AXI4 master interface for transactions
UVM_INFO ../master/axi4_master_pkg.sv(87) @ 0: uvm_test_top.env.master_agent[1].driver [axi4_master_driver] Starting master driver run_phase
UVM_INFO ../master/axi4_master_pkg.sv(132) @ 0: uvm_test_top.env.master_agent[1].monitor [axi4_master_monitor] Starting master monitor run_phase
UVM_INFO ../master/axi4_master_pkg.sv(133) @ 0: uvm_test_top.env.master_agent[1].monitor [axi4_master_monitor] Monitoring AXI4 master interface for transactions
UVM_INFO ../master/axi4_master_pkg.sv(87) @ 0: uvm_test_top.env.master_agent[2].driver [axi4_master_driver] Starting master driver run_phase
UVM_INFO ../master/axi4_master_pkg.sv(132) @ 0: uvm_test_top.env.master_agent[2].monitor [axi4_master_monitor] Starting master monitor run_phase
UVM_INFO ../master/axi4_master_pkg.sv(133) @ 0: uvm_test_top.env.master_agent[2].monitor [axi4_master_monitor] Monitoring AXI4 master interface for transactions
UVM_INFO ../master/axi4_master_pkg.sv(87) @ 0: uvm_test_top.env.master_agent[3].driver [axi4_master_driver] Starting master driver run_phase
UVM_INFO ../master/axi4_master_pkg.sv(132) @ 0: uvm_test_top.env.master_agent[3].monitor [axi4_master_monitor] Starting master monitor run_phase
UVM_INFO ../master/axi4_master_pkg.sv(133) @ 0: uvm_test_top.env.master_agent[3].monitor [axi4_master_monitor] Monitoring AXI4 master interface for transactions
UVM_INFO ../master/axi4_master_pkg.sv(87) @ 0: uvm_test_top.env.master_agent[4].driver [axi4_master_driver] Starting master driver run_phase
UVM_INFO ../master/axi4_master_pkg.sv(132) @ 0: uvm_test_top.env.master_agent[4].monitor [axi4_master_monitor] Starting master monitor run_phase
UVM_INFO ../master/axi4_master_pkg.sv(133) @ 0: uvm_test_top.env.master_agent[4].monitor [axi4_master_monitor] Monitoring AXI4 master interface for transactions
UVM_INFO ../master/axi4_master_pkg.sv(87) @ 0: uvm_test_top.env.master_agent[5].driver [axi4_master_driver] Starting master driver run_phase
UVM_INFO ../master/axi4_master_pkg.sv(132) @ 0: uvm_test_top.env.master_agent[5].monitor [axi4_master_monitor] Starting master monitor run_phase
UVM_INFO ../master/axi4_master_pkg.sv(133) @ 0: uvm_test_top.env.master_agent[5].monitor [axi4_master_monitor] Monitoring AXI4 master interface for transactions
UVM_INFO ../master/axi4_master_pkg.sv(87) @ 0: uvm_test_top.env.master_agent[6].driver [axi4_master_driver] Starting master driver run_phase
UVM_INFO ../master/axi4_master_pkg.sv(132) @ 0: uvm_test_top.env.master_agent[6].monitor [axi4_master_monitor] Starting master monitor run_phase
UVM_INFO ../master/axi4_master_pkg.sv(133) @ 0: uvm_test_top.env.master_agent[6].monitor [axi4_master_monitor] Monitoring AXI4 master interface for transactions
UVM_INFO ../master/axi4_master_pkg.sv(87) @ 0: uvm_test_top.env.master_agent[7].driver [axi4_master_driver] Starting master driver run_phase
UVM_INFO ../master/axi4_master_pkg.sv(132) @ 0: uvm_test_top.env.master_agent[7].monitor [axi4_master_monitor] Starting master monitor run_phase
UVM_INFO ../master/axi4_master_pkg.sv(133) @ 0: uvm_test_top.env.master_agent[7].monitor [axi4_master_monitor] Monitoring AXI4 master interface for transactions
UVM_INFO ../master/axi4_master_pkg.sv(87) @ 0: uvm_test_top.env.master_agent[8].driver [axi4_master_driver] Starting master driver run_phase
UVM_INFO ../master/axi4_master_pkg.sv(132) @ 0: uvm_test_top.env.master_agent[8].monitor [axi4_master_monitor] Starting master monitor run_phase
UVM_INFO ../master/axi4_master_pkg.sv(133) @ 0: uvm_test_top.env.master_agent[8].monitor [axi4_master_monitor] Monitoring AXI4 master interface for transactions
UVM_INFO ../slave/axi4_slave_pkg.sv(82) @ 0: uvm_test_top.env.slave_agent[0].monitor [axi4_slave_monitor] Starting slave monitor run_phase
UVM_INFO ../slave/axi4_slave_pkg.sv(83) @ 0: uvm_test_top.env.slave_agent[0].monitor [axi4_slave_monitor] Monitoring AXI4 slave interface for transactions
UVM_INFO ../slave/axi4_slave_pkg.sv(82) @ 0: uvm_test_top.env.slave_agent[1].monitor [axi4_slave_monitor] Starting slave monitor run_phase
UVM_INFO ../slave/axi4_slave_pkg.sv(83) @ 0: uvm_test_top.env.slave_agent[1].monitor [axi4_slave_monitor] Monitoring AXI4 slave interface for transactions
UVM_INFO ../slave/axi4_slave_pkg.sv(82) @ 0: uvm_test_top.env.slave_agent[2].monitor [axi4_slave_monitor] Starting slave monitor run_phase
UVM_INFO ../slave/axi4_slave_pkg.sv(83) @ 0: uvm_test_top.env.slave_agent[2].monitor [axi4_slave_monitor] Monitoring AXI4 slave interface for transactions
UVM_INFO ../slave/axi4_slave_pkg.sv(82) @ 0: uvm_test_top.env.slave_agent[3].monitor [axi4_slave_monitor] Starting slave monitor run_phase
UVM_INFO ../slave/axi4_slave_pkg.sv(83) @ 0: uvm_test_top.env.slave_agent[3].monitor [axi4_slave_monitor] Monitoring AXI4 slave interface for transactions
UVM_INFO ../slave/axi4_slave_pkg.sv(82) @ 0: uvm_test_top.env.slave_agent[4].monitor [axi4_slave_monitor] Starting slave monitor run_phase
UVM_INFO ../slave/axi4_slave_pkg.sv(83) @ 0: uvm_test_top.env.slave_agent[4].monitor [axi4_slave_monitor] Monitoring AXI4 slave interface for transactions
UVM_INFO ../slave/axi4_slave_pkg.sv(82) @ 0: uvm_test_top.env.slave_agent[5].monitor [axi4_slave_monitor] Starting slave monitor run_phase
UVM_INFO ../slave/axi4_slave_pkg.sv(83) @ 0: uvm_test_top.env.slave_agent[5].monitor [axi4_slave_monitor] Monitoring AXI4 slave interface for transactions
UVM_INFO ../slave/axi4_slave_pkg.sv(82) @ 0: uvm_test_top.env.slave_agent[6].monitor [axi4_slave_monitor] Starting slave monitor run_phase
UVM_INFO ../slave/axi4_slave_pkg.sv(83) @ 0: uvm_test_top.env.slave_agent[6].monitor [axi4_slave_monitor] Monitoring AXI4 slave interface for transactions
UVM_INFO ../slave/axi4_slave_pkg.sv(82) @ 0: uvm_test_top.env.slave_agent[7].monitor [axi4_slave_monitor] Starting slave monitor run_phase
UVM_INFO ../slave/axi4_slave_pkg.sv(83) @ 0: uvm_test_top.env.slave_agent[7].monitor [axi4_slave_monitor] Monitoring AXI4 slave interface for transactions
UVM_INFO ../slave/axi4_slave_pkg.sv(82) @ 0: uvm_test_top.env.slave_agent[8].monitor [axi4_slave_monitor] Starting slave monitor run_phase
UVM_INFO ../slave/axi4_slave_pkg.sv(83) @ 0: uvm_test_top.env.slave_agent[8].monitor [axi4_slave_monitor] Monitoring AXI4 slave interface for transactions
UVM_INFO ../test/axi4_stress_test.sv(22) @ 0: uvm_test_top [axi4_stress_test] Starting stress test
UVM_INFO ../virtual_seq/axi4_virtual_stress_seq.sv(24) @ 0: uvm_test_top.env.v_seqr@@stress_seq [axi4_virtual_stress_seq] Starting virtual stress sequence
UVM_INFO ../master/axi4_master_pkg.sv(92) @ 0: uvm_test_top.env.master_agent[8].driver [axi4_master_driver] Got WRITE transaction - addr=0xdabeab6a, len=239, size=7, burst=2
UVM_INFO ../master/axi4_master_pkg.sv(92) @ 0: uvm_test_top.env.master_agent[7].driver [axi4_master_driver] Got READ transaction - addr=0xb0c9ded9, len=227, size=1, burst=3
UVM_INFO ../master/axi4_master_pkg.sv(92) @ 0: uvm_test_top.env.master_agent[6].driver [axi4_master_driver] Got READ transaction - addr=0x76f1ec4e, len=73, size=4, burst=3
UVM_INFO ../master/axi4_master_pkg.sv(92) @ 0: uvm_test_top.env.master_agent[5].driver [axi4_master_driver] Got READ transaction - addr=0x259d3794, len=96, size=0, burst=3
UVM_INFO ../master/axi4_master_pkg.sv(92) @ 0: uvm_test_top.env.master_agent[4].driver [axi4_master_driver] Got WRITE transaction - addr=0xdbdfe509, len=4, size=4, burst=1
UVM_INFO ../master/axi4_master_pkg.sv(92) @ 0: uvm_test_top.env.master_agent[3].driver [axi4_master_driver] Got READ transaction - addr=0xe87544a6, len=162, size=4, burst=1
UVM_INFO ../master/axi4_master_pkg.sv(92) @ 0: uvm_test_top.env.master_agent[2].driver [axi4_master_driver] Got WRITE transaction - addr=0x1113c2b7, len=179, size=5, burst=2
UVM_INFO ../master/axi4_master_pkg.sv(92) @ 0: uvm_test_top.env.master_agent[1].driver [axi4_master_driver] Got READ transaction - addr=0x86e1e756, len=39, size=3, burst=3
UVM_INFO ../master/axi4_master_pkg.sv(92) @ 0: uvm_test_top.env.master_agent[0].driver [axi4_master_driver] Got READ transaction - addr=0x201216dd, len=53, size=0, burst=3
*Verdi* : Begin traversing the scope (hdl_top.dut), layer (0).
*Verdi* : Enable +all dumping.
*Verdi* : End of traversing.
[1000] Added DUT internal signals to FSDB dump
UVM_INFO ../master/axi4_master_pkg.sv(92) @ 100000: uvm_test_top.env.master_agent[0].driver [axi4_master_driver] Got READ transaction - addr=0xb2ad560e, len=150, size=3, burst=3
UVM_INFO ../master/axi4_master_pkg.sv(92) @ 100000: uvm_test_top.env.master_agent[1].driver [axi4_master_driver] Got READ transaction - addr=0x77da7e66, len=148, size=3, burst=2
UVM_INFO ../master/axi4_master_pkg.sv(92) @ 100000: uvm_test_top.env.master_agent[2].driver [axi4_master_driver] Got READ transaction - addr=0x90d67c96, len=28, size=4, burst=3
UVM_INFO ../master/axi4_master_pkg.sv(92) @ 100000: uvm_test_top.env.master_agent[3].driver [axi4_master_driver] Got WRITE transaction - addr=0xa22aee96, len=69, size=4, burst=2
UVM_INFO ../master/axi4_master_pkg.sv(92) @ 100000: uvm_test_top.env.master_agent[4].driver [axi4_master_driver] Got WRITE transaction - addr=0x94b6a20c, len=46, size=1, burst=2
UVM_INFO ../master/axi4_master_pkg.sv(92) @ 100000: uvm_test_top.env.master_agent[5].driver [axi4_master_driver] Got WRITE transaction - addr=0xbfba6ce2, len=246, size=4, burst=0
UVM_INFO ../master/axi4_master_pkg.sv(92) @ 100000: uvm_test_top.env.master_agent[6].driver [axi4_master_driver] Got WRITE transaction - addr=0xd14a64ca, len=76, size=4, burst=2
UVM_INFO ../master/axi4_master_pkg.sv(92) @ 100000: uvm_test_top.env.master_agent[7].driver [axi4_master_driver] Got WRITE transaction - addr=0xe83ea380, len=219, size=3, burst=3
UVM_INFO ../master/axi4_master_pkg.sv(92) @ 100000: uvm_test_top.env.master_agent[8].driver [axi4_master_driver] Got READ transaction - addr=0xe34b100e, len=112, size=5, burst=0
UVM_INFO ../agent/slave_agent_bfm/axi4_slave_driver_bfm.sv(35) @ 145000: reporter [AXI_SLAVE_DRIVER_BFM] Starting write transaction handling
UVM_INFO ../agent/slave_agent_bfm/axi4_slave_driver_bfm.sv(48) @ 145000: reporter [AXI_SLAVE_DRIVER_BFM] Starting read transaction handling
UVM_INFO ../agent/slave_agent_bfm/axi4_slave_driver_bfm.sv(35) @ 145000: reporter [AXI_SLAVE_DRIVER_BFM] Starting write transaction handling
UVM_INFO ../agent/slave_agent_bfm/axi4_slave_driver_bfm.sv(48) @ 145000: reporter [AXI_SLAVE_DRIVER_BFM] Starting read transaction handling
UVM_INFO ../agent/slave_agent_bfm/axi4_slave_driver_bfm.sv(35) @ 145000: reporter [AXI_SLAVE_DRIVER_BFM] Starting write transaction handling
UVM_INFO ../agent/slave_agent_bfm/axi4_slave_driver_bfm.sv(48) @ 145000: reporter [AXI_SLAVE_DRIVER_BFM] Starting read transaction handling
UVM_INFO ../agent/slave_agent_bfm/axi4_slave_driver_bfm.sv(35) @ 145000: reporter [AXI_SLAVE_DRIVER_BFM] Starting write transaction handling
UVM_INFO ../agent/slave_agent_bfm/axi4_slave_driver_bfm.sv(48) @ 145000: reporter [AXI_SLAVE_DRIVER_BFM] Starting read transaction handling
UVM_INFO ../agent/slave_agent_bfm/axi4_slave_driver_bfm.sv(35) @ 145000: reporter [AXI_SLAVE_DRIVER_BFM] Starting write transaction handling
UVM_INFO ../agent/slave_agent_bfm/axi4_slave_driver_bfm.sv(48) @ 145000: reporter [AXI_SLAVE_DRIVER_BFM] Starting read transaction handling
UVM_INFO ../agent/slave_agent_bfm/axi4_slave_driver_bfm.sv(35) @ 145000: reporter [AXI_SLAVE_DRIVER_BFM] Starting write transaction handling
UVM_INFO ../agent/slave_agent_bfm/axi4_slave_driver_bfm.sv(48) @ 145000: reporter [AXI_SLAVE_DRIVER_BFM] Starting read transaction handling
UVM_INFO ../agent/slave_agent_bfm/axi4_slave_driver_bfm.sv(35) @ 145000: reporter [AXI_SLAVE_DRIVER_BFM] Starting write transaction handling
UVM_INFO ../agent/slave_agent_bfm/axi4_slave_driver_bfm.sv(48) @ 145000: reporter [AXI_SLAVE_DRIVER_BFM] Starting read transaction handling
UVM_INFO ../agent/slave_agent_bfm/axi4_slave_driver_bfm.sv(35) @ 145000: reporter [AXI_SLAVE_DRIVER_BFM] Starting write transaction handling
UVM_INFO ../agent/slave_agent_bfm/axi4_slave_driver_bfm.sv(48) @ 145000: reporter [AXI_SLAVE_DRIVER_BFM] Starting read transaction handling
UVM_INFO ../agent/slave_agent_bfm/axi4_slave_driver_bfm.sv(35) @ 145000: reporter [AXI_SLAVE_DRIVER_BFM] Starting write transaction handling
UVM_INFO ../agent/slave_agent_bfm/axi4_slave_driver_bfm.sv(48) @ 145000: reporter [AXI_SLAVE_DRIVER_BFM] Starting read transaction handling
UVM_INFO ../master/axi4_master_pkg.sv(92) @ 200000: uvm_test_top.env.master_agent[8].driver [axi4_master_driver] Got WRITE transaction - addr=0xb2b7045f, len=177, size=0, burst=1
UVM_INFO ../master/axi4_master_pkg.sv(92) @ 200000: uvm_test_top.env.master_agent[7].driver [axi4_master_driver] Got WRITE transaction - addr=0x5ac624ac, len=95, size=1, burst=2
UVM_INFO ../master/axi4_master_pkg.sv(92) @ 200000: uvm_test_top.env.master_agent[6].driver [axi4_master_driver] Got WRITE transaction - addr=0xe28c4aaf, len=234, size=7, burst=3
UVM_INFO ../master/axi4_master_pkg.sv(92) @ 200000: uvm_test_top.env.master_agent[5].driver [axi4_master_driver] Got WRITE transaction - addr=0x7ffb20b7, len=235, size=1, burst=3
UVM_INFO ../master/axi4_master_pkg.sv(92) @ 200000: uvm_test_top.env.master_agent[4].driver [axi4_master_driver] Got READ transaction - addr=0xa4de62dd, len=147, size=0, burst=3
UVM_INFO ../master/axi4_master_pkg.sv(92) @ 200000: uvm_test_top.env.master_agent[3].driver [axi4_master_driver] Got READ transaction - addr=0x56b1c11b, len=209, size=5, burst=3
UVM_INFO ../master/axi4_master_pkg.sv(92) @ 200000: uvm_test_top.env.master_agent[2].driver [axi4_master_driver] Got WRITE transaction - addr=0x87f330fc, len=94, size=2, burst=3
UVM_INFO ../master/axi4_master_pkg.sv(92) @ 200000: uvm_test_top.env.master_agent[1].driver [axi4_master_driver] Got READ transaction - addr=0x5c2262ef, len=75, size=7, burst=2
UVM_INFO ../master/axi4_master_pkg.sv(92) @ 200000: uvm_test_top.env.master_agent[0].driver [axi4_master_driver] Got READ transaction - addr=0xa41b2e17, len=206, size=7, burst=3
UVM_INFO ../master/axi4_master_pkg.sv(92) @ 300000: uvm_test_top.env.master_agent[0].driver [axi4_master_driver] Got READ transaction - addr=0xd33f202f, len=240, size=4, burst=1
UVM_INFO ../master/axi4_master_pkg.sv(92) @ 300000: uvm_test_top.env.master_agent[1].driver [axi4_master_driver] Got WRITE transaction - addr=0x7fdf070f, len=241, size=4, burst=2
UVM_INFO ../master/axi4_master_pkg.sv(92) @ 300000: uvm_test_top.env.master_agent[2].driver [axi4_master_driver] Got READ transaction - addr=0x4828466f, len=218, size=4, burst=2
UVM_INFO ../master/axi4_master_pkg.sv(92) @ 300000: uvm_test_top.env.master_agent[3].driver [axi4_master_driver] Got READ transaction - addr=0x4193e0a6, len=42, size=7, burst=0
UVM_INFO ../master/axi4_master_pkg.sv(92) @ 300000: uvm_test_top.env.master_agent[4].driver [axi4_master_driver] Got READ transaction - addr=0x9359da95, len=26, size=0, burst=0
UVM_INFO ../master/axi4_master_pkg.sv(92) @ 300000: uvm_test_top.env.master_agent[5].driver [axi4_master_driver] Got WRITE transaction - addr=0x11515e51, len=90, size=5, burst=2
UVM_INFO ../master/axi4_master_pkg.sv(92) @ 300000: uvm_test_top.env.master_agent[6].driver [axi4_master_driver] Got WRITE transaction - addr=0x7e83132b, len=142, size=1, burst=0
UVM_INFO ../master/axi4_master_pkg.sv(92) @ 300000: uvm_test_top.env.master_agent[7].driver [axi4_master_driver] Got WRITE transaction - addr=0x1b2a7469, len=158, size=7, burst=3
UVM_INFO ../master/axi4_master_pkg.sv(92) @ 300000: uvm_test_top.env.master_agent[8].driver [axi4_master_driver] Got WRITE transaction - addr=0x9389cc27, len=14, size=1, burst=3
UVM_INFO ../agent/master_agent_bfm/axi4_master_driver_bfm.sv(79) @ 335000: reporter [AXI_MASTER_DRIVER_BFM] Write Transaction 1: addr=0xa1098c6c, len=7, size=3, burst=0, id=4
UVM_INFO ../agent/master_agent_bfm/axi4_master_driver_bfm.sv(79) @ 335000: reporter [AXI_MASTER_DRIVER_BFM] Write Transaction 1: addr=0xa1098c6c, len=7, size=3, burst=0, id=4
UVM_INFO ../agent/master_agent_bfm/axi4_master_driver_bfm.sv(79) @ 335000: reporter [AXI_MASTER_DRIVER_BFM] Write Transaction 1: addr=0xa1098c6c, len=7, size=3, burst=0, id=4
UVM_INFO ../agent/master_agent_bfm/axi4_master_driver_bfm.sv(79) @ 335000: reporter [AXI_MASTER_DRIVER_BFM] Write Transaction 1: addr=0xa1098c6c, len=7, size=3, burst=0, id=4
UVM_INFO ../agent/master_agent_bfm/axi4_master_driver_bfm.sv(79) @ 335000: reporter [AXI_MASTER_DRIVER_BFM] Write Transaction 1: addr=0xa1098c6c, len=7, size=3, burst=0, id=4
UVM_INFO ../agent/master_agent_bfm/axi4_master_driver_bfm.sv(79) @ 335000: reporter [AXI_MASTER_DRIVER_BFM] Write Transaction 1: addr=0xa1098c6c, len=7, size=3, burst=0, id=4
UVM_INFO ../agent/master_agent_bfm/axi4_master_driver_bfm.sv(79) @ 335000: reporter [AXI_MASTER_DRIVER_BFM] Write Transaction 1: addr=0xa1098c6c, len=7, size=3, burst=0, id=4
UVM_INFO ../agent/master_agent_bfm/axi4_master_driver_bfm.sv(79) @ 335000: reporter [AXI_MASTER_DRIVER_BFM] Write Transaction 1: addr=0xa1098c6c, len=7, size=3, burst=0, id=4
UVM_INFO ../agent/master_agent_bfm/axi4_master_driver_bfm.sv(79) @ 335000: reporter [AXI_MASTER_DRIVER_BFM] Write Transaction 1: addr=0xa1098c6c, len=7, size=3, burst=0, id=4
UVM_INFO ../master/axi4_master_pkg.sv(92) @ 400000: uvm_test_top.env.master_agent[8].driver [axi4_master_driver] Got WRITE transaction - addr=0x3ef60577, len=46, size=0, burst=2
UVM_INFO ../master/axi4_master_pkg.sv(92) @ 400000: uvm_test_top.env.master_agent[7].driver [axi4_master_driver] Got READ transaction - addr=0xd5b3a9d2, len=102, size=2, burst=1
UVM_INFO ../master/axi4_master_pkg.sv(92) @ 400000: uvm_test_top.env.master_agent[6].driver [axi4_master_driver] Got WRITE transaction - addr=0x5801edd1, len=155, size=2, burst=3
UVM_INFO ../master/axi4_master_pkg.sv(92) @ 400000: uvm_test_top.env.master_agent[5].driver [axi4_master_driver] Got WRITE transaction - addr=0x42a13fd2, len=232, size=0, burst=2
UVM_INFO ../master/axi4_master_pkg.sv(92) @ 400000: uvm_test_top.env.master_agent[4].driver [axi4_master_driver] Got READ transaction - addr=0xa97779c3, len=239, size=0, burst=1
UVM_INFO ../master/axi4_master_pkg.sv(92) @ 400000: uvm_test_top.env.master_agent[3].driver [axi4_master_driver] Got READ transaction - addr=0x69eea544, len=190, size=1, burst=3
UVM_INFO ../master/axi4_master_pkg.sv(92) @ 400000: uvm_test_top.env.master_agent[2].driver [axi4_master_driver] Got READ transaction - addr=0x85cfe082, len=223, size=0, burst=0
UVM_INFO ../master/axi4_master_pkg.sv(92) @ 400000: uvm_test_top.env.master_agent[1].driver [axi4_master_driver] Got WRITE transaction - addr=0xe3bb8932, len=201, size=6, burst=1
UVM_INFO ../master/axi4_master_pkg.sv(92) @ 400000: uvm_test_top.env.master_agent[0].driver [axi4_master_driver] Got WRITE transaction - addr=0x44f8cd10, len=122, size=2, burst=3
UVM_INFO ../agent/master_agent_bfm/axi4_master_driver_bfm.sv(125) @ 475000: reporter [AXI_MASTER_DRIVER_BFM] Write response received for transaction 1, bresp=3
UVM_INFO ../master/axi4_master_pkg.sv(92) @ 500000: uvm_test_top.env.master_agent[0].driver [axi4_master_driver] Got WRITE transaction - addr=0x7405fe7b, len=7, size=2, burst=3
UVM_INFO ../master/axi4_master_pkg.sv(92) @ 500000: uvm_test_top.env.master_agent[1].driver [axi4_master_driver] Got READ transaction - addr=0x46f25427, len=116, size=1, burst=0
UVM_INFO ../master/axi4_master_pkg.sv(92) @ 500000: uvm_test_top.env.master_agent[2].driver [axi4_master_driver] Got READ transaction - addr=0xe974cd24, len=130, size=7, burst=1
UVM_INFO ../master/axi4_master_pkg.sv(92) @ 500000: uvm_test_top.env.master_agent[3].driver [axi4_master_driver] Got WRITE transaction - addr=0x70aed162, len=99, size=5, burst=2
UVM_INFO ../master/axi4_master_pkg.sv(92) @ 500000: uvm_test_top.env.master_agent[4].driver [axi4_master_driver] Got READ transaction - addr=0x1ea245d, len=79, size=0, burst=2
UVM_INFO ../master/axi4_master_pkg.sv(92) @ 500000: uvm_test_top.env.master_agent[5].driver [axi4_master_driver] Got READ transaction - addr=0x72c755e8, len=245, size=0, burst=1
UVM_INFO ../master/axi4_master_pkg.sv(92) @ 500000: uvm_test_top.env.master_agent[6].driver [axi4_master_driver] Got WRITE transaction - addr=0x92ee50ae, len=71, size=0, burst=0
UVM_INFO ../master/axi4_master_pkg.sv(92) @ 500000: uvm_test_top.env.master_agent[7].driver [axi4_master_driver] Got READ transaction - addr=0xfd75fc0c, len=204, size=4, burst=0
UVM_INFO ../master/axi4_master_pkg.sv(92) @ 500000: uvm_test_top.env.master_agent[8].driver [axi4_master_driver] Got WRITE transaction - addr=0x7bb98c93, len=234, size=6, burst=0
UVM_INFO ../agent/master_agent_bfm/axi4_master_driver_bfm.sv(148) @ 575000: reporter [AXI_MASTER_DRIVER_BFM] Read Transaction 1: addr=0xff93608a, len=9, size=3, burst=0, id=1
UVM_INFO ../master/axi4_master_pkg.sv(92) @ 600000: uvm_test_top.env.master_agent[8].driver [axi4_master_driver] Got READ transaction - addr=0x6113c3e9, len=194, size=2, burst=3
UVM_INFO ../master/axi4_master_pkg.sv(92) @ 600000: uvm_test_top.env.master_agent[7].driver [axi4_master_driver] Got WRITE transaction - addr=0x49e8a3ee, len=209, size=0, burst=3
UVM_INFO ../master/axi4_master_pkg.sv(92) @ 600000: uvm_test_top.env.master_agent[6].driver [axi4_master_driver] Got READ transaction - addr=0x61596bc, len=99, size=0, burst=2
UVM_INFO ../master/axi4_master_pkg.sv(92) @ 600000: uvm_test_top.env.master_agent[5].driver [axi4_master_driver] Got READ transaction - addr=0xc4dd5fbd, len=35, size=6, burst=3
UVM_INFO ../master/axi4_master_pkg.sv(92) @ 600000: uvm_test_top.env.master_agent[4].driver [axi4_master_driver] Got READ transaction - addr=0x1dbbcfe3, len=56, size=5, burst=3
UVM_INFO ../master/axi4_master_pkg.sv(92) @ 600000: uvm_test_top.env.master_agent[3].driver [axi4_master_driver] Got READ transaction - addr=0x8fb12387, len=102, size=7, burst=1
UVM_INFO ../master/axi4_master_pkg.sv(92) @ 600000: uvm_test_top.env.master_agent[2].driver [axi4_master_driver] Got WRITE transaction - addr=0xb48f635e, len=39, size=1, burst=3
UVM_INFO ../master/axi4_master_pkg.sv(92) @ 600000: uvm_test_top.env.master_agent[1].driver [axi4_master_driver] Got WRITE transaction - addr=0x9ea8f15b, len=225, size=3, burst=0
UVM_INFO ../master/axi4_master_pkg.sv(92) @ 600000: uvm_test_top.env.master_agent[0].driver [axi4_master_driver] Got READ transaction - addr=0x61e4991b, len=125, size=2, burst=0
UVM_INFO ../master/axi4_master_pkg.sv(92) @ 700000: uvm_test_top.env.master_agent[0].driver [axi4_master_driver] Got READ transaction - addr=0x2f2d90bf, len=12, size=7, burst=3
UVM_INFO ../master/axi4_master_pkg.sv(92) @ 700000: uvm_test_top.env.master_agent[1].driver [axi4_master_driver] Got READ transaction - addr=0x5ec6b867, len=172, size=6, burst=3
UVM_INFO ../master/axi4_master_pkg.sv(92) @ 700000: uvm_test_top.env.master_agent[2].driver [axi4_master_driver] Got WRITE transaction - addr=0xbdb1b133, len=42, size=0, burst=0
UVM_INFO ../master/axi4_master_pkg.sv(92) @ 700000: uvm_test_top.env.master_agent[3].driver [axi4_master_driver] Got WRITE transaction - addr=0x1223e238, len=194, size=1, burst=1
UVM_INFO ../master/axi4_master_pkg.sv(92) @ 700000: uvm_test_top.env.master_agent[4].driver [axi4_master_driver] Got WRITE transaction - addr=0x66f2786f, len=37, size=7, burst=3
UVM_INFO ../master/axi4_master_pkg.sv(92) @ 700000: uvm_test_top.env.master_agent[5].driver [axi4_master_driver] Got WRITE transaction - addr=0xd695623d, len=55, size=5, burst=0
UVM_INFO ../master/axi4_master_pkg.sv(92) @ 700000: uvm_test_top.env.master_agent[6].driver [axi4_master_driver] Got WRITE transaction - addr=0x1b422c3d, len=21, size=4, burst=2
UVM_INFO ../master/axi4_master_pkg.sv(92) @ 700000: uvm_test_top.env.master_agent[7].driver [axi4_master_driver] Got READ transaction - addr=0xd7876b3a, len=37, size=2, burst=3
UVM_INFO ../master/axi4_master_pkg.sv(92) @ 700000: uvm_test_top.env.master_agent[8].driver [axi4_master_driver] Got WRITE transaction - addr=0x76286dc1, len=251, size=1, burst=1
UVM_INFO ../agent/master_agent_bfm/axi4_master_driver_bfm.sv(190) @ 715000: reporter [AXI_MASTER_DRIVER_BFM] Read transaction 1 completed
UVM_INFO ../master/axi4_master_pkg.sv(92) @ 800000: uvm_test_top.env.master_agent[8].driver [axi4_master_driver] Got WRITE transaction - addr=0x58d41a25, len=204, size=0, burst=1
UVM_INFO ../master/axi4_master_pkg.sv(92) @ 800000: uvm_test_top.env.master_agent[7].driver [axi4_master_driver] Got READ transaction - addr=0x6e71d42e, len=40, size=0, burst=2
UVM_INFO ../master/axi4_master_pkg.sv(92) @ 800000: uvm_test_top.env.master_agent[6].driver [axi4_master_driver] Got WRITE transaction - addr=0x372974c1, len=248, size=3, burst=2
UVM_INFO ../master/axi4_master_pkg.sv(92) @ 800000: uvm_test_top.env.master_agent[5].driver [axi4_master_driver] Got READ transaction - addr=0x739f020f, len=0, size=1, burst=2
UVM_INFO ../master/axi4_master_pkg.sv(92) @ 800000: uvm_test_top.env.master_agent[4].driver [axi4_master_driver] Got WRITE transaction - addr=0xa2cdebf8, len=70, size=2, burst=1
UVM_INFO ../master/axi4_master_pkg.sv(92) @ 800000: uvm_test_top.env.master_agent[3].driver [axi4_master_driver] Got READ transaction - addr=0x95f8c8d, len=151, size=2, burst=0
UVM_INFO ../master/axi4_master_pkg.sv(92) @ 800000: uvm_test_top.env.master_agent[2].driver [axi4_master_driver] Got WRITE transaction - addr=0x726095c7, len=79, size=5, burst=2
UVM_INFO ../master/axi4_master_pkg.sv(92) @ 800000: uvm_test_top.env.master_agent[1].driver [axi4_master_driver] Got READ transaction - addr=0xe67edf47, len=64, size=1, burst=1
UVM_INFO ../master/axi4_master_pkg.sv(92) @ 800000: uvm_test_top.env.master_agent[0].driver [axi4_master_driver] Got READ transaction - addr=0x40b0b066, len=168, size=5, burst=1
UVM_INFO ../master/axi4_master_pkg.sv(92) @ 900000: uvm_test_top.env.master_agent[0].driver [axi4_master_driver] Got WRITE transaction - addr=0xa80941aa, len=144, size=4, burst=2
UVM_INFO ../master/axi4_master_pkg.sv(92) @ 900000: uvm_test_top.env.master_agent[1].driver [axi4_master_driver] Got WRITE transaction - addr=0xbc6fc35d, len=249, size=4, burst=3
UVM_INFO ../master/axi4_master_pkg.sv(92) @ 900000: uvm_test_top.env.master_agent[2].driver [axi4_master_driver] Got READ transaction - addr=0x405a7f9c, len=96, size=4, burst=2
UVM_INFO ../master/axi4_master_pkg.sv(92) @ 900000: uvm_test_top.env.master_agent[3].driver [axi4_master_driver] Got WRITE transaction - addr=0xfd0b8f0, len=164, size=6, burst=3
UVM_INFO ../master/axi4_master_pkg.sv(92) @ 900000: uvm_test_top.env.master_agent[4].driver [axi4_master_driver] Got READ transaction - addr=0x2cf2748a, len=73, size=3, burst=1
UVM_INFO ../master/axi4_master_pkg.sv(92) @ 900000: uvm_test_top.env.master_agent[5].driver [axi4_master_driver] Got READ transaction - addr=0x7ac8647c, len=172, size=0, burst=1
UVM_INFO ../master/axi4_master_pkg.sv(92) @ 900000: uvm_test_top.env.master_agent[6].driver [axi4_master_driver] Got READ transaction - addr=0xe078e9a5, len=220, size=3, burst=1
UVM_INFO ../master/axi4_master_pkg.sv(92) @ 900000: uvm_test_top.env.master_agent[7].driver [axi4_master_driver] Got READ transaction - addr=0x7ae2a107, len=183, size=6, burst=3
UVM_INFO ../master/axi4_master_pkg.sv(92) @ 900000: uvm_test_top.env.master_agent[8].driver [axi4_master_driver] Got WRITE transaction - addr=0x45708cd7, len=78, size=5, burst=0
UVM_INFO ../master/axi4_master_pkg.sv(92) @ 1000000: uvm_test_top.env.master_agent[8].driver [axi4_master_driver] Got READ transaction - addr=0x3ac43bc9, len=254, size=2, burst=0
UVM_INFO ../master/axi4_master_pkg.sv(92) @ 1000000: uvm_test_top.env.master_agent[7].driver [axi4_master_driver] Got WRITE transaction - addr=0xd9e6cca0, len=182, size=2, burst=1
UVM_INFO ../master/axi4_master_pkg.sv(92) @ 1000000: uvm_test_top.env.master_agent[6].driver [axi4_master_driver] Got WRITE transaction - addr=0xc225d0ba, len=38, size=0, burst=2
UVM_INFO ../master/axi4_master_pkg.sv(92) @ 1000000: uvm_test_top.env.master_agent[5].driver [axi4_master_driver] Got READ transaction - addr=0xdaedb714, len=225, size=5, burst=2
UVM_INFO ../master/axi4_master_pkg.sv(92) @ 1000000: uvm_test_top.env.master_agent[4].driver [axi4_master_driver] Got READ transaction - addr=0x693f74ed, len=17, size=7, burst=1
UVM_INFO ../master/axi4_master_pkg.sv(92) @ 1000000: uvm_test_top.env.master_agent[3].driver [axi4_master_driver] Got WRITE transaction - addr=0xb74452f9, len=6, size=0, burst=2
UVM_INFO ../master/axi4_master_pkg.sv(92) @ 1000000: uvm_test_top.env.master_agent[2].driver [axi4_master_driver] Got WRITE transaction - addr=0x10b0d5a9, len=125, size=6, burst=2
UVM_INFO ../master/axi4_master_pkg.sv(92) @ 1000000: uvm_test_top.env.master_agent[1].driver [axi4_master_driver] Got READ transaction - addr=0x6ff08c88, len=224, size=4, burst=1
UVM_INFO ../master/axi4_master_pkg.sv(92) @ 1000000: uvm_test_top.env.master_agent[0].driver [axi4_master_driver] Got WRITE transaction - addr=0xc4e75d64, len=158, size=4, burst=2
UVM_INFO ../agent/master_agent_bfm/axi4_master_driver_bfm.sv(79) @ 1015000: reporter [AXI_MASTER_DRIVER_BFM] Write Transaction 2: addr=0xe36f04f8, len=10, size=0, burst=1, id=3
UVM_INFO ../master/axi4_master_pkg.sv(92) @ 1100000: uvm_test_top.env.master_agent[0].driver [axi4_master_driver] Got READ transaction - addr=0x1e950d09, len=193, size=6, burst=2
UVM_INFO ../master/axi4_master_pkg.sv(92) @ 1100000: uvm_test_top.env.master_agent[1].driver [axi4_master_driver] Got READ transaction - addr=0x1ee839d, len=85, size=5, burst=3
UVM_INFO ../master/axi4_master_pkg.sv(92) @ 1100000: uvm_test_top.env.master_agent[2].driver [axi4_master_driver] Got WRITE transaction - addr=0x319729d0, len=160, size=6, burst=1
UVM_INFO ../master/axi4_master_pkg.sv(92) @ 1100000: uvm_test_top.env.master_agent[3].driver [axi4_master_driver] Got READ transaction - addr=0xefcf4c54, len=66, size=4, burst=2
UVM_INFO ../master/axi4_master_pkg.sv(92) @ 1100000: uvm_test_top.env.master_agent[4].driver [axi4_master_driver] Got READ transaction - addr=0xec3bfe7, len=51, size=5, burst=1
UVM_INFO ../master/axi4_master_pkg.sv(92) @ 1100000: uvm_test_top.env.master_agent[5].driver [axi4_master_driver] Got READ transaction - addr=0x7dfdf4f0, len=88, size=6, burst=1
UVM_INFO ../master/axi4_master_pkg.sv(92) @ 1100000: uvm_test_top.env.master_agent[6].driver [axi4_master_driver] Got WRITE transaction - addr=0x9dceb5db, len=158, size=7, burst=3
UVM_INFO ../master/axi4_master_pkg.sv(92) @ 1100000: uvm_test_top.env.master_agent[7].driver [axi4_master_driver] Got READ transaction - addr=0xfe6d4bdb, len=91, size=4, burst=1
UVM_INFO ../master/axi4_master_pkg.sv(92) @ 1100000: uvm_test_top.env.master_agent[8].driver [axi4_master_driver] Got READ transaction - addr=0x46c43a4c, len=50, size=5, burst=0
UVM_INFO ../agent/master_agent_bfm/axi4_master_driver_bfm.sv(125) @ 1185000: reporter [AXI_MASTER_DRIVER_BFM] Write response received for transaction 2, bresp=3
UVM_INFO ../master/axi4_master_pkg.sv(92) @ 1200000: uvm_test_top.env.master_agent[8].driver [axi4_master_driver] Got READ transaction - addr=0x4792ef8f, len=191, size=0, burst=3
UVM_INFO ../master/axi4_master_pkg.sv(92) @ 1200000: uvm_test_top.env.master_agent[7].driver [axi4_master_driver] Got READ transaction - addr=0xbaf3185e, len=55, size=1, burst=1
UVM_INFO ../master/axi4_master_pkg.sv(92) @ 1200000: uvm_test_top.env.master_agent[6].driver [axi4_master_driver] Got WRITE transaction - addr=0xe36ba85f, len=88, size=3, burst=0
UVM_INFO ../master/axi4_master_pkg.sv(92) @ 1200000: uvm_test_top.env.master_agent[5].driver [axi4_master_driver] Got READ transaction - addr=0x3f25f1e1, len=156, size=0, burst=1
UVM_INFO ../master/axi4_master_pkg.sv(92) @ 1200000: uvm_test_top.env.master_agent[4].driver [axi4_master_driver] Got WRITE transaction - addr=0x79c3762d, len=206, size=5, burst=3
UVM_INFO ../master/axi4_master_pkg.sv(92) @ 1200000: uvm_test_top.env.master_agent[3].driver [axi4_master_driver] Got WRITE transaction - addr=0x4794e7fe, len=4, size=0, burst=0
UVM_INFO ../master/axi4_master_pkg.sv(92) @ 1200000: uvm_test_top.env.master_agent[2].driver [axi4_master_driver] Got READ transaction - addr=0xbe4fa3b6, len=21, size=3, burst=3
UVM_INFO ../master/axi4_master_pkg.sv(92) @ 1200000: uvm_test_top.env.master_agent[1].driver [axi4_master_driver] Got WRITE transaction - addr=0xc04df79d, len=70, size=5, burst=0
UVM_INFO ../master/axi4_master_pkg.sv(92) @ 1200000: uvm_test_top.env.master_agent[0].driver [axi4_master_driver] Got READ transaction - addr=0x3093b0e6, len=64, size=7, burst=2
UVM_INFO ../master/axi4_master_pkg.sv(92) @ 1300000: uvm_test_top.env.master_agent[0].driver [axi4_master_driver] Got READ transaction - addr=0xe23bbff9, len=187, size=5, burst=3
UVM_INFO ../master/axi4_master_pkg.sv(92) @ 1300000: uvm_test_top.env.master_agent[1].driver [axi4_master_driver] Got WRITE transaction - addr=0x5b3248c1, len=252, size=5, burst=0
UVM_INFO ../master/axi4_master_pkg.sv(92) @ 1300000: uvm_test_top.env.master_agent[2].driver [axi4_master_driver] Got READ transaction - addr=0x5bef4573, len=75, size=5, burst=2
UVM_INFO ../master/axi4_master_pkg.sv(92) @ 1300000: uvm_test_top.env.master_agent[3].driver [axi4_master_driver] Got READ transaction - addr=0xabf97442, len=242, size=7, burst=0
UVM_INFO ../master/axi4_master_pkg.sv(92) @ 1300000: uvm_test_top.env.master_agent[4].driver [axi4_master_driver] Got READ transaction - addr=0x3c5b0d2e, len=40, size=1, burst=3
UVM_INFO ../master/axi4_master_pkg.sv(92) @ 1300000: uvm_test_top.env.master_agent[5].driver [axi4_master_driver] Got READ transaction - addr=0xdcb70e9a, len=79, size=6, burst=0
UVM_INFO ../master/axi4_master_pkg.sv(92) @ 1300000: uvm_test_top.env.master_agent[6].driver [axi4_master_driver] Got WRITE transaction - addr=0x2aef38e1, len=2, size=0, burst=0
UVM_INFO ../master/axi4_master_pkg.sv(92) @ 1300000: uvm_test_top.env.master_agent[7].driver [axi4_master_driver] Got WRITE transaction - addr=0x415c06dd, len=98, size=4, burst=3
UVM_INFO ../master/axi4_master_pkg.sv(92) @ 1300000: uvm_test_top.env.master_agent[8].driver [axi4_master_driver] Got WRITE transaction - addr=0x716226c4, len=169, size=7, burst=2
UVM_INFO ../agent/master_agent_bfm/axi4_master_driver_bfm.sv(148) @ 1315000: reporter [AXI_MASTER_DRIVER_BFM] Read Transaction 2: addr=0xe23e7da4, len=12, size=3, burst=1, id=3
UVM_INFO ../master/axi4_master_pkg.sv(92) @ 1400000: uvm_test_top.env.master_agent[8].driver [axi4_master_driver] Got WRITE transaction - addr=0x131f181f, len=254, size=0, burst=1
UVM_INFO ../master/axi4_master_pkg.sv(92) @ 1400000: uvm_test_top.env.master_agent[7].driver [axi4_master_driver] Got WRITE transaction - addr=0xda93d822, len=217, size=0, burst=1
UVM_INFO ../master/axi4_master_pkg.sv(92) @ 1400000: uvm_test_top.env.master_agent[6].driver [axi4_master_driver] Got READ transaction - addr=0x7d59e6b4, len=97, size=3, burst=0
UVM_INFO ../master/axi4_master_pkg.sv(92) @ 1400000: uvm_test_top.env.master_agent[5].driver [axi4_master_driver] Got READ transaction - addr=0xbc571447, len=15, size=6, burst=0
UVM_INFO ../master/axi4_master_pkg.sv(92) @ 1400000: uvm_test_top.env.master_agent[4].driver [axi4_master_driver] Got READ transaction - addr=0x9f87bad6, len=214, size=1, burst=2
UVM_INFO ../master/axi4_master_pkg.sv(92) @ 1400000: uvm_test_top.env.master_agent[3].driver [axi4_master_driver] Got READ transaction - addr=0x59797c5d, len=79, size=0, burst=1
UVM_INFO ../master/axi4_master_pkg.sv(92) @ 1400000: uvm_test_top.env.master_agent[2].driver [axi4_master_driver] Got READ transaction - addr=0x3c4b112b, len=173, size=3, burst=1
UVM_INFO ../master/axi4_master_pkg.sv(92) @ 1400000: uvm_test_top.env.master_agent[1].driver [axi4_master_driver] Got WRITE transaction - addr=0x9245cb45, len=215, size=0, burst=3
UVM_INFO ../master/axi4_master_pkg.sv(92) @ 1400000: uvm_test_top.env.master_agent[0].driver [axi4_master_driver] Got READ transaction - addr=0x161beb71, len=116, size=2, burst=1
UVM_INFO ../agent/master_agent_bfm/axi4_master_driver_bfm.sv(190) @ 1485000: reporter [AXI_MASTER_DRIVER_BFM] Read transaction 2 completed
UVM_INFO ../master/axi4_master_pkg.sv(92) @ 1500000: uvm_test_top.env.master_agent[0].driver [axi4_master_driver] Got READ transaction - addr=0x96a4a04c, len=204, size=0, burst=1
UVM_INFO ../master/axi4_master_pkg.sv(92) @ 1500000: uvm_test_top.env.master_agent[1].driver [axi4_master_driver] Got WRITE transaction - addr=0x957e7e35, len=229, size=2, burst=1
UVM_INFO ../master/axi4_master_pkg.sv(92) @ 1500000: uvm_test_top.env.master_agent[2].driver [axi4_master_driver] Got WRITE transaction - addr=0x47e7a43d, len=202, size=7, burst=1
UVM_INFO ../master/axi4_master_pkg.sv(92) @ 1500000: uvm_test_top.env.master_agent[3].driver [axi4_master_driver] Got READ transaction - addr=0xe3ce0535, len=9, size=4, burst=3
UVM_INFO ../master/axi4_master_pkg.sv(92) @ 1500000: uvm_test_top.env.master_agent[4].driver [axi4_master_driver] Got WRITE transaction - addr=0x7eba19b8, len=161, size=4, burst=0
UVM_INFO ../master/axi4_master_pkg.sv(92) @ 1500000: uvm_test_top.env.master_agent[5].driver [axi4_master_driver] Got WRITE transaction - addr=0x6ef9544d, len=68, size=0, burst=2
UVM_INFO ../master/axi4_master_pkg.sv(92) @ 1500000: uvm_test_top.env.master_agent[6].driver [axi4_master_driver] Got WRITE transaction - addr=0x5b43f6ee, len=8, size=6, burst=0
UVM_INFO ../master/axi4_master_pkg.sv(92) @ 1500000: uvm_test_top.env.master_agent[7].driver [axi4_master_driver] Got WRITE transaction - addr=0x89590783, len=142, size=2, burst=1
UVM_INFO ../master/axi4_master_pkg.sv(92) @ 1500000: uvm_test_top.env.master_agent[8].driver [axi4_master_driver] Got READ transaction - addr=0xdf001818, len=163, size=1, burst=0
UVM_INFO ../master/axi4_master_pkg.sv(92) @ 1600000: uvm_test_top.env.master_agent[8].driver [axi4_master_driver] Got WRITE transaction - addr=0xd85b620e, len=251, size=0, burst=3
UVM_INFO ../master/axi4_master_pkg.sv(92) @ 1600000: uvm_test_top.env.master_agent[7].driver [axi4_master_driver] Got WRITE transaction - addr=0xaf9df2cc, len=219, size=4, burst=2
UVM_INFO ../master/axi4_master_pkg.sv(92) @ 1600000: uvm_test_top.env.master_agent[6].driver [axi4_master_driver] Got READ transaction - addr=0x57653616, len=158, size=5, burst=1
UVM_INFO ../master/axi4_master_pkg.sv(92) @ 1600000: uvm_test_top.env.master_agent[5].driver [axi4_master_driver] Got WRITE transaction - addr=0xd5570717, len=202, size=6, burst=2
UVM_INFO ../master/axi4_master_pkg.sv(92) @ 1600000: uvm_test_top.env.master_agent[4].driver [axi4_master_driver] Got READ transaction - addr=0xfe0e8296, len=137, size=5, burst=3
UVM_INFO ../master/axi4_master_pkg.sv(92) @ 1600000: uvm_test_top.env.master_agent[3].driver [axi4_master_driver] Got WRITE transaction - addr=0x6f1d7a53, len=149, size=7, burst=2
UVM_INFO ../master/axi4_master_pkg.sv(92) @ 1600000: uvm_test_top.env.master_agent[2].driver [axi4_master_driver] Got WRITE transaction - addr=0x61b01a29, len=78, size=0, burst=0
UVM_INFO ../master/axi4_master_pkg.sv(92) @ 1600000: uvm_test_top.env.master_agent[1].driver [axi4_master_driver] Got READ transaction - addr=0x754b4079, len=166, size=0, burst=1
UVM_INFO ../master/axi4_master_pkg.sv(92) @ 1600000: uvm_test_top.env.master_agent[0].driver [axi4_master_driver] Got WRITE transaction - addr=0xd766f51d, len=207, size=3, burst=0
UVM_INFO ../master/axi4_master_pkg.sv(92) @ 1700000: uvm_test_top.env.master_agent[0].driver [axi4_master_driver] Got WRITE transaction - addr=0x5b23fb46, len=13, size=4, burst=0
UVM_INFO ../master/axi4_master_pkg.sv(92) @ 1700000: uvm_test_top.env.master_agent[1].driver [axi4_master_driver] Got READ transaction - addr=0x8bc4f1af, len=120, size=3, burst=2
UVM_INFO ../master/axi4_master_pkg.sv(92) @ 1700000: uvm_test_top.env.master_agent[2].driver [axi4_master_driver] Got WRITE transaction - addr=0xa9068bf5, len=154, size=3, burst=0
UVM_INFO ../master/axi4_master_pkg.sv(92) @ 1700000: uvm_test_top.env.master_agent[3].driver [axi4_master_driver] Got READ transaction - addr=0x3ae56b1b, len=106, size=2, burst=0
UVM_INFO ../master/axi4_master_pkg.sv(92) @ 1700000: uvm_test_top.env.master_agent[4].driver [axi4_master_driver] Got WRITE transaction - addr=0xd3d3dd08, len=34, size=4, burst=0
UVM_INFO ../master/axi4_master_pkg.sv(92) @ 1700000: uvm_test_top.env.master_agent[5].driver [axi4_master_driver] Got WRITE transaction - addr=0x7ae5b4e7, len=228, size=6, burst=3
UVM_INFO ../master/axi4_master_pkg.sv(92) @ 1700000: uvm_test_top.env.master_agent[6].driver [axi4_master_driver] Got READ transaction - addr=0xeb7f3e8e, len=245, size=1, burst=1
UVM_INFO ../master/axi4_master_pkg.sv(92) @ 1700000: uvm_test_top.env.master_agent[7].driver [axi4_master_driver] Got WRITE transaction - addr=0x255fc31f, len=216, size=3, burst=2
UVM_INFO ../master/axi4_master_pkg.sv(92) @ 1700000: uvm_test_top.env.master_agent[8].driver [axi4_master_driver] Got READ transaction - addr=0xd6658241, len=191, size=5, burst=0
UVM_INFO ../master/axi4_master_pkg.sv(92) @ 1800000: uvm_test_top.env.master_agent[8].driver [axi4_master_driver] Got READ transaction - addr=0x72e32be9, len=39, size=7, burst=1
UVM_INFO ../master/axi4_master_pkg.sv(92) @ 1800000: uvm_test_top.env.master_agent[7].driver [axi4_master_driver] Got READ transaction - addr=0x2a71246f, len=189, size=1, burst=0
UVM_INFO ../master/axi4_master_pkg.sv(92) @ 1800000: uvm_test_top.env.master_agent[6].driver [axi4_master_driver] Got WRITE transaction - addr=0xa842355b, len=6, size=7, burst=0
UVM_INFO ../master/axi4_master_pkg.sv(92) @ 1800000: uvm_test_top.env.master_agent[5].driver [axi4_master_driver] Got READ transaction - addr=0x8a8a6d6b, len=131, size=1, burst=1
UVM_INFO ../master/axi4_master_pkg.sv(92) @ 1800000: uvm_test_top.env.master_agent[4].driver [axi4_master_driver] Got WRITE transaction - addr=0x5832f305, len=237, size=3, burst=0
UVM_INFO ../master/axi4_master_pkg.sv(92) @ 1800000: uvm_test_top.env.master_agent[3].driver [axi4_master_driver] Got READ transaction - addr=0xa7c9cc40, len=151, size=3, burst=3
UVM_INFO ../master/axi4_master_pkg.sv(92) @ 1800000: uvm_test_top.env.master_agent[2].driver [axi4_master_driver] Got READ transaction - addr=0x938da7c8, len=107, size=6, burst=1
UVM_INFO ../master/axi4_master_pkg.sv(92) @ 1800000: uvm_test_top.env.master_agent[1].driver [axi4_master_driver] Got READ transaction - addr=0xb6f9321a, len=110, size=7, burst=3
UVM_INFO ../master/axi4_master_pkg.sv(92) @ 1800000: uvm_test_top.env.master_agent[0].driver [axi4_master_driver] Got READ transaction - addr=0xfb8812e6, len=83, size=0, burst=2
UVM_INFO ../master/axi4_master_pkg.sv(92) @ 1900000: uvm_test_top.env.master_agent[0].driver [axi4_master_driver] Got READ transaction - addr=0xbda9901e, len=0, size=3, burst=1
UVM_INFO ../master/axi4_master_pkg.sv(92) @ 1900000: uvm_test_top.env.master_agent[1].driver [axi4_master_driver] Got WRITE transaction - addr=0xa0f9a7eb, len=57, size=5, burst=3
UVM_INFO ../master/axi4_master_pkg.sv(92) @ 1900000: uvm_test_top.env.master_agent[2].driver [axi4_master_driver] Got READ transaction - addr=0xf55e824a, len=65, size=0, burst=2
UVM_INFO ../master/axi4_master_pkg.sv(92) @ 1900000: uvm_test_top.env.master_agent[3].driver [axi4_master_driver] Got WRITE transaction - addr=0xa3ce3ea1, len=54, size=5, burst=0
UVM_INFO ../master/axi4_master_pkg.sv(92) @ 1900000: uvm_test_top.env.master_agent[4].driver [axi4_master_driver] Got WRITE transaction - addr=0xc9f65b40, len=60, size=1, burst=2
UVM_INFO ../master/axi4_master_pkg.sv(92) @ 1900000: uvm_test_top.env.master_agent[5].driver [axi4_master_driver] Got READ transaction - addr=0x7a9e4406, len=149, size=3, burst=2
UVM_INFO ../master/axi4_master_pkg.sv(92) @ 1900000: uvm_test_top.env.master_agent[6].driver [axi4_master_driver] Got WRITE transaction - addr=0x6314670e, len=128, size=6, burst=3
UVM_INFO ../master/axi4_master_pkg.sv(92) @ 1900000: uvm_test_top.env.master_agent[7].driver [axi4_master_driver] Got READ transaction - addr=0x49b025, len=90, size=1, burst=3
UVM_INFO ../master/axi4_master_pkg.sv(92) @ 1900000: uvm_test_top.env.master_agent[8].driver [axi4_master_driver] Got READ transaction - addr=0x9e548fde, len=162, size=2, burst=3
UVM_INFO ../agent/master_agent_bfm/axi4_master_driver_bfm.sv(79) @ 1995000: reporter [AXI_MASTER_DRIVER_BFM] Write Transaction 3: addr=0x2044868e, len=9, size=1, burst=2, id=0
UVM_INFO ../master/axi4_master_pkg.sv(92) @ 2000000: uvm_test_top.env.master_agent[8].driver [axi4_master_driver] Got WRITE transaction - addr=0x4899a064, len=65, size=3, burst=1
UVM_INFO ../master/axi4_master_pkg.sv(92) @ 2000000: uvm_test_top.env.master_agent[7].driver [axi4_master_driver] Got WRITE transaction - addr=0xe496ef41, len=199, size=5, burst=3
UVM_INFO ../master/axi4_master_pkg.sv(92) @ 2000000: uvm_test_top.env.master_agent[6].driver [axi4_master_driver] Got READ transaction - addr=0xea4b87e8, len=1, size=4, burst=1
UVM_INFO ../master/axi4_master_pkg.sv(92) @ 2000000: uvm_test_top.env.master_agent[5].driver [axi4_master_driver] Got WRITE transaction - addr=0xa65b16cd, len=52, size=1, burst=3
UVM_INFO ../master/axi4_master_pkg.sv(92) @ 2000000: uvm_test_top.env.master_agent[4].driver [axi4_master_driver] Got WRITE transaction - addr=0x95257ca6, len=245, size=4, burst=3
UVM_INFO ../master/axi4_master_pkg.sv(92) @ 2000000: uvm_test_top.env.master_agent[3].driver [axi4_master_driver] Got READ transaction - addr=0x54d40696, len=9, size=3, burst=2
UVM_INFO ../master/axi4_master_pkg.sv(92) @ 2000000: uvm_test_top.env.master_agent[2].driver [axi4_master_driver] Got WRITE transaction - addr=0x89554e31, len=90, size=1, burst=0
UVM_INFO ../master/axi4_master_pkg.sv(92) @ 2000000: uvm_test_top.env.master_agent[1].driver [axi4_master_driver] Got WRITE transaction - addr=0x17b8fdeb, len=126, size=7, burst=2
UVM_INFO ../master/axi4_master_pkg.sv(92) @ 2000000: uvm_test_top.env.master_agent[0].driver [axi4_master_driver] Got READ transaction - addr=0x6bb0acc, len=147, size=1, burst=3
UVM_INFO ../master/axi4_master_pkg.sv(92) @ 2100000: uvm_test_top.env.master_agent[0].driver [axi4_master_driver] Got WRITE transaction - addr=0xb5422e77, len=105, size=7, burst=0
UVM_INFO ../master/axi4_master_pkg.sv(92) @ 2100000: uvm_test_top.env.master_agent[1].driver [axi4_master_driver] Got READ transaction - addr=0x388a9474, len=251, size=5, burst=2
UVM_INFO ../master/axi4_master_pkg.sv(92) @ 2100000: uvm_test_top.env.master_agent[2].driver [axi4_master_driver] Got READ transaction - addr=0xbb71af51, len=91, size=6, burst=2
UVM_INFO ../master/axi4_master_pkg.sv(92) @ 2100000: uvm_test_top.env.master_agent[3].driver [axi4_master_driver] Got READ transaction - addr=0xa1a56350, len=36, size=2, burst=2
UVM_INFO ../master/axi4_master_pkg.sv(92) @ 2100000: uvm_test_top.env.master_agent[4].driver [axi4_master_driver] Got READ transaction - addr=0x411721cf, len=59, size=3, burst=3
UVM_INFO ../master/axi4_master_pkg.sv(92) @ 2100000: uvm_test_top.env.master_agent[5].driver [axi4_master_driver] Got WRITE transaction - addr=0x49c93f8, len=161, size=0, burst=3
UVM_INFO ../master/axi4_master_pkg.sv(92) @ 2100000: uvm_test_top.env.master_agent[6].driver [axi4_master_driver] Got WRITE transaction - addr=0x5f7f53c9, len=189, size=1, burst=3
UVM_INFO ../master/axi4_master_pkg.sv(92) @ 2100000: uvm_test_top.env.master_agent[7].driver [axi4_master_driver] Got READ transaction - addr=0x173507d7, len=192, size=0, burst=0
UVM_INFO ../master/axi4_master_pkg.sv(92) @ 2100000: uvm_test_top.env.master_agent[8].driver [axi4_master_driver] Got READ transaction - addr=0xd1bfdbcd, len=236, size=0, burst=1
UVM_INFO ../agent/master_agent_bfm/axi4_master_driver_bfm.sv(125) @ 2155000: reporter [AXI_MASTER_DRIVER_BFM] Write response received for transaction 3, bresp=3
UVM_INFO ../master/axi4_master_pkg.sv(92) @ 2200000: uvm_test_top.env.master_agent[8].driver [axi4_master_driver] Got WRITE transaction - addr=0x4283755f, len=228, size=7, burst=0
UVM_INFO ../master/axi4_master_pkg.sv(92) @ 2200000: uvm_test_top.env.master_agent[7].driver [axi4_master_driver] Got WRITE transaction - addr=0x15b5de07, len=167, size=0, burst=3
UVM_INFO ../master/axi4_master_pkg.sv(92) @ 2200000: uvm_test_top.env.master_agent[6].driver [axi4_master_driver] Got READ transaction - addr=0x146844f8, len=106, size=2, burst=3
UVM_INFO ../master/axi4_master_pkg.sv(92) @ 2200000: uvm_test_top.env.master_agent[5].driver [axi4_master_driver] Got READ transaction - addr=0x9bde9189, len=6, size=7, burst=1
UVM_INFO ../master/axi4_master_pkg.sv(92) @ 2200000: uvm_test_top.env.master_agent[4].driver [axi4_master_driver] Got WRITE transaction - addr=0xbbb82da8, len=131, size=7, burst=2
UVM_INFO ../master/axi4_master_pkg.sv(92) @ 2200000: uvm_test_top.env.master_agent[3].driver [axi4_master_driver] Got READ transaction - addr=0xc948c9be, len=178, size=6, burst=1
UVM_INFO ../master/axi4_master_pkg.sv(92) @ 2200000: uvm_test_top.env.master_agent[2].driver [axi4_master_driver] Got WRITE transaction - addr=0xda4ddd73, len=126, size=1, burst=1
UVM_INFO ../master/axi4_master_pkg.sv(92) @ 2200000: uvm_test_top.env.master_agent[1].driver [axi4_master_driver] Got READ transaction - addr=0x7046cddf, len=180, size=1, burst=3
UVM_INFO ../master/axi4_master_pkg.sv(92) @ 2200000: uvm_test_top.env.master_agent[0].driver [axi4_master_driver] Got WRITE transaction - addr=0xd10b6e8a, len=100, size=6, burst=3
UVM_INFO ../master/axi4_master_pkg.sv(92) @ 2300000: uvm_test_top.env.master_agent[0].driver [axi4_master_driver] Got READ transaction - addr=0xebe41afb, len=198, size=7, burst=0
UVM_INFO ../master/axi4_master_pkg.sv(92) @ 2300000: uvm_test_top.env.master_agent[1].driver [axi4_master_driver] Got READ transaction - addr=0xafbd636e, len=112, size=2, burst=2
UVM_INFO ../master/axi4_master_pkg.sv(92) @ 2300000: uvm_test_top.env.master_agent[2].driver [axi4_master_driver] Got WRITE transaction - addr=0x33dfaab3, len=156, size=6, burst=3
UVM_INFO ../master/axi4_master_pkg.sv(92) @ 2300000: uvm_test_top.env.master_agent[3].driver [axi4_master_driver] Got WRITE transaction - addr=0xeb37fedf, len=109, size=6, burst=1
UVM_INFO ../master/axi4_master_pkg.sv(92) @ 2300000: uvm_test_top.env.master_agent[4].driver [axi4_master_driver] Got READ transaction - addr=0x2bc731d3, len=77, size=4, burst=3
UVM_INFO ../master/axi4_master_pkg.sv(92) @ 2300000: uvm_test_top.env.master_agent[5].driver [axi4_master_driver] Got WRITE transaction - addr=0x36ed70a8, len=108, size=2, burst=0
UVM_INFO ../master/axi4_master_pkg.sv(92) @ 2300000: uvm_test_top.env.master_agent[6].driver [axi4_master_driver] Got WRITE transaction - addr=0x3e5e0d6d, len=224, size=3, burst=2
UVM_INFO ../master/axi4_master_pkg.sv(92) @ 2300000: uvm_test_top.env.master_agent[7].driver [axi4_master_driver] Got READ transaction - addr=0x99dbc1a1, len=18, size=2, burst=0
UVM_INFO ../master/axi4_master_pkg.sv(92) @ 2300000: uvm_test_top.env.master_agent[8].driver [axi4_master_driver] Got WRITE transaction - addr=0x270081ef, len=215, size=2, burst=2
UVM_INFO ../agent/master_agent_bfm/axi4_master_driver_bfm.sv(148) @ 2305000: reporter [AXI_MASTER_DRIVER_BFM] Read Transaction 3: addr=0xfb6f9fc6, len=11, size=2, burst=0, id=13
UVM_INFO ../master/axi4_master_pkg.sv(92) @ 2400000: uvm_test_top.env.master_agent[8].driver [axi4_master_driver] Got WRITE transaction - addr=0xc93644e9, len=12, size=5, burst=2
UVM_INFO ../master/axi4_master_pkg.sv(92) @ 2400000: uvm_test_top.env.master_agent[7].driver [axi4_master_driver] Got WRITE transaction - addr=0x8747a460, len=173, size=1, burst=0
UVM_INFO ../master/axi4_master_pkg.sv(92) @ 2400000: uvm_test_top.env.master_agent[6].driver [axi4_master_driver] Got READ transaction - addr=0xb88dbb06, len=208, size=5, burst=1
UVM_INFO ../master/axi4_master_pkg.sv(92) @ 2400000: uvm_test_top.env.master_agent[5].driver [axi4_master_driver] Got WRITE transaction - addr=0x7faebe2b, len=173, size=3, burst=2
UVM_INFO ../master/axi4_master_pkg.sv(92) @ 2400000: uvm_test_top.env.master_agent[4].driver [axi4_master_driver] Got WRITE transaction - addr=0xac2cc1db, len=148, size=4, burst=1
UVM_INFO ../master/axi4_master_pkg.sv(92) @ 2400000: uvm_test_top.env.master_agent[3].driver [axi4_master_driver] Got WRITE transaction - addr=0xf71f0ff4, len=29, size=2, burst=0
UVM_INFO ../master/axi4_master_pkg.sv(92) @ 2400000: uvm_test_top.env.master_agent[2].driver [axi4_master_driver] Got WRITE transaction - addr=0x1b312d01, len=136, size=6, burst=0
UVM_INFO ../master/axi4_master_pkg.sv(92) @ 2400000: uvm_test_top.env.master_agent[1].driver [axi4_master_driver] Got WRITE transaction - addr=0x3dfc712f, len=102, size=5, burst=2
UVM_INFO ../master/axi4_master_pkg.sv(92) @ 2400000: uvm_test_top.env.master_agent[0].driver [axi4_master_driver] Got WRITE transaction - addr=0xb206a431, len=234, size=0, burst=2
UVM_INFO ../agent/master_agent_bfm/axi4_master_driver_bfm.sv(190) @ 2465000: reporter [AXI_MASTER_DRIVER_BFM] Read transaction 3 completed
UVM_INFO ../master/axi4_master_pkg.sv(92) @ 2500000: uvm_test_top.env.master_agent[0].driver [axi4_master_driver] Got READ transaction - addr=0x53b70247, len=125, size=4, burst=3
UVM_INFO ../master/axi4_master_pkg.sv(92) @ 2500000: uvm_test_top.env.master_agent[1].driver [axi4_master_driver] Got WRITE transaction - addr=0xc11fb307, len=231, size=3, burst=0
UVM_INFO ../master/axi4_master_pkg.sv(92) @ 2500000: uvm_test_top.env.master_agent[2].driver [axi4_master_driver] Got WRITE transaction - addr=0xb34ac66c, len=140, size=2, burst=1
UVM_INFO ../master/axi4_master_pkg.sv(92) @ 2500000: uvm_test_top.env.master_agent[3].driver [axi4_master_driver] Got WRITE transaction - addr=0x73bf1115, len=215, size=7, burst=3
UVM_INFO ../master/axi4_master_pkg.sv(92) @ 2500000: uvm_test_top.env.master_agent[4].driver [axi4_master_driver] Got READ transaction - addr=0x399fc320, len=173, size=0, burst=1
UVM_INFO ../master/axi4_master_pkg.sv(92) @ 2500000: uvm_test_top.env.master_agent[5].driver [axi4_master_driver] Got WRITE transaction - addr=0xe00ac51e, len=253, size=0, burst=3
UVM_INFO ../master/axi4_master_pkg.sv(92) @ 2500000: uvm_test_top.env.master_agent[6].driver [axi4_master_driver] Got READ transaction - addr=0xa797fe53, len=161, size=5, burst=2
UVM_INFO ../master/axi4_master_pkg.sv(92) @ 2500000: uvm_test_top.env.master_agent[7].driver [axi4_master_driver] Got READ transaction - addr=0x77548424, len=24, size=4, burst=3
UVM_INFO ../master/axi4_master_pkg.sv(92) @ 2500000: uvm_test_top.env.master_agent[8].driver [axi4_master_driver] Got WRITE transaction - addr=0xa0425693, len=187, size=1, burst=3
UVM_INFO ../master/axi4_master_pkg.sv(92) @ 2600000: uvm_test_top.env.master_agent[8].driver [axi4_master_driver] Got WRITE transaction - addr=0xcb32827c, len=248, size=5, burst=2
UVM_INFO ../master/axi4_master_pkg.sv(92) @ 2600000: uvm_test_top.env.master_agent[7].driver [axi4_master_driver] Got WRITE transaction - addr=0x6cce61c1, len=150, size=1, burst=0
UVM_INFO ../master/axi4_master_pkg.sv(92) @ 2600000: uvm_test_top.env.master_agent[6].driver [axi4_master_driver] Got READ transaction - addr=0xeefba777, len=115, size=7, burst=3
UVM_INFO ../master/axi4_master_pkg.sv(92) @ 2600000: uvm_test_top.env.master_agent[5].driver [axi4_master_driver] Got READ transaction - addr=0x878b5e89, len=116, size=0, burst=3
UVM_INFO ../master/axi4_master_pkg.sv(92) @ 2600000: uvm_test_top.env.master_agent[4].driver [axi4_master_driver] Got READ transaction - addr=0xc7b943c1, len=63, size=1, burst=3
UVM_INFO ../master/axi4_master_pkg.sv(92) @ 2600000: uvm_test_top.env.master_agent[3].driver [axi4_master_driver] Got WRITE transaction - addr=0x692d1ac1, len=233, size=0, burst=0
UVM_INFO ../master/axi4_master_pkg.sv(92) @ 2600000: uvm_test_top.env.master_agent[2].driver [axi4_master_driver] Got READ transaction - addr=0x8874689, len=130, size=3, burst=2
UVM_INFO ../master/axi4_master_pkg.sv(92) @ 2600000: uvm_test_top.env.master_agent[1].driver [axi4_master_driver] Got READ transaction - addr=0x16b4d62, len=120, size=2, burst=3
UVM_INFO ../master/axi4_master_pkg.sv(92) @ 2600000: uvm_test_top.env.master_agent[0].driver [axi4_master_driver] Got WRITE transaction - addr=0x82dfcb51, len=6, size=7, burst=2
UVM_INFO ../master/axi4_master_pkg.sv(92) @ 2700000: uvm_test_top.env.master_agent[0].driver [axi4_master_driver] Got READ transaction - addr=0xdb69977a, len=41, size=4, burst=0
UVM_INFO ../master/axi4_master_pkg.sv(92) @ 2700000: uvm_test_top.env.master_agent[1].driver [axi4_master_driver] Got WRITE transaction - addr=0xd9ea9507, len=89, size=7, burst=0
UVM_INFO ../master/axi4_master_pkg.sv(92) @ 2700000: uvm_test_top.env.master_agent[2].driver [axi4_master_driver] Got WRITE transaction - addr=0x4f1a59cf, len=51, size=1, burst=1
UVM_INFO ../master/axi4_master_pkg.sv(92) @ 2700000: uvm_test_top.env.master_agent[3].driver [axi4_master_driver] Got READ transaction - addr=0xf2d8e8b4, len=20, size=1, burst=1
UVM_INFO ../master/axi4_master_pkg.sv(92) @ 2700000: uvm_test_top.env.master_agent[4].driver [axi4_master_driver] Got WRITE transaction - addr=0xc1b43508, len=250, size=1, burst=0
UVM_INFO ../master/axi4_master_pkg.sv(92) @ 2700000: uvm_test_top.env.master_agent[5].driver [axi4_master_driver] Got WRITE transaction - addr=0x940cc8e, len=205, size=2, burst=2
UVM_INFO ../master/axi4_master_pkg.sv(92) @ 2700000: uvm_test_top.env.master_agent[6].driver [axi4_master_driver] Got READ transaction - addr=0x57c570da, len=11, size=2, burst=1
UVM_INFO ../master/axi4_master_pkg.sv(92) @ 2700000: uvm_test_top.env.master_agent[7].driver [axi4_master_driver] Got READ transaction - addr=0x3da8e307, len=252, size=3, burst=1
UVM_INFO ../master/axi4_master_pkg.sv(92) @ 2700000: uvm_test_top.env.master_agent[8].driver [axi4_master_driver] Got WRITE transaction - addr=0xc23f6846, len=221, size=6, burst=0
UVM_INFO ../master/axi4_master_pkg.sv(92) @ 2800000: uvm_test_top.env.master_agent[8].driver [axi4_master_driver] Got READ transaction - addr=0x579e3dbd, len=172, size=4, burst=3
UVM_INFO ../master/axi4_master_pkg.sv(92) @ 2800000: uvm_test_top.env.master_agent[7].driver [axi4_master_driver] Got WRITE transaction - addr=0x48a05234, len=4, size=2, burst=3
UVM_INFO ../master/axi4_master_pkg.sv(92) @ 2800000: uvm_test_top.env.master_agent[6].driver [axi4_master_driver] Got WRITE transaction - addr=0x52274d85, len=124, size=1, burst=3
UVM_INFO ../master/axi4_master_pkg.sv(92) @ 2800000: uvm_test_top.env.master_agent[5].driver [axi4_master_driver] Got READ transaction - addr=0x2069e37c, len=201, size=5, burst=3
UVM_INFO ../master/axi4_master_pkg.sv(92) @ 2800000: uvm_test_top.env.master_agent[4].driver [axi4_master_driver] Got WRITE transaction - addr=0xaf36e2b4, len=79, size=7, burst=0
UVM_INFO ../master/axi4_master_pkg.sv(92) @ 2800000: uvm_test_top.env.master_agent[3].driver [axi4_master_driver] Got WRITE transaction - addr=0x1817d48c, len=0, size=7, burst=0
UVM_INFO ../master/axi4_master_pkg.sv(92) @ 2800000: uvm_test_top.env.master_agent[2].driver [axi4_master_driver] Got WRITE transaction - addr=0x4ff2c9ec, len=243, size=1, burst=1
UVM_INFO ../master/axi4_master_pkg.sv(92) @ 2800000: uvm_test_top.env.master_agent[1].driver [axi4_master_driver] Got READ transaction - addr=0x515e2a2b, len=101, size=7, burst=3
UVM_INFO ../master/axi4_master_pkg.sv(92) @ 2800000: uvm_test_top.env.master_agent[0].driver [axi4_master_driver] Got WRITE transaction - addr=0x6b85d4a8, len=24, size=1, burst=2
UVM_INFO ../master/axi4_master_pkg.sv(92) @ 2900000: uvm_test_top.env.master_agent[0].driver [axi4_master_driver] Got READ transaction - addr=0xaebdc85b, len=143, size=0, burst=3
UVM_INFO ../master/axi4_master_pkg.sv(92) @ 2900000: uvm_test_top.env.master_agent[1].driver [axi4_master_driver] Got WRITE transaction - addr=0x2154857b, len=182, size=0, burst=1
UVM_INFO ../master/axi4_master_pkg.sv(92) @ 2900000: uvm_test_top.env.master_agent[2].driver [axi4_master_driver] Got READ transaction - addr=0x5c2a5317, len=102, size=6, burst=1
UVM_INFO ../master/axi4_master_pkg.sv(92) @ 2900000: uvm_test_top.env.master_agent[3].driver [axi4_master_driver] Got READ transaction - addr=0xfb422341, len=134, size=5, burst=3
UVM_INFO ../master/axi4_master_pkg.sv(92) @ 2900000: uvm_test_top.env.master_agent[4].driver [axi4_master_driver] Got WRITE transaction - addr=0xef4004b4, len=206, size=3, burst=1
